! Touchstone file generated by AntScope2
# MHz Z RI R 50
! Format: Frequency Z-real Z-imaginary (normalized to 50 Ohm)
7.000000 2.728 1.646
7.011500 2.77 1.753
7.023000 2.812 1.863
7.034500 2.856 1.975
7.046000 2.898 2.086
7.057500 2.942 2.206
7.069000 2.989 2.312
7.080500 3.034 2.427
7.092000 3.08 2.544
7.103500 3.119 2.66
7.115000 3.159 2.771
7.126500 3.2 2.876
7.138000 3.244 2.989
7.149500 3.294 3.096
7.161000 3.338 3.214
7.172500 3.382 3.333
7.184000 3.432 3.451
7.195500 3.482 3.567
7.207000 3.527 3.687
7.218500 3.574 3.804
7.230000 3.622 3.922
7.241500 3.672 4.039
7.253000 3.72 4.161
7.264500 3.767 4.274
7.276000 3.813 4.389
7.287500 3.879 4.454
7.299000 3.919 4.626
7.310500 3.976 4.731
7.322000 4.03 4.847
7.333500 4.082 4.975
7.345000 4.139 5.059
7.356500 4.208 5.2
7.368000 4.26 5.298
7.379500 4.318 5.411
7.391000 4.378 5.515
7.402500 4.456 5.615
7.414000 4.526 5.728
7.425500 4.599 5.828
7.437000 4.664 5.931
7.448500 4.743 6.031
7.460000 4.827 6.12
7.471500 4.947 6.243
7.483000 5.011 6.304
7.494500 5.1 6.382
7.506000 5.193 6.506
7.517500 5.266 6.694
7.529000 5.332 6.885
7.540500 5.417 7.056
7.552000 5.505 7.247
7.563500 5.588 7.451
7.575000 5.663 7.635
7.586500 5.759 7.824
7.598000 5.844 8.029
7.609500 5.914 8.228
7.621000 6.005 8.417
7.632500 6.096 8.625
7.644000 6.183 8.803
7.655500 6.272 9.021
7.667000 6.374 9.21
7.678500 6.462 9.424
7.690000 6.583 9.628
7.701500 6.679 9.813
7.713000 6.784 10.02
7.724500 6.901 10.21
7.736000 7.003 10.4
7.747500 7.12 10.58
7.759000 7.264 10.8
7.770500 7.386 10.98
7.782000 7.524 11.15
7.793500 7.676 11.34
7.805000 7.836 11.5
7.816500 7.99 11.69
7.828000 8.16 11.82
7.839500 8.352 12
7.851000 8.479 12.13
7.862500 8.708 12.27
7.874000 8.928 12.39
7.885500 9.137 12.52
7.897000 9.352 12.65
7.908500 9.596 12.74
7.920000 9.864 12.81
7.931500 10.1 12.9
7.943000 10.39 12.98
7.954500 10.68 12.91
7.966000 10.93 12.95
7.977500 11.21 12.98
7.989000 11.52 12.9
8.000500 11.8 12.9
8.012000 12.09 13.3
8.023500 12.37 13.62
8.035000 12.64 14.03
8.046500 12.89 14.41
8.058000 13.19 14.86
8.069500 13.53 15.23
8.081000 13.82 15.6
8.092500 14.14 16.02
8.104000 14.53 16.42
8.115500 14.86 16.82
8.127000 15.22 17.14
8.138500 15.57 17.8
8.150000 15.92 17.89
8.161500 16.44 18.28
8.173000 16.73 18.74
8.184500 17.24 19.12
8.196000 17.7 19.37
8.207500 18.14 19.74
8.219000 18.62 20.11
8.230500 19.19 20.27
8.242000 19.83 20.6
8.253500 20.41 20.74
8.265000 20.88 20.91
8.276500 21.5 21.04
8.288000 22.15 21.18
8.299500 22.71 21.09
8.311000 23.36 21.09
8.322500 24.3 21.06
8.334000 24.72 20.98
8.345500 25.5 20.69
8.357000 26.06 20.39
8.368500 26.81 19.92
8.380000 27.58 19.65
8.391500 28.09 19.04
8.403000 28.61 18.33
8.414500 29.31 17.74
8.426000 29.84 16.98
8.437500 30.26 16.19
8.449000 30.66 15.27
8.460500 31.02 14.21
8.472000 31.26 13.23
8.483500 31.33 12.32
8.495000 31.46 11.35
8.506500 32.17 10.86
8.518000 33.17 10.79
8.529500 34.62 10.65
8.541000 35.95 10.57
8.552500 37.01 10.02
8.564000 38.33 10.07
8.575500 39.63 9.656
8.587000 41.02 9.334
8.598500 42.13 8.672
8.610000 43.61 8.126
8.621500 44.99 7.407
8.633000 46 6.687
8.644500 47.11 5.564
8.656000 48.3 4.719
8.667500 49.13 3.696
8.679000 49.9 2.612
8.690500 50.56 1.129
8.702000 51.05 -0.141
8.713500 51.43 -1.635
8.725000 51.66 -2.778
8.736500 51.83 -4.403
8.748000 51.5 -5.657
8.759500 51.09 -7.032
8.771000 50.78 -8.263
8.782500 49.35 -9.835
8.794000 49.59 -10.9
8.805500 48.89 -11.75
8.817000 47.62 -12.66
8.828500 46.58 -13.28
8.840000 45.48 -14.16
8.851500 44.14 -14.96
8.863000 42.78 -15.5
8.874500 41.46 -15.74
8.886000 40.34 -16.15
8.897500 39.03 -16.2
8.909000 37.75 -16.39
8.920500 36.7 -16.54
8.932000 35.24 -16.39
8.943500 34.08 -16.4
8.955000 32.8 -16.38
8.966500 31.63 -16.23
8.978000 30.48 -15.93
8.989500 29.47 -15.79
9.001000 28.52 -15.65
9.012500 28.49 -16.62
9.024000 28.2 -17.59
9.035500 28.13 -18.46
9.047000 27.79 -19.23
9.058500 27.63 -20.14
9.070000 27.06 -20.91
9.081500 26.86 -21.63
9.093000 26.45 -22.21
9.104500 25.82 -22.76
9.116000 25.43 -23.2
9.127500 24.8 -23.75
9.139000 24.43 -24.06
9.150500 23.99 -24.34
9.162000 23.46 -24.59
9.173500 22.84 -24.79
9.185000 22.3 -24.91
9.196500 21.93 -24.97
9.208000 21.47 -25.01
9.219500 20.97 -24.99
9.231000 20.46 -24.94
9.242500 19.9 -24.72
9.254000 19.58 -24.6
9.265500 19.13 -24.3
9.277000 18.77 -24.14
9.288500 18.4 -23.79
9.300000 18.01 -23.55
9.311500 17.6 -23.27
9.323000 17.35 -22.8
9.334500 16.97 -22.44
9.346000 16.74 -22.12
9.357500 16.41 -21.68
9.369000 16.09 -21.24
9.380500 15.86 -20.85
9.392000 15.59 -20.4
9.403500 15.33 -19.93
9.415000 15.06 -19.47
9.426500 14.79 -19.04
9.438000 14.55 -18.67
9.449500 14.3 -18.15
9.461000 14.05 -17.68
9.472500 13.85 -17.26
9.484000 13.65 -16.81
9.495500 13.4 -16.4
9.507000 13.15 -16.4
9.518500 12.84 -16.63
9.530000 12.62 -16.85
9.541500 12.28 -17
9.553000 12.02 -17.13
9.564500 11.84 -17.16
9.576000 11.54 -17.39
9.587500 11.24 -17.45
9.599000 11.02 -17.52
9.610500 10.79 -17.56
9.622000 10.56 -17.57
9.633500 10.31 -17.59
9.645000 10.2 -17.54
9.656500 9.938 -17.54
9.668000 9.767 -17.47
9.679500 9.569 -17.44
9.691000 9.353 -17.37
9.702500 9.243 -17.24
9.714000 9.098 -17.14
9.725500 8.951 -17.07
9.737000 8.866 -16.93
9.748500 8.816 -16.8
9.760000 8.663 -16.62
9.771500 8.548 -16.46
9.783000 8.459 -16.25
9.794500 8.383 -16.12
9.806000 8.289 -15.87
9.817500 8.176 -15.71
9.829000 8.169 -15.47
9.840500 8.125 -15.28
9.852000 8.031 -15.08
9.863500 7.956 -14.82
9.875000 7.911 -14.61
9.886500 7.884 -14.36
9.898000 7.84 -14.13
9.909500 7.796 -13.89
9.921000 7.699 -13.67
9.932500 7.667 -13.42
9.944000 7.638 -13.17
9.955500 7.634 -12.88
9.967000 7.563 -12.7
9.978500 7.496 -12.4
9.990000 7.441 -12.18
10.001500 7.402 -11.96
10.013000 7.228 -12
10.024500 7.074 -12.05
10.036000 6.945 -12.09
10.047500 6.788 -12.13
10.059000 6.632 -12.14
10.070500 6.512 -12.14
10.082000 6.403 -12.14
10.093500 6.273 -12.14
10.105000 6.158 -12.12
10.116500 6.051 -12.09
10.128000 5.945 -12.07
10.139500 5.852 -12.01
10.151000 5.763 -11.96
10.162500 5.671 -11.92
10.174000 5.603 -11.85
10.185500 5.511 -11.78
10.197000 5.446 -11.71
10.208500 5.38 -11.64
10.220000 5.324 -11.56
10.231500 5.279 -11.47
10.243000 5.217 -11.37
10.254500 5.197 -11.28
10.266000 5.169 -11.12
10.277500 5.117 -11.06
10.289000 5.086 -10.97
10.300500 5.053 -10.84
10.312000 5.027 -10.72
10.323500 5.004 -10.61
10.335000 4.995 -10.48
10.346500 4.972 -10.34
10.358000 4.946 -10.21
10.369500 4.937 -10.07
10.381000 4.922 -9.933
10.392500 4.904 -9.786
10.404000 4.877 -9.641
10.415500 4.875 -9.505
10.427000 4.851 -9.364
10.438500 4.835 -9.218
10.450000 4.837 -9.078
10.461500 4.82 -8.919
10.473000 4.806 -8.758
10.484500 4.788 -8.616
10.496000 4.775 -8.461
10.507500 4.71 -8.404
10.519000 4.622 -8.39
10.530500 4.544 -8.375
10.542000 4.465 -8.346
10.553500 4.394 -8.319
10.565000 4.328 -8.291
10.576500 4.269 -8.254
10.588000 4.203 -8.219
10.599500 4.147 -8.172
10.611000 4.098 -8.125
10.622500 4.049 -8.075
10.634000 4.001 -8.02
10.645500 3.966 -7.962
10.657000 3.93 -7.899
10.668500 3.892 -7.836
10.680000 3.86 -7.772
10.691500 3.837 -7.695
10.703000 3.809 -7.627
10.714500 3.79 -7.556
10.726000 3.781 -7.483
10.737500 3.764 -7.394
10.749000 3.745 -7.311
10.760500 3.735 -7.225
10.772000 3.728 -7.141
10.783500 3.721 -7.049
10.795000 3.711 -6.959
10.806500 3.708 -6.865
10.818000 3.704 -6.767
10.829500 3.706 -6.667
10.841000 3.706 -6.564
10.852500 3.706 -6.462
10.864000 3.707 -6.361
10.875500 3.711 -6.252
10.887000 3.714 -6.142
10.898500 3.716 -6.04
10.910000 3.722 -5.932
10.921500 3.726 -5.82
10.933000 3.73 -5.71
10.944500 3.738 -5.598
10.956000 3.74 -5.486
10.967500 3.746 -5.372
10.979000 3.751 -5.261
10.990500 3.753 -5.146
11.002000 3.756 -5.046
11.013500 3.748 -4.994
11.025000 3.738 -4.948
11.036500 3.732 -4.896
11.048000 3.73 -4.841
11.059500 3.737 -4.785
11.071000 3.739 -4.726
11.082500 3.749 -4.669
11.094000 3.769 -4.608
11.105500 3.785 -4.547
11.117000 3.806 -4.486
11.128500 3.828 -4.422
11.140000 3.853 -4.358
11.151500 3.886 -4.29
11.163000 3.919 -4.224
11.174500 3.958 -4.158
11.186000 3.999 -4.09
11.197500 4.041 -4.02
11.209000 4.087 -3.953
11.220500 4.137 -3.88
11.232000 4.188 -3.816
11.243500 4.242 -3.746
11.255000 4.299 -3.68
11.266500 4.358 -3.61
11.278000 4.416 -3.546
11.289500 4.483 -3.479
11.301000 4.548 -3.415
11.312500 4.614 -3.352
11.324000 4.678 -3.29
11.335500 4.746 -3.231
11.347000 4.818 -3.173
11.358500 4.886 -3.117
11.370000 4.954 -3.067
11.381500 5.024 -3.017
11.393000 5.096 -2.969
11.404500 5.163 -2.924
11.416000 5.23 -2.884
11.427500 5.299 -2.849
11.439000 5.363 -2.812
11.450500 5.428 -2.784
11.462000 5.484 -2.758
11.473500 5.545 -2.735
11.485000 5.595 -2.715
11.496500 5.647 -2.7
11.508000 5.723 -2.722
11.519500 5.813 -2.77
11.531000 5.901 -2.823
11.542500 5.988 -2.874
11.554000 6.073 -2.933
11.565500 6.15 -2.992
11.577000 6.231 -3.061
11.588500 6.302 -3.13
11.600000 6.374 -3.202
11.611500 6.436 -3.274
11.623000 6.498 -3.348
11.634500 6.551 -3.427
11.646000 6.6 -3.505
11.657500 6.641 -3.587
11.669000 6.679 -3.66
11.680500 6.712 -3.735
11.692000 6.74 -3.811
11.703500 6.753 -3.885
11.715000 6.773 -3.959
11.726500 6.78 -4.029
11.738000 6.78 -4.101
11.749500 6.782 -4.157
11.761000 6.766 -4.221
11.772500 6.753 -4.279
11.784000 6.736 -4.323
11.795500 6.714 -4.362
11.807000 6.681 -4.412
11.818500 6.652 -4.447
11.830000 6.613 -4.481
11.841500 6.581 -4.507
11.853000 6.532 -4.527
11.864500 6.487 -4.542
11.876000 6.44 -4.557
11.887500 6.393 -4.564
11.899000 6.341 -4.559
11.910500 6.285 -4.558
11.922000 6.227 -4.548
11.933500 6.168 -4.537
11.945000 6.201 -4.618
11.956500 6.053 -4.499
11.968000 5.995 -4.474
11.979500 5.933 -4.444
11.991000 5.863 -4.413
12.002500 5.812 -4.399
12.014000 5.772 -4.454
12.025500 5.725 -4.5
12.037000 5.682 -4.546
12.048500 5.641 -4.585
12.060000 5.595 -4.62
12.071500 5.556 -4.649
12.083000 5.511 -4.673
12.094500 5.469 -4.691
12.106000 5.422 -4.711
12.117500 5.379 -4.724
12.129000 5.337 -4.733
12.140500 5.295 -4.738
12.152000 5.252 -4.741
12.163500 5.211 -4.739
12.175000 5.174 -4.733
12.186500 5.136 -4.723
12.198000 5.093 -4.71
12.209500 5.063 -4.692
12.221000 5.024 -4.673
12.232500 4.992 -4.643
12.244000 4.955 -4.618
12.255500 4.922 -4.587
12.267000 4.889 -4.551
12.278500 4.862 -4.517
12.290000 4.83 -4.481
12.301500 4.798 -4.442
12.313000 4.769 -4.402
12.324500 4.739 -4.353
12.336000 4.716 -4.305
12.347500 4.691 -4.259
12.359000 4.662 -4.209
12.370500 4.635 -4.159
12.382000 4.608 -4.102
12.393500 4.584 -4.046
12.405000 4.557 -3.989
12.416500 4.53 -3.933
12.428000 4.507 -3.871
12.439500 4.483 -3.808
12.451000 4.457 -3.747
12.462500 4.432 -3.689
12.474000 4.406 -3.625
12.485500 4.381 -3.564
12.497000 4.356 -3.5
12.508500 4.336 -3.473
12.520000 4.317 -3.458
12.531500 4.298 -3.446
12.543000 4.282 -3.423
12.554500 4.269 -3.403
12.566000 4.252 -3.381
12.577500 4.24 -3.361
12.589000 4.231 -3.334
12.600500 4.22 -3.306
12.612000 4.213 -3.277
12.623500 4.203 -3.25
12.635000 4.196 -3.215
12.646500 4.192 -3.183
12.658000 4.185 -3.145
12.669500 4.179 -3.112
12.681000 4.177 -3.071
12.692500 4.176 -3.03
12.704000 4.169 -2.991
12.715500 4.17 -2.949
12.727000 4.166 -2.903
12.738500 4.164 -2.858
12.750000 4.166 -2.814
12.761500 4.166 -2.766
12.773000 4.169 -2.713
12.784500 4.165 -2.666
12.796000 4.165 -2.614
12.807500 4.167 -2.564
12.819000 4.169 -2.513
12.830500 4.168 -2.459
12.842000 4.17 -2.405
12.853500 4.172 -2.35
12.865000 4.173 -2.297
12.876500 4.173 -2.238
12.888000 4.175 -2.184
12.899500 4.176 -2.128
12.911000 4.176 -2.069
12.922500 4.174 -2.011
12.934000 4.158 -1.952
12.945500 4.174 -1.896
12.957000 4.174 -1.839
12.968500 4.174 -1.783
12.980000 4.17 -1.725
12.991500 4.168 -1.668
13.003000 4.17 -1.617
13.014500 4.194 -1.579
13.026000 4.214 -1.551
13.037500 4.232 -1.511
13.049000 4.251 -1.475
13.060500 4.279 -1.437
13.072000 4.303 -1.398
13.083500 4.325 -1.358
13.095000 4.352 -1.315
13.106500 4.379 -1.272
13.118000 4.403 -1.229
13.129500 4.43 -1.186
13.141000 4.458 -1.141
13.152500 4.487 -1.094
13.164000 4.515 -1.048
13.175500 4.542 -0.9962
13.187000 4.569 -0.9596
13.198500 4.6 -0.8952
13.210000 4.63 -0.849
13.221500 4.661 -0.801
13.233000 4.687 -0.751
13.244500 4.719 -0.6988
13.256000 4.749 -0.6482
13.267500 4.78 -0.5934
13.279000 4.809 -0.5378
13.290500 4.835 -0.4858
13.302000 4.865 -0.434
13.313500 4.893 -0.3782
13.325000 4.923 -0.3238
13.336500 4.949 -0.2724
13.348000 4.977 -0.217
13.359500 5.008 -0.1646
13.371000 5.036 -0.1132
13.382500 5.06 -0.0578
13.394000 5.088 -0.0078
13.405500 5.115 0.043
13.417000 5.143 0.097
13.428500 5.169 0.1438
13.440000 5.19 0.1942
13.451500 5.215 0.2414
13.463000 5.241 0.2904
13.474500 5.262 0.3344
13.486000 5.283 0.3752
13.497500 5.306 0.4204
13.509000 5.363 0.4668
13.520500 5.431 0.5166
13.532000 5.497 0.5622
13.543500 5.568 0.6124
13.555000 5.641 0.6554
13.566500 5.714 0.7104
13.578000 5.78 0.762
13.589500 5.858 0.815
13.601000 5.929 0.8628
13.612500 6.001 0.9128
13.624000 6.075 0.9692
13.635500 6.151 1.019
13.647000 6.225 1.075
13.658500 6.299 1.126
13.670000 6.377 1.176
13.681500 6.446 1.234
13.693000 6.522 1.283
13.704500 6.604 1.338
13.716000 6.672 1.388
13.727500 6.747 1.445
13.739000 6.826 1.492
13.750500 6.899 1.539
13.762000 6.974 1.589
13.773500 7.043 1.642
13.785000 7.124 1.685
13.796500 7.216 1.725
13.808000 7.257 1.774
13.819500 7.332 1.808
13.831000 7.397 1.849
13.842500 7.465 1.895
13.854000 7.531 1.921
13.865500 7.598 1.948
13.877000 7.663 1.978
13.888500 7.727 2.017
13.900000 7.781 2.041
13.911500 7.839 2.063
13.923000 7.897 2.073
13.934500 7.955 2.088
13.946000 8.006 2.108
13.957500 8.064 2.114
13.969000 8.104 2.117
13.980500 8.155 2.117
13.992000 8.196 2.104
14.003500 8.274 2.117
14.015000 8.411 2.151
14.026500 8.572 2.196
14.038000 8.712 2.24
14.049500 8.86 2.269
14.061000 9.003 2.304
14.072500 9.173 2.343
14.084000 9.31 2.376
14.095500 9.468 2.414
14.107000 9.615 2.437
14.118500 9.767 2.473
14.130000 9.926 2.51
14.141500 10.08 2.523
14.153000 10.23 2.545
14.164500 10.39 2.575
14.176000 10.54 2.581
14.187500 10.69 2.615
14.199000 10.84 2.61
14.210500 10.97 2.63
14.222000 11.13 2.637
14.233500 11.26 2.642
14.245000 11.4 2.637
14.256500 11.53 2.64
14.268000 11.64 2.64
14.279500 11.81 2.607
14.291000 11.92 2.603
14.302500 12.03 2.579
14.314000 12.15 2.574
14.325500 12.25 2.537
14.337000 12.33 2.513
14.348500 12.47 2.477
14.360000 12.51 2.429
14.371500 12.58 2.375
14.383000 12.68 2.316
14.394500 12.74 2.262
14.406000 12.81 2.218
14.417500 12.83 2.135
14.429000 12.88 2.065
14.440500 12.95 1.973
14.452000 12.97 1.909
14.463500 12.98 1.812
14.475000 13 1.728
14.486500 13.01 1.641
14.498000 12.98 1.545
14.509500 13.18 1.486
14.521000 13.42 1.433
14.532500 13.69 1.331
14.544000 13.93 1.275
14.555500 14.19 1.194
14.567000 14.41 1.107
14.578500 14.66 0.9998
14.590000 14.91 0.9194
14.601500 15.12 0.832
14.613000 15.34 0.7074
14.624500 15.71 0.618
14.636000 15.81 0.5084
14.647500 16.03 0.4006
14.659000 16.23 0.2908
14.670500 16.39 0.1456
14.682000 16.59 0.0226
14.693500 16.75 -0.1038
14.705000 16.92 -0.2666
14.716500 17.05 -0.3784
14.728000 17.22 -0.5556
14.739500 17.34 -0.6956
14.751000 17.48 -0.8678
14.762500 17.54 -1.008
14.774000 17.68 -1.118
14.785500 17.78 -1.239
14.797000 17.77 -1.414
14.808500 17.86 -1.566
14.820000 17.85 -1.726
14.831500 17.84 -1.824
14.843000 17.91 -2.023
14.854500 17.86 -2.119
14.866000 17.79 -2.248
14.877500 17.72 -2.341
14.889000 17.66 -2.495
14.900500 17.6 -2.646
14.912000 17.5 -2.735
14.923500 17.4 -2.862
14.935000 17.26 -3.012
14.946500 17.12 -3.078
14.958000 16.94 -3.153
14.969500 16.83 -3.307
14.981000 16.67 -3.403
14.992500 16.46 -3.412
15.004000 16.42 -3.59
15.015500 16.61 -3.87
15.027000 16.76 -4.122
15.038500 16.95 -4.325
15.050000 17.08 -4.604
15.061500 17.17 -4.887
15.073000 17.28 -5.15
15.084500 17.35 -5.416
15.096000 17.5 -5.665
15.107500 17.6 -5.992
15.119000 17.66 -6.188
15.130500 17.76 -6.405
15.142000 17.79 -6.632
15.153500 17.76 -6.829
15.165000 17.75 -7.047
15.176500 17.78 -7.284
15.188000 17.8 -7.429
15.199500 17.74 -7.658
15.211000 17.76 -7.829
15.222500 17.6 -7.886
15.234000 17.68 -8.097
15.245500 17.6 -8.236
15.257000 17.52 -8.413
15.268500 17.41 -8.395
15.280000 17.28 -8.597
15.291500 17.22 -8.616
15.303000 17.11 -8.716
15.314500 17.01 -8.759
15.326000 16.84 -8.821
15.337500 16.79 -8.814
15.349000 16.59 -8.824
15.360500 16.43 -8.798
15.372000 16.29 -8.813
15.383500 16.14 -8.83
15.395000 16.01 -8.766
15.406500 15.8 -8.668
15.418000 15.7 -8.653
15.429500 15.45 -8.605
15.441000 15.29 -8.53
15.452500 15.09 -8.413
15.464000 14.92 -8.348
15.475500 14.72 -8.28
15.487000 14.54 -8.176
15.498500 14.33 -8.091
15.510000 14.3 -8.267
15.521500 14.29 -8.448
15.533000 14.28 -8.692
15.544500 14.27 -8.915
15.556000 14.23 -9.066
15.567500 14.22 -9.254
15.579000 14.12 -9.409
15.590500 14.14 -9.591
15.602000 14.05 -9.724
15.613500 14.04 -9.889
15.625000 13.97 -10.01
15.636500 13.91 -10.14
15.648000 13.81 -10.21
15.659500 13.79 -10.33
15.671000 13.73 -10.41
15.682500 13.64 -10.47
15.694000 13.62 -10.52
15.705500 13.54 -10.57
15.717000 13.47 -10.58
15.728500 13.42 -10.65
15.740000 13.36 -10.67
15.751500 13.24 -10.67
15.763000 13.19 -10.65
15.774500 13.07 -10.62
15.786000 13.08 -10.6
15.797500 13.01 -10.54
15.809000 12.93 -10.49
15.820500 12.8 -10.43
15.832000 12.77 -10.36
15.843500 12.7 -10.27
15.855000 12.64 -10.21
15.866500 12.51 -10.12
15.878000 12.43 -10.03
15.889500 12.33 -9.908
15.901000 12.26 -9.827
15.912500 12.16 -9.731
15.924000 12.09 -9.553
15.935500 11.97 -9.41
15.947000 11.88 -9.299
15.958500 11.78 -9.185
15.970000 11.7 -9.006
15.981500 11.55 -8.892
15.993000 11.45 -8.737
16.004500 11.37 -8.683
16.016000 11.36 -8.858
16.027500 11.33 -8.938
16.039000 11.33 -9.066
16.050500 11.3 -9.177
16.062000 11.29 -9.273
16.073500 11.25 -9.365
16.085000 11.27 -9.428
16.096500 11.2 -9.496
16.108000 11.2 -9.594
16.119500 11.18 -9.654
16.131000 11.19 -9.717
16.142500 11.13 -9.759
16.154000 11.15 -9.793
16.165500 11.11 -9.809
16.177000 11.08 -9.845
16.188500 11.07 -9.851
16.200000 11.02 -9.844
16.211500 11.02 -9.859
16.223000 11.01 -9.865
16.234500 10.99 -9.837
16.246000 10.97 -9.786
16.257500 10.93 -9.804
16.269000 10.91 -9.753
16.280500 10.88 -9.708
16.292000 10.89 -9.655
16.303500 10.84 -9.608
16.315000 10.84 -9.55
16.326500 10.82 -9.452
16.338000 10.73 -9.401
16.349500 10.75 -9.291
16.361000 10.71 -9.241
16.372500 10.64 -9.148
16.384000 10.63 -9.031
16.395500 10.61 -8.958
16.407000 10.55 -8.85
16.418500 10.52 -8.724
16.430000 10.47 -8.666
16.441500 10.41 -8.515
16.453000 10.39 -8.41
16.464500 10.33 -8.281
16.476000 10.24 -8.181
16.487500 10.21 -8.038
16.499000 10.12 -7.939
16.510500 10.15 -8.015
16.522000 10.17 -8.129
16.533500 10.14 -8.227
16.545000 10.16 -8.322
16.556500 10.18 -8.416
16.568000 10.18 -8.496
16.579500 10.19 -8.577
16.591000 10.18 -8.662
16.602500 10.18 -8.726
16.614000 10.18 -8.802
16.625500 10.2 -8.843
16.637000 10.2 -8.913
16.648500 10.2 -8.969
16.660000 10.2 -8.995
16.671500 10.18 -9.037
16.683000 10.2 -9.069
16.694500 10.2 -9.111
16.706000 10.2 -9.146
16.717500 10.16 -9.141
16.729000 10.18 -9.154
16.740500 10.18 -9.173
16.752000 10.17 -9.158
16.763500 10.17 -9.152
16.775000 10.16 -9.145
16.786500 10.17 -9.12
16.798000 10.16 -9.11
16.809500 10.15 -9.076
16.821000 10.14 -9.006
16.832500 10.1 -8.997
16.844000 10.1 -8.939
16.855500 10.04 -8.879
16.867000 10.03 -8.809
16.878500 10 -8.769
16.890000 9.967 -8.691
16.901500 9.95 -8.617
16.913000 9.908 -8.546
16.924500 9.859 -8.485
16.936000 9.829 -8.389
16.947500 9.766 -8.303
16.959000 9.727 -8.209
16.970500 9.675 -8.124
16.982000 9.612 -8.028
16.993500 9.544 -7.935
17.005000 9.506 -7.943
17.016500 9.531 -8.05
17.028000 9.53 -8.177
17.039500 9.492 -8.282
17.051000 9.528 -8.399
17.062500 9.508 -8.509
17.074000 9.487 -8.604
17.085500 9.478 -8.687
17.097000 9.469 -8.782
17.108500 9.466 -8.853
17.120000 9.458 -8.946
17.131500 9.44 -9.042
17.143000 9.424 -9.085
17.154500 9.419 -9.173
17.166000 9.399 -9.217
17.177500 9.376 -9.276
17.189000 9.355 -9.317
17.200500 9.32 -9.349
17.212000 9.304 -9.389
17.223500 9.259 -9.409
17.235000 9.243 -9.421
17.246500 9.223 -9.448
17.258000 9.193 -9.422
