! Touchstone file generated by AntScope2
# MHz Z RI R 50
! Format: Frequency Z-real Z-imaginary (normalized to 50 Ohm)
7.000000 1.152 1.298
7.011500 1.145 1.336
7.023000 1.135 1.377
7.034500 1.135 1.414
7.046000 1.132 1.453
7.057500 1.131 1.493
7.069000 1.13 1.534
7.080500 1.131 1.573
7.092000 1.134 1.615
7.103500 1.132 1.661
7.115000 1.14 1.697
7.126500 1.145 1.738
7.138000 1.151 1.78
7.149500 1.158 1.822
7.161000 1.167 1.865
7.172500 1.176 1.908
7.184000 1.187 1.952
7.195500 1.199 1.997
7.207000 1.21 2.041
7.218500 1.223 2.086
7.230000 1.238 2.132
7.241500 1.255 2.179
7.253000 1.269 2.226
7.264500 1.289 2.275
7.276000 1.309 2.323
7.287500 1.329 2.371
7.299000 1.349 2.421
7.310500 1.374 2.474
7.322000 1.398 2.525
7.333500 1.424 2.577
7.345000 1.445 2.643
7.356500 1.484 2.693
7.368000 1.512 2.744
7.379500 1.545 2.8
7.391000 1.587 2.862
7.402500 1.616 2.921
7.414000 1.657 2.984
7.425500 1.698 3.045
7.437000 1.742 3.11
7.448500 1.789 3.175
7.460000 1.838 3.241
7.471500 1.902 3.32
7.483000 1.947 3.378
7.494500 2.007 3.449
7.506000 2.068 3.52
7.517500 2.125 3.596
7.529000 2.209 3.665
7.540500 2.28 3.744
7.552000 2.361 3.824
7.563500 2.447 3.903
7.575000 2.535 3.984
7.586500 2.633 4.068
7.598000 2.737 4.151
7.609500 2.845 4.234
7.621000 2.959 4.32
7.632500 3.085 4.406
7.644000 3.215 4.493
7.655500 3.358 4.581
7.667000 3.511 4.675
7.678500 3.674 4.754
7.690000 3.847 4.835
7.701500 4.026 4.919
7.713000 4.225 4.999
7.724500 4.433 5.078
7.736000 4.658 5.146
7.747500 4.911 5.224
7.759000 5.154 5.273
7.770500 5.436 5.319
7.782000 5.72 5.346
7.793500 6.036 5.376
7.805000 6.367 5.381
7.816500 6.711 5.369
7.828000 7.08 5.338
7.839500 7.469 5.272
7.851000 7.872 5.159
7.862500 8.287 5.038
7.874000 8.719 4.861
7.885500 9.151 4.647
7.897000 9.601 4.366
7.908500 10.04 4.049
7.920000 10.46 3.686
7.931500 10.87 3.238
7.943000 11.24 2.753
7.954500 11.56 2.193
7.966000 11.85 1.577
7.977500 12.05 0.9552
7.989000 12.19 0.2688
8.000500 12.24 -0.4052
8.012000 12.2 -1.122
8.023500 12.11 -1.804
8.035000 11.95 -2.482
8.046500 11.66 -3.107
8.058000 11.35 -3.689
8.069500 10.99 -4.244
8.081000 10.58 -4.713
8.092500 10.15 -5.145
8.104000 9.691 -5.49
8.115500 9.216 -5.779
8.127000 8.735 -6.028
8.138500 8.308 -6.244
8.150000 7.832 -6.37
8.161500 7.363 -6.487
8.173000 6.962 -6.521
8.184500 6.556 -6.549
8.196000 6.181 -6.572
8.207500 5.806 -6.55
8.219000 5.48 -6.512
8.230500 5.157 -6.476
8.242000 4.868 -6.405
8.253500 4.584 -6.336
8.265000 4.331 -6.245
8.276500 4.086 -6.156
8.288000 3.861 -6.073
8.299500 3.654 -5.976
8.311000 3.461 -5.876
8.322500 3.276 -5.781
8.334000 3.113 -5.68
8.345500 2.953 -5.583
8.357000 2.805 -5.481
8.368500 2.672 -5.381
8.380000 2.544 -5.287
8.391500 2.423 -5.192
8.403000 2.313 -5.096
8.414500 2.205 -5.001
8.426000 2.109 -4.909
8.437500 2.015 -4.821
8.449000 1.929 -4.734
8.460500 1.849 -4.652
8.472000 1.771 -4.567
8.483500 1.699 -4.487
8.495000 1.632 -4.413
8.506500 1.569 -4.332
8.518000 1.509 -4.255
8.529500 1.45 -4.184
8.541000 1.398 -4.112
8.552500 1.346 -4.044
8.564000 1.297 -3.975
8.575500 1.254 -3.907
8.587000 1.208 -3.844
8.598500 1.169 -3.783
8.610000 1.131 -3.722
8.621500 1.093 -3.662
8.633000 1.058 -3.603
8.644500 1.025 -3.549
8.656000 0.9932 -3.493
8.667500 0.962 -3.441
8.679000 0.9348 -3.388
8.690500 0.9036 -3.336
8.702000 0.88 -3.287
8.713500 0.855 -3.237
8.725000 0.8302 -3.189
8.736500 0.8072 -3.144
8.748000 0.785 -3.097
8.759500 0.7636 -3.054
8.771000 0.7432 -3.011
8.782500 0.7254 -2.971
8.794000 0.7058 -2.927
8.805500 0.6876 -2.887
8.817000 0.6702 -2.849
8.828500 0.6554 -2.81
8.840000 0.6394 -2.772
8.851500 0.6236 -2.734
8.863000 0.6094 -2.699
8.874500 0.5956 -2.663
8.886000 0.5822 -2.628
8.897500 0.5694 -2.595
8.909000 0.5586 -2.562
8.920500 0.5456 -2.529
8.932000 0.5334 -2.497
8.943500 0.5226 -2.466
8.955000 0.5124 -2.435
8.966500 0.5012 -2.405
8.978000 0.491 -2.376
8.989500 0.4822 -2.347
9.001000 0.4718 -2.319
9.012500 0.4636 -2.291
9.024000 0.4544 -2.263
9.035500 0.4466 -2.236
9.047000 0.4378 -2.21
9.058500 0.4298 -2.184
9.070000 0.4232 -2.159
9.081500 0.4152 -2.133
9.093000 0.4076 -2.11
9.104500 0.4014 -2.085
9.116000 0.3944 -2.061
9.127500 0.3882 -2.038
9.139000 0.3824 -2.015
9.150500 0.3758 -1.993
9.162000 0.37 -1.97
9.173500 0.3642 -1.949
9.185000 0.3586 -1.927
9.196500 0.3532 -1.906
9.208000 0.3482 -1.885
9.219500 0.343 -1.865
9.231000 0.3384 -1.844
9.242500 0.3336 -1.824
9.254000 0.3284 -1.805
9.265500 0.3242 -1.785
9.277000 0.3202 -1.767
9.288500 0.3158 -1.747
9.300000 0.3116 -1.729
9.311500 0.3074 -1.711
9.323000 0.3034 -1.693
9.334500 0.3004 -1.675
9.346000 0.2964 -1.658
9.357500 0.2926 -1.64
9.369000 0.289 -1.623
9.380500 0.2858 -1.606
9.392000 0.2824 -1.589
9.403500 0.279 -1.573
9.415000 0.2758 -1.557
9.426500 0.273 -1.541
9.438000 0.2694 -1.525
9.449500 0.2664 -1.509
9.461000 0.2638 -1.494
9.472500 0.2614 -1.479
9.484000 0.2586 -1.464
9.495500 0.2558 -1.449
9.507000 0.2536 -1.435
9.518500 0.251 -1.42
9.530000 0.2486 -1.405
9.541500 0.2464 -1.391
9.553000 0.244 -1.377
9.564500 0.2422 -1.363
9.576000 0.2396 -1.35
9.587500 0.2376 -1.336
9.599000 0.2356 -1.323
9.610500 0.2334 -1.31
9.622000 0.231 -1.297
9.633500 0.2294 -1.284
9.645000 0.2274 -1.271
9.656500 0.2256 -1.258
9.668000 0.224 -1.245
9.679500 0.2222 -1.233
9.691000 0.2206 -1.221
9.702500 0.2188 -1.209
9.714000 0.2174 -1.197
9.725500 0.2156 -1.185
9.737000 0.214 -1.173
9.748500 0.2126 -1.161
9.760000 0.211 -1.15
9.771500 0.2098 -1.138
9.783000 0.2082 -1.127
9.794500 0.207 -1.116
9.806000 0.2056 -1.104
9.817500 0.2044 -1.093
9.829000 0.2032 -1.082
9.840500 0.202 -1.071
9.852000 0.2008 -1.06
9.863500 0.1998 -1.05
9.875000 0.1984 -1.039
9.886500 0.1976 -1.029
9.898000 0.1964 -1.018
9.909500 0.1952 -1.008
9.921000 0.1944 -0.9974
9.932500 0.1934 -0.9872
9.944000 0.1926 -0.977
9.955500 0.1916 -0.9668
9.967000 0.1906 -0.957
9.978500 0.1898 -0.947
9.990000 0.1888 -0.9374
10.001500 0.1882 -0.9276
10.013000 0.1874 -0.918
10.024500 0.1866 -0.9084
10.036000 0.1856 -0.8988
10.047500 0.1852 -0.8894
10.059000 0.1842 -0.8798
10.070500 0.1838 -0.8704
10.082000 0.1832 -0.8614
10.093500 0.1824 -0.852
10.105000 0.1816 -0.843
10.116500 0.1812 -0.8338
10.128000 0.1804 -0.825
10.139500 0.1798 -0.8156
10.151000 0.1794 -0.8072
10.162500 0.1788 -0.7982
10.174000 0.1784 -0.7894
10.185500 0.1778 -0.7808
10.197000 0.1774 -0.7722
10.208500 0.177 -0.7634
10.220000 0.1766 -0.7548
10.231500 0.176 -0.7464
10.243000 0.1756 -0.738
10.254500 0.1752 -0.7296
10.266000 0.1754 -0.721
10.277500 0.1746 -0.7128
10.289000 0.1742 -0.7046
10.300500 0.1738 -0.6962
10.312000 0.1738 -0.6878
10.323500 0.1734 -0.6796
10.335000 0.1734 -0.6714
10.346500 0.1732 -0.6632
10.358000 0.173 -0.6552
10.369500 0.1728 -0.647
10.381000 0.1728 -0.639
10.392500 0.1726 -0.631
10.404000 0.1724 -0.623
10.415500 0.1724 -0.615
10.427000 0.1724 -0.607
10.438500 0.1724 -0.5992
10.450000 0.1722 -0.5914
10.461500 0.1724 -0.5836
10.473000 0.1726 -0.5758
10.484500 0.1724 -0.5682
10.496000 0.1726 -0.5602
10.507500 0.1728 -0.5526
10.519000 0.173 -0.545
10.530500 0.173 -0.5372
10.542000 0.1732 -0.5296
10.553500 0.1736 -0.522
10.565000 0.1738 -0.5146
10.576500 0.174 -0.507
10.588000 0.1746 -0.4994
10.599500 0.1748 -0.492
10.611000 0.1752 -0.4846
10.622500 0.1756 -0.477
10.634000 0.1762 -0.4698
10.645500 0.1766 -0.4622
10.657000 0.1772 -0.455
10.668500 0.1776 -0.4476
10.680000 0.1782 -0.4404
10.691500 0.179 -0.433
10.703000 0.1796 -0.4258
10.714500 0.1802 -0.4184
10.726000 0.1814 -0.4112
10.737500 0.1818 -0.404
10.749000 0.1828 -0.3968
10.760500 0.1836 -0.3896
10.772000 0.1846 -0.3824
10.783500 0.1856 -0.3754
10.795000 0.1866 -0.3684
10.806500 0.1876 -0.3614
10.818000 0.189 -0.3542
10.829500 0.1902 -0.3472
10.841000 0.1914 -0.3402
10.852500 0.1926 -0.3334
10.864000 0.194 -0.3266
10.875500 0.1954 -0.3196
10.887000 0.197 -0.3128
10.898500 0.1984 -0.306
10.910000 0.2002 -0.2994
10.921500 0.2018 -0.2926
10.933000 0.2038 -0.286
10.944500 0.2056 -0.2794
10.956000 0.2074 -0.273
10.967500 0.2096 -0.2666
10.979000 0.2118 -0.2602
10.990500 0.214 -0.254
11.002000 0.2162 -0.2478
11.013500 0.2184 -0.2416
11.025000 0.221 -0.2358
11.036500 0.2234 -0.2298
11.048000 0.226 -0.224
11.059500 0.2286 -0.2184
11.071000 0.2312 -0.2128
11.082500 0.2342 -0.2074
11.094000 0.2368 -0.2022
11.105500 0.2398 -0.1972
11.117000 0.2426 -0.1924
11.128500 0.2456 -0.1876
11.140000 0.2486 -0.1832
11.151500 0.2516 -0.179
11.163000 0.2544 -0.1748
11.174500 0.2572 -0.1706
11.186000 0.2602 -0.167
11.197500 0.2628 -0.1636
11.209000 0.2656 -0.1602
11.220500 0.2682 -0.1572
11.232000 0.2706 -0.1544
11.243500 0.2728 -0.1516
11.255000 0.275 -0.149
11.266500 0.2768 -0.1466
11.278000 0.2786 -0.1444
11.289500 0.28 -0.1422
11.301000 0.2814 -0.14
11.312500 0.2824 -0.138
11.324000 0.2834 -0.1362
11.335500 0.2838 -0.1342
11.347000 0.284 -0.1324
11.358500 0.2842 -0.1304
11.370000 0.284 -0.1286
11.381500 0.2838 -0.1266
11.393000 0.2832 -0.1244
11.404500 0.2824 -0.122
11.416000 0.2814 -0.1196
11.427500 0.2804 -0.1172
11.439000 0.279 -0.1146
11.450500 0.2776 -0.1118
11.462000 0.2762 -0.1086
11.473500 0.2744 -0.1056
11.485000 0.2728 -0.1022
11.496500 0.271 -0.0988
11.508000 0.2692 -0.095
11.519500 0.2674 -0.0912
11.531000 0.2656 -0.0872
11.542500 0.2638 -0.083
11.554000 0.2618 -0.0788
11.565500 0.2602 -0.0742
11.577000 0.2582 -0.0696
11.588500 0.2564 -0.0648
11.600000 0.2548 -0.06
11.611500 0.253 -0.0552
11.623000 0.2514 -0.0498
11.634500 0.25 -0.0446
11.646000 0.2484 -0.0394
11.657500 0.247 -0.034
11.669000 0.2454 -0.0282
11.680500 0.2444 -0.023
11.692000 0.243 -0.0172
11.703500 0.242 -0.0116
11.715000 0.2408 -0.006
11.726500 0.24 0
11.738000 0.239 0.0058
11.749500 0.2382 0.0116
11.761000 0.2374 0.0176
11.772500 0.2366 0.0236
11.784000 0.236 0.0296
11.795500 0.2354 0.0356
11.807000 0.235 0.0416
11.818500 0.2346 0.048
11.830000 0.2342 0.054
11.841500 0.234 0.0602
11.853000 0.2338 0.0664
11.864500 0.2338 0.0724
11.876000 0.2334 0.0786
11.887500 0.2334 0.0848
11.899000 0.2334 0.0912
11.910500 0.2336 0.0972
11.922000 0.2336 0.1036
11.933500 0.234 0.1098
11.945000 0.2342 0.116
11.956500 0.2344 0.1222
11.968000 0.235 0.1286
11.979500 0.2352 0.1348
11.991000 0.2358 0.1412
12.002500 0.2362 0.1474
12.014000 0.2368 0.1536
12.025500 0.2374 0.16
12.037000 0.2382 0.1662
12.048500 0.239 0.1724
12.060000 0.2398 0.1788
12.071500 0.2406 0.185
12.083000 0.2414 0.1914
12.094500 0.2424 0.1976
12.106000 0.2436 0.2038
12.117500 0.2446 0.2102
12.129000 0.2456 0.2164
12.140500 0.2468 0.2226
12.152000 0.248 0.229
12.163500 0.2494 0.2352
12.175000 0.2506 0.2416
12.186500 0.2522 0.2478
12.198000 0.2536 0.2542
12.209500 0.2552 0.2602
12.221000 0.2566 0.2666
12.232500 0.2582 0.2728
12.244000 0.2598 0.2792
12.255500 0.2616 0.2852
12.267000 0.2632 0.2916
12.278500 0.265 0.2976
12.290000 0.267 0.3038
12.301500 0.269 0.31
12.313000 0.271 0.3162
12.324500 0.2728 0.3224
12.336000 0.275 0.3284
12.347500 0.2772 0.3346
12.359000 0.2794 0.3408
12.370500 0.2816 0.3468
12.382000 0.284 0.353
12.393500 0.2864 0.359
12.405000 0.2888 0.365
12.416500 0.2914 0.371
12.428000 0.294 0.377
12.439500 0.2966 0.383
12.451000 0.299 0.389
12.462500 0.302 0.3948
12.474000 0.3048 0.4006
12.485500 0.3078 0.4064
12.497000 0.3106 0.4122
12.508500 0.3136 0.418
12.520000 0.3166 0.4236
12.531500 0.3196 0.4294
12.543000 0.323 0.435
12.554500 0.3262 0.4408
12.566000 0.3294 0.446
12.577500 0.3328 0.4518
12.589000 0.3362 0.457
12.600500 0.3396 0.4624
12.612000 0.343 0.4676
12.623500 0.3466 0.4728
12.635000 0.3504 0.4782
12.646500 0.3538 0.4832
12.658000 0.3576 0.488
12.669500 0.3612 0.493
12.681000 0.365 0.4978
12.692500 0.3688 0.5026
12.704000 0.3728 0.5072
12.715500 0.3766 0.5118
12.727000 0.3808 0.5162
12.738500 0.3846 0.5206
12.750000 0.3884 0.525
12.761500 0.3924 0.5294
12.773000 0.3964 0.5332
12.784500 0.4004 0.5374
12.796000 0.4044 0.5414
12.807500 0.4082 0.545
12.819000 0.4124 0.5486
12.830500 0.416 0.5522
12.842000 0.42 0.5558
12.853500 0.424 0.559
12.865000 0.4278 0.5624
12.876500 0.4314 0.5656
12.888000 0.4354 0.5686
12.899500 0.4392 0.5716
12.911000 0.4428 0.5744
12.922500 0.4462 0.5774
12.934000 0.45 0.5796
12.945500 0.4532 0.5824
12.957000 0.4566 0.585
12.968500 0.46 0.5874
12.980000 0.4632 0.5896
12.991500 0.466 0.5918
13.003000 0.469 0.5938
13.014500 0.472 0.596
13.026000 0.4746 0.598
13.037500 0.4774 0.6002
13.049000 0.4798 0.6018
13.060500 0.482 0.6038
13.072000 0.4844 0.6058
13.083500 0.4862 0.6076
13.095000 0.4882 0.6092
13.106500 0.49 0.611
13.118000 0.4916 0.613
13.129500 0.493 0.615
13.141000 0.4944 0.6166
13.152500 0.4956 0.6188
13.164000 0.4968 0.6206
13.175500 0.4976 0.6226
13.187000 0.4986 0.6244
13.198500 0.499 0.6266
13.210000 0.4996 0.629
13.221500 0.4998 0.631
13.233000 0.5002 0.6334
13.244500 0.5002 0.636
13.256000 0.5004 0.6386
13.267500 0.5002 0.6412
13.279000 0.5 0.6438
13.290500 0.4994 0.6468
13.302000 0.4992 0.6498
13.313500 0.4984 0.6528
13.325000 0.498 0.6558
13.336500 0.4974 0.6592
13.348000 0.4966 0.6626
13.359500 0.4958 0.6662
13.371000 0.4948 0.67
13.382500 0.494 0.674
13.394000 0.4928 0.6782
13.405500 0.4916 0.6824
13.417000 0.4906 0.6866
13.428500 0.4894 0.6912
13.440000 0.4884 0.696
13.451500 0.4874 0.7006
13.463000 0.4858 0.7058
13.474500 0.4846 0.711
13.486000 0.4836 0.7164
13.497500 0.4824 0.7218
13.509000 0.4812 0.7274
13.520500 0.48 0.7332
13.532000 0.4788 0.7392
13.543500 0.4776 0.7452
13.555000 0.4766 0.7514
13.566500 0.4754 0.7576
13.578000 0.4744 0.7644
13.589500 0.4732 0.7708
13.601000 0.4722 0.7776
13.612500 0.4716 0.7846
13.624000 0.4706 0.7918
13.635500 0.4696 0.799
13.647000 0.469 0.8066
13.658500 0.468 0.8138
13.670000 0.4674 0.8214
13.681500 0.4668 0.8292
13.693000 0.4662 0.8372
13.704500 0.4656 0.845
13.716000 0.4656 0.8532
13.727500 0.465 0.8618
13.739000 0.4646 0.8702
13.750500 0.4642 0.8784
13.762000 0.4642 0.8872
13.773500 0.464 0.896
13.785000 0.4642 0.9048
13.796500 0.4644 0.9142
13.808000 0.4644 0.923
13.819500 0.4646 0.9324
13.831000 0.4648 0.942
13.842500 0.465 0.9512
13.854000 0.4654 0.9612
13.865500 0.4662 0.9706
13.877000 0.4668 0.9806
13.888500 0.4676 0.9908
13.900000 0.4682 1.001
13.911500 0.4692 1.011
13.923000 0.4702 1.022
13.934500 0.4708 1.032
13.946000 0.472 1.043
13.957500 0.4732 1.053
13.969000 0.4744 1.064
13.980500 0.476 1.075
13.992000 0.4774 1.086
14.003500 0.479 1.097
14.015000 0.4808 1.108
14.026500 0.4824 1.12
14.038000 0.4842 1.131
14.049500 0.4862 1.143
14.061000 0.4882 1.155
14.072500 0.4902 1.167
14.084000 0.4922 1.179
14.095500 0.495 1.191
14.107000 0.4972 1.203
14.118500 0.5 1.216
14.130000 0.5026 1.229
14.141500 0.5052 1.241
14.153000 0.5084 1.254
14.164500 0.5114 1.267
14.176000 0.5142 1.28
14.187500 0.5174 1.294
14.199000 0.521 1.307
14.210500 0.5244 1.321
14.222000 0.5278 1.335
14.233500 0.5312 1.348
14.245000 0.5354 1.362
14.256500 0.5394 1.376
14.268000 0.543 1.391
14.279500 0.5476 1.405
14.291000 0.5518 1.42
14.302500 0.5562 1.435
14.314000 0.5604 1.45
14.325500 0.5656 1.465
14.337000 0.5704 1.48
14.348500 0.5754 1.496
14.360000 0.581 1.511
14.371500 0.5862 1.527
14.383000 0.5918 1.543
14.394500 0.5976 1.559
14.406000 0.6036 1.576
14.417500 0.6098 1.593
14.429000 0.6156 1.61
14.440500 0.6226 1.627
14.452000 0.6288 1.644
14.463500 0.6354 1.662
14.475000 0.643 1.679
14.486500 0.651 1.698
14.498000 0.658 1.715
14.509500 0.6656 1.734
14.521000 0.6732 1.753
14.532500 0.6814 1.772
14.544000 0.6898 1.791
14.555500 0.6984 1.811
14.567000 0.7078 1.83
14.578500 0.7164 1.85
14.590000 0.7264 1.871
14.601500 0.736 1.891
14.613000 0.7464 1.912
14.624500 0.7558 1.933
14.636000 0.7674 1.955
14.647500 0.7794 1.978
14.659000 0.7898 1.999
14.670500 0.8012 2.022
14.682000 0.8134 2.044
14.693500 0.8266 2.067
14.705000 0.8388 2.09
14.716500 0.8512 2.114
14.728000 0.8654 2.138
14.739500 0.8796 2.162
14.751000 0.8944 2.188
14.762500 0.9094 2.212
14.774000 0.925 2.237
14.785500 0.9408 2.264
14.797000 0.9584 2.29
14.808500 0.9748 2.316
14.820000 0.9916 2.342
14.831500 1.01 2.371
14.843000 1.03 2.4
14.854500 1.049 2.428
14.866000 1.07 2.456
14.877500 1.09 2.485
14.889000 1.112 2.515
14.900500 1.135 2.545
14.912000 1.158 2.575
14.923500 1.183 2.607
14.935000 1.207 2.639
14.946500 1.233 2.67
14.958000 1.259 2.702
14.969500 1.288 2.736
14.981000 1.316 2.769
14.992500 1.346 2.805
15.004000 1.377 2.838
15.015500 1.409 2.873
15.027000 1.443 2.907
15.038500 1.478 2.943
15.050000 1.514 2.981
15.061500 1.551 3.017
15.073000 1.59 3.055
15.084500 1.629 3.093
15.096000 1.674 3.131
15.107500 1.716 3.17
15.119000 1.762 3.209
15.130500 1.809 3.248
15.142000 1.858 3.288
15.153500 1.909 3.328
15.165000 1.964 3.368
15.176500 2.021 3.409
15.188000 2.078 3.451
15.199500 2.139 3.493
15.211000 2.204 3.533
15.222500 2.269 3.572
15.234000 2.336 3.616
15.245500 2.409 3.656
15.257000 2.485 3.697
15.268500 2.562 3.736
15.280000 2.642 3.778
15.291500 2.727 3.815
15.303000 2.815 3.856
15.314500 2.909 3.895
15.326000 3.006 3.93
15.337500 3.108 3.966
15.349000 3.213 4.001
15.360500 3.318 4.037
15.372000 3.434 4.065
15.383500 3.552 4.096
15.395000 3.678 4.125
15.406500 3.812 4.142
15.418000 3.945 4.161
15.429500 4.081 4.178
15.441000 4.231 4.189
15.452500 4.382 4.191
15.464000 4.543 4.187
15.475500 4.704 4.186
15.487000 4.872 4.172
15.498500 5.046 4.149
15.510000 5.227 4.121
15.521500 5.403 4.085
15.533000 5.6 4.03
15.544500 5.786 3.978
15.556000 5.979 3.907
15.567500 6.184 3.818
15.579000 6.377 3.721
15.590500 6.575 3.611
15.602000 6.779 3.494
15.613500 6.983 3.342
15.625000 7.165 3.185
15.636500 7.359 3.016
15.648000 7.544 2.826
15.659500 7.716 2.61
15.671000 7.883 2.393
15.682500 8.038 2.168
15.694000 8.179 1.914
15.705500 8.292 1.662
15.717000 8.401 1.381
15.728500 8.488 1.104
15.740000 8.557 0.8026
15.751500 8.598 0.511
15.763000 8.633 0.223
15.774500 8.628 -0.0768
15.786000 8.6 -0.3906
15.797500 8.56 -0.6876
15.809000 8.494 -0.9786
15.820500 8.409 -1.258
15.832000 8.308 -1.519
15.843500 8.184 -1.786
15.855000 8.043 -2.032
15.866500 7.902 -2.26
15.878000 7.75 -2.486
15.889500 7.589 -2.684
15.901000 7.416 -2.874
15.912500 7.236 -3.051
15.924000 7.057 -3.207
15.935500 6.872 -3.359
15.947000 6.686 -3.479
15.958500 6.489 -3.608
15.970000 6.303 -3.702
15.981500 6.114 -3.794
15.993000 5.926 -3.88
16.004500 5.737 -3.945
16.016000 5.56 -4.003
16.027500 5.384 -4.052
16.039000 5.209 -4.089
16.050500 5.035 -4.126
16.062000 4.875 -4.146
16.073500 4.717 -4.164
16.085000 4.561 -4.178
16.096500 4.413 -4.187
16.108000 4.261 -4.181
16.119500 4.122 -4.179
16.131000 3.988 -4.17
16.142500 3.859 -4.154
16.154000 3.733 -4.134
16.165500 3.613 -4.116
16.177000 3.497 -4.093
16.188500 3.384 -4.066
16.200000 3.277 -4.037
16.211500 3.175 -4.009
16.223000 3.075 -3.978
16.234500 2.983 -3.94
16.246000 2.895 -3.91
16.257500 2.806 -3.878
16.269000 2.722 -3.838
16.280500 2.641 -3.798
16.292000 2.568 -3.764
16.303500 2.491 -3.726
16.315000 2.419 -3.688
16.326500 2.352 -3.651
16.338000 2.285 -3.614
16.349500 2.223 -3.577
16.361000 2.165 -3.54
16.372500 2.105 -3.501
16.384000 2.052 -3.464
16.395500 1.997 -3.429
16.407000 1.946 -3.39
16.418500 1.898 -3.352
16.430000 1.85 -3.32
16.441500 1.801 -3.282
16.453000 1.757 -3.247
16.464500 1.716 -3.21
16.476000 1.674 -3.178
16.487500 1.633 -3.142
16.499000 1.594 -3.109
16.510500 1.556 -3.075
16.522000 1.522 -3.042
16.533500 1.488 -3.011
16.545000 1.452 -2.975
16.556500 1.42 -2.945
16.568000 1.388 -2.913
16.579500 1.36 -2.883
16.591000 1.33 -2.851
16.602500 1.301 -2.821
16.614000 1.274 -2.793
16.625500 1.247 -2.762
16.637000 1.222 -2.733
16.648500 1.196 -2.705
16.660000 1.172 -2.677
16.671500 1.149 -2.648
16.683000 1.125 -2.621
16.694500 1.103 -2.594
16.706000 1.082 -2.568
16.717500 1.062 -2.541
16.729000 1.041 -2.515
16.740500 1.02 -2.489
16.752000 1.002 -2.464
16.763500 0.9826 -2.439
16.775000 0.9658 -2.415
16.786500 0.9484 -2.391
16.798000 0.9308 -2.367
16.809500 0.914 -2.343
16.821000 0.8976 -2.321
16.832500 0.8822 -2.297
16.844000 0.8666 -2.275
16.855500 0.851 -2.253
16.867000 0.8372 -2.23
16.878500 0.822 -2.209
16.890000 0.809 -2.187
16.901500 0.7958 -2.166
16.913000 0.7818 -2.146
16.924500 0.7692 -2.125
16.936000 0.7566 -2.104
16.947500 0.7448 -2.084
16.959000 0.7334 -2.063
