! Touchstone file generated by AntScope2
# MHz Z RI R 50
! Format: Frequency Z-real Z-imaginary (normalized to 50 Ohm)
7.000000 0.8726 -4.854
7.011500 0.862 -4.785
7.023000 0.8498 -4.716
7.034500 0.8354 -4.648
7.046000 0.824 -4.579
7.057500 0.8134 -4.509
7.069000 0.8032 -4.443
7.080500 0.7978 -4.377
7.092000 0.7876 -4.31
7.103500 0.7774 -4.249
7.115000 0.7706 -4.178
7.126500 0.7654 -4.115
7.138000 0.76 -4.052
7.149500 0.753 -3.986
7.161000 0.7476 -3.924
7.172500 0.7422 -3.861
7.184000 0.738 -3.799
7.195500 0.7338 -3.738
7.207000 0.7282 -3.678
7.218500 0.7264 -3.616
7.230000 0.7232 -3.558
7.241500 0.7208 -3.498
7.253000 0.7178 -3.44
7.264500 0.7162 -3.381
7.276000 0.7124 -3.322
7.287500 0.712 -3.265
7.299000 0.7096 -3.208
7.310500 0.7088 -3.151
7.322000 0.7066 -3.094
7.333500 0.7076 -3.037
7.345000 0.7056 -2.98
7.356500 0.7058 -2.924
7.368000 0.7058 -2.869
7.379500 0.705 -2.812
7.391000 0.7052 -2.758
7.402500 0.7054 -2.702
7.414000 0.706 -2.648
7.425500 0.7076 -2.592
7.437000 0.7088 -2.537
7.448500 0.7098 -2.481
7.460000 0.7118 -2.428
7.471500 0.714 -2.372
7.483000 0.7154 -2.317
7.494500 0.7182 -2.263
7.506000 0.7202 -2.208
7.517500 0.722 -2.154
7.529000 0.7244 -2.098
7.540500 0.7272 -2.044
7.552000 0.7306 -1.989
7.563500 0.7332 -1.935
7.575000 0.7358 -1.88
7.586500 0.7398 -1.824
7.598000 0.7438 -1.769
7.609500 0.7474 -1.714
7.621000 0.7514 -1.658
7.632500 0.756 -1.603
7.644000 0.7604 -1.547
7.655500 0.7646 -1.491
7.667000 0.77 -1.434
7.678500 0.7748 -1.377
7.690000 0.78 -1.32
7.701500 0.7854 -1.263
7.713000 0.791 -1.206
7.724500 0.7966 -1.148
7.736000 0.8028 -1.09
7.747500 0.8088 -1.03
7.759000 0.8152 -0.9714
7.770500 0.8218 -0.9122
7.782000 0.8282 -0.8524
7.793500 0.8358 -0.7926
7.805000 0.843 -0.732
7.816500 0.8504 -0.6704
7.828000 0.8576 -0.6084
7.839500 0.8656 -0.5464
7.851000 0.8738 -0.4838
7.862500 0.882 -0.4204
7.874000 0.8908 -0.3568
7.885500 0.9 -0.2922
7.897000 0.909 -0.227
7.908500 0.9182 -0.1614
7.920000 0.9282 -0.0954
7.931500 0.9384 -0.0286
7.943000 0.9492 0.039
7.954500 0.96 0.1072
7.966000 0.9714 0.1766
7.977500 0.9832 0.2462
7.989000 0.9956 0.316
8.000500 1.009 0.3872
8.012000 1.022 0.4598
8.023500 1.036 0.5328
8.035000 1.051 0.607
8.046500 1.066 0.682
8.058000 1.082 0.758
8.069500 1.1 0.8348
8.081000 1.117 0.9132
8.092500 1.135 0.9906
8.104000 1.156 1.073
8.115500 1.176 1.155
8.127000 1.197 1.238
8.138500 1.22 1.322
8.150000 1.244 1.408
8.161500 1.269 1.496
8.173000 1.295 1.584
8.184500 1.322 1.673
8.196000 1.352 1.765
8.207500 1.382 1.858
8.219000 1.414 1.953
8.230500 1.448 2.05
8.242000 1.484 2.148
8.253500 1.522 2.248
8.265000 1.562 2.349
8.276500 1.604 2.453
8.288000 1.647 2.558
8.299500 1.694 2.667
8.311000 1.744 2.775
8.322500 1.795 2.886
8.334000 1.849 2.999
8.345500 1.909 3.114
8.357000 1.972 3.23
8.368500 2.036 3.349
8.380000 2.106 3.471
8.391500 2.181 3.59
8.403000 2.257 3.717
8.414500 2.339 3.842
8.426000 2.425 3.968
8.437500 2.519 4.094
8.449000 2.617 4.225
8.460500 2.719 4.356
8.472000 2.829 4.485
8.483500 2.942 4.612
8.495000 3.065 4.747
8.506500 3.193 4.881
8.518000 3.325 5.011
8.529500 3.469 5.14
8.541000 3.619 5.269
8.552500 3.775 5.399
8.564000 3.938 5.515
8.575500 4.113 5.638
8.587000 4.296 5.753
8.598500 4.477 5.873
8.610000 4.68 5.981
8.621500 4.881 6.084
8.633000 5.087 6.186
8.644500 5.302 6.267
8.656000 5.526 6.354
8.667500 5.756 6.436
8.679000 5.997 6.5
8.690500 6.231 6.548
8.702000 6.466 6.617
8.713500 6.711 6.652
8.725000 6.958 6.689
8.736500 7.215 6.713
8.748000 7.455 6.732
8.759500 7.72 6.73
8.771000 7.973 6.717
8.782500 8.206 6.694
8.794000 8.465 6.694
8.805500 8.7 6.668
8.817000 8.959 6.623
8.828500 9.194 6.596
8.840000 9.439 6.546
8.851500 9.674 6.522
8.863000 9.912 6.457
8.874500 10.12 6.393
8.886000 10.36 6.328
8.897500 10.6 6.287
8.909000 10.8 6.219
8.920500 11.04 6.162
8.932000 11.27 6.086
8.943500 11.48 6.032
8.955000 11.7 5.949
8.966500 11.91 5.881
8.978000 12.16 5.809
8.989500 12.41 5.753
9.001000 12.65 5.663
9.012500 12.87 5.618
9.024000 13.13 5.524
9.035500 13.39 5.454
9.047000 13.64 5.376
9.058500 13.92 5.274
9.070000 14.2 5.216
9.081500 14.47 5.077
9.093000 14.78 4.99
9.104500 15.09 4.905
9.116000 15.37 4.804
9.127500 15.73 4.651
9.139000 16.08 4.494
9.150500 16.46 4.354
9.162000 16.82 4.154
9.173500 17.16 3.964
9.185000 17.56 3.743
9.196500 17.92 3.534
9.208000 18.37 3.233
9.219500 18.75 2.934
9.231000 19.18 2.603
9.242500 19.66 2.252
9.254000 20 1.755
9.265500 20.41 1.449
9.277000 20.91 0.9082
9.288500 21.25 0.4044
9.300000 21.61 -0.1606
9.311500 21.97 -0.8084
9.323000 22.3 -1.425
9.334500 22.53 -2.139
9.346000 22.79 -2.844
9.357500 23.08 -3.656
9.369000 23.13 -4.46
9.380500 23.21 -5.285
9.392000 23.29 -6.175
9.403500 23.2 -7.098
9.415000 23.03 -7.923
9.426500 22.83 -8.803
9.438000 22.55 -9.64
9.449500 22.22 -10.49
9.461000 21.8 -11.3
9.472500 21.3 -12.09
9.484000 20.81 -12.81
9.495500 20.18 -13.47
9.507000 19.54 -14.08
9.518500 18.87 -14.66
9.530000 18.25 -15.14
9.541500 17.51 -15.55
9.553000 16.77 -15.9
9.564500 16.11 -16.26
9.576000 15.36 -16.44
9.587500 14.53 -16.63
9.599000 13.99 -16.79
9.610500 13.25 -16.86
9.622000 12.63 -16.89
9.633500 11.92 -16.94
9.645000 11.34 -16.89
9.656500 10.72 -16.83
9.668000 10.15 -16.76
9.679500 9.639 -16.62
9.691000 9.147 -16.41
9.702500 8.641 -16.35
9.714000 8.187 -16.2
9.725500 7.759 -16.02
9.737000 7.326 -15.85
9.748500 6.966 -15.65
9.760000 6.619 -15.47
9.771500 6.25 -15.26
9.783000 5.935 -15.04
9.794500 5.652 -14.83
9.806000 5.364 -14.64
9.817500 5.106 -14.44
9.829000 4.84 -14.23
9.840500 4.598 -14.02
9.852000 4.382 -13.79
9.863500 4.167 -13.61
9.875000 3.995 -13.41
9.886500 3.708 -13.2
9.898000 3.614 -13.02
9.909500 3.453 -12.82
9.921000 3.287 -12.63
9.932500 3.142 -12.45
9.944000 3.005 -12.27
9.955500 2.879 -11.99
9.967000 2.735 -11.91
9.978500 2.644 -11.75
9.990000 2.536 -11.57
10.001500 2.427 -11.42
10.013000 2.323 -11.25
10.024500 2.23 -11.09
10.036000 2.15 -10.93
10.047500 2.059 -10.78
10.059000 1.989 -10.63
10.070500 1.913 -10.48
10.082000 1.848 -10.34
10.093500 1.778 -10.2
10.105000 1.72 -10.06
10.116500 1.657 -9.929
10.128000 1.604 -9.799
10.139500 1.557 -9.675
10.151000 1.51 -9.547
10.162500 1.454 -9.427
10.174000 1.411 -9.301
10.185500 1.373 -9.192
10.197000 1.326 -9.08
10.208500 1.294 -8.967
10.220000 1.255 -8.856
10.231500 1.226 -8.743
10.243000 1.187 -8.629
10.254500 1.156 -8.535
10.266000 1.111 -8.443
10.277500 1.106 -8.33
10.289000 1.078 -8.229
10.300500 1.057 -8.133
10.312000 1.029 -8.035
10.323500 1.018 -7.946
10.335000 0.996 -7.859
10.346500 0.9772 -7.761
10.358000 0.9558 -7.68
10.369500 0.9452 -7.591
10.381000 0.9164 -7.511
10.392500 0.9056 -7.426
10.404000 0.8888 -7.347
10.415500 0.8748 -7.272
10.427000 0.8656 -7.19
10.438500 0.8576 -7.112
10.450000 0.8348 -7.041
10.461500 0.8298 -6.958
10.473000 0.817 -6.886
10.484500 0.8112 -6.811
10.496000 0.8052 -6.738
10.507500 0.8002 -6.678
10.519000 0.788 -6.606
10.530500 0.7814 -6.537
10.542000 0.775 -6.466
10.553500 0.7682 -6.406
10.565000 0.7632 -6.339
10.576500 0.7542 -6.276
10.588000 0.7546 -6.216
10.599500 0.7492 -6.151
10.611000 0.7432 -6.091
10.622500 0.7392 -6.035
10.634000 0.741 -5.973
10.645500 0.736 -5.918
10.657000 0.7298 -5.865
10.668500 0.7266 -5.808
10.680000 0.7248 -5.754
10.691500 0.727 -5.703
10.703000 0.7194 -5.649
10.714500 0.7228 -5.597
10.726000 0.7226 -5.536
10.737500 0.7192 -5.493
10.749000 0.7146 -5.445
10.760500 0.7148 -5.392
10.772000 0.7122 -5.347
10.783500 0.7102 -5.299
10.795000 0.7104 -5.249
10.806500 0.7114 -5.203
10.818000 0.7102 -5.154
10.829500 0.7102 -5.112
10.841000 0.709 -5.066
10.852500 0.7072 -5.021
10.864000 0.7046 -4.977
10.875500 0.705 -4.931
10.887000 0.7048 -4.889
10.898500 0.7038 -4.846
10.910000 0.7012 -4.802
10.921500 0.701 -4.761
10.933000 0.6994 -4.719
10.944500 0.6988 -4.678
10.956000 0.6976 -4.636
10.967500 0.699 -4.594
10.979000 0.6968 -4.553
10.990500 0.6944 -4.51
11.002000 0.6932 -4.47
11.013500 0.6928 -4.434
11.025000 0.6896 -4.394
11.036500 0.6882 -4.353
11.048000 0.687 -4.316
11.059500 0.6856 -4.275
11.071000 0.6866 -4.238
11.082500 0.6834 -4.196
11.094000 0.6812 -4.161
11.105500 0.6794 -4.122
11.117000 0.6772 -4.084
11.128500 0.674 -4.045
11.140000 0.674 -4.009
11.151500 0.6728 -3.973
11.163000 0.6708 -3.933
11.174500 0.6676 -3.898
11.186000 0.664 -3.861
11.197500 0.6614 -3.823
11.209000 0.6606 -3.787
11.220500 0.6566 -3.748
11.232000 0.6554 -3.712
11.243500 0.6512 -3.674
11.255000 0.6496 -3.634
11.266500 0.644 -3.598
11.278000 0.6416 -3.56
11.289500 0.6378 -3.523
11.301000 0.6362 -3.486
11.312500 0.6326 -3.446
11.324000 0.6292 -3.407
11.335500 0.6256 -3.37
11.347000 0.6224 -3.33
11.358500 0.6194 -3.292
11.370000 0.615 -3.252
11.381500 0.6126 -3.213
11.393000 0.608 -3.173
11.404500 0.6042 -3.133
11.416000 0.601 -3.092
11.427500 0.5982 -3.052
11.439000 0.5946 -3.01
11.450500 0.5918 -2.969
11.462000 0.589 -2.928
11.473500 0.5842 -2.888
11.485000 0.5804 -2.845
11.496500 0.5796 -2.802
11.508000 0.5774 -2.76
11.519500 0.5738 -2.715
11.531000 0.5726 -2.674
11.542500 0.5704 -2.629
11.554000 0.5696 -2.586
11.565500 0.5666 -2.54
11.577000 0.5654 -2.496
11.588500 0.5644 -2.45
11.600000 0.563 -2.405
11.611500 0.5624 -2.358
11.623000 0.5622 -2.312
11.634500 0.5618 -2.265
11.646000 0.5616 -2.218
11.657500 0.5612 -2.17
11.669000 0.5616 -2.122
11.680500 0.5618 -2.074
11.692000 0.563 -2.024
11.703500 0.5636 -1.976
11.715000 0.5652 -1.925
11.726500 0.5668 -1.875
11.738000 0.5686 -1.824
11.749500 0.5708 -1.772
11.761000 0.5724 -1.72
11.772500 0.5762 -1.668
11.784000 0.5792 -1.614
11.795500 0.5822 -1.56
11.807000 0.5864 -1.506
11.818500 0.5906 -1.451
11.830000 0.594 -1.395
11.841500 0.5984 -1.339
11.853000 0.605 -1.283
11.864500 0.6112 -1.224
11.876000 0.6168 -1.167
11.887500 0.623 -1.107
11.899000 0.63 -1.047
11.910500 0.637 -0.9858
11.922000 0.645 -0.9248
11.933500 0.653 -0.8626
11.945000 0.6632 -0.7998
11.956500 0.671 -0.735
11.968000 0.6802 -0.6694
11.979500 0.69 -0.6036
11.991000 0.7006 -0.5368
12.002500 0.7114 -0.469
12.014000 0.7228 -0.4
12.025500 0.7346 -0.3302
12.037000 0.7474 -0.2586
12.048500 0.7606 -0.1864
12.060000 0.7742 -0.113
12.071500 0.7886 -0.0388
12.083000 0.8034 0.037
12.094500 0.8192 0.1144
12.106000 0.8358 0.1926
12.117500 0.8534 0.272
12.129000 0.8714 0.3528
12.140500 0.891 0.4348
12.152000 0.9116 0.5188
12.163500 0.9334 0.6046
12.175000 0.956 0.6916
12.186500 0.9798 0.7804
12.198000 1.005 0.8714
12.209500 1.032 0.9642
12.221000 1.06 1.059
12.232500 1.09 1.157
12.244000 1.121 1.256
12.255500 1.154 1.357
12.267000 1.189 1.461
12.278500 1.226 1.568
12.290000 1.264 1.677
12.301500 1.305 1.789
12.313000 1.348 1.904
12.324500 1.394 2.023
12.336000 1.442 2.144
12.347500 1.494 2.269
12.359000 1.549 2.397
12.370500 1.607 2.529
12.382000 1.669 2.666
12.393500 1.735 2.804
12.405000 1.801 2.95
12.416500 1.877 3.097
12.428000 1.956 3.252
12.439500 2.041 3.412
12.451000 2.131 3.574
12.462500 2.229 3.74
12.474000 2.331 3.914
12.485500 2.44 4.099
12.497000 2.557 4.279
12.508500 2.682 4.473
12.520000 2.82 4.671
12.531500 2.963 4.882
12.543000 3.124 5.09
12.554500 3.296 5.313
12.566000 3.478 5.54
12.577500 3.673 5.779
12.589000 3.901 6.017
12.600500 4.136 6.271
12.612000 4.395 6.534
12.623500 4.67 6.806
12.635000 4.97 7.079
12.646500 5.312 7.361
12.658000 5.677 7.649
12.669500 6.077 7.939
12.681000 6.517 8.238
12.692500 6.988 8.526
12.704000 7.532 8.831
12.715500 8.135 9.169
12.727000 8.785 9.411
12.738500 9.514 9.657
12.750000 10.32 9.877
12.761500 11.19 10.09
12.773000 12.16 10.23
12.784500 13.14 10.38
12.796000 14.32 10.26
12.807500 15.56 10.12
12.819000 16.81 9.967
12.830500 18.26 9.405
12.842000 19.66 8.794
12.853500 21.11 7.904
12.865000 22.53 6.72
12.876500 23.73 5.24
12.888000 24.89 3.646
12.899500 25.73 1.788
12.911000 26.36 -0.3372
12.922500 26.47 -2.507
12.934000 26.43 -4.662
12.945500 25.84 -6.683
12.957000 25.08 -8.739
12.968500 23.92 -10.39
12.980000 22.78 -11.79
12.991500 21.44 -12.95
13.003000 20.04 -13.92
13.014500 18.62 -14.54
13.026000 17.14 -15.06
13.037500 15.87 -15.41
13.049000 14.61 -15.64
13.060500 13.53 -15.65
13.072000 12.43 -15.57
13.083500 11.49 -15.49
13.095000 10.57 -15.28
13.106500 9.782 -15.05
13.118000 9.05 -14.78
13.129500 8.406 -14.55
13.141000 7.815 -14.25
13.152500 7.292 -13.97
13.164000 6.789 -13.68
13.175500 6.358 -13.4
13.187000 5.922 -13.07
13.198500 5.53 -12.82
13.210000 5.255 -12.56
13.221500 4.94 -12.27
13.233000 4.653 -12.02
13.244500 4.414 -11.76
13.256000 4.18 -11.51
13.267500 3.966 -11.28
13.279000 3.774 -11.05
13.290500 3.588 -10.83
13.302000 3.42 -10.61
13.313500 3.262 -10.4
13.325000 3.105 -10.2
13.336500 2.988 -9.998
13.348000 2.858 -9.802
13.359500 2.742 -9.62
13.371000 2.623 -9.446
13.382500 2.524 -9.278
13.394000 2.437 -9.108
13.405500 2.351 -8.942
13.417000 2.269 -8.784
13.428500 2.185 -8.643
13.440000 2.118 -8.495
13.451500 2.052 -8.343
13.463000 1.986 -8.205
13.474500 1.931 -8.068
13.486000 1.871 -7.94
13.497500 1.816 -7.805
13.509000 1.767 -7.685
13.520500 1.713 -7.56
13.532000 1.682 -7.437
13.543500 1.639 -7.323
13.555000 1.602 -7.207
13.566500 1.562 -7.098
13.578000 1.531 -6.992
13.589500 1.495 -6.887
13.601000 1.461 -6.783
13.612500 1.438 -6.683
13.624000 1.408 -6.587
13.635500 1.379 -6.489
13.647000 1.363 -6.394
13.658500 1.338 -6.302
13.670000 1.323 -6.217
13.681500 1.3 -6.125
13.693000 1.281 -6.036
13.704500 1.265 -5.948
13.716000 1.249 -5.861
13.727500 1.234 -5.782
13.739000 1.22 -5.698
13.750500 1.208 -5.621
13.762000 1.196 -5.539
13.773500 1.185 -5.468
13.785000 1.176 -5.385
13.796500 1.168 -5.311
13.808000 1.155 -5.239
13.819500 1.15 -5.164
13.831000 1.143 -5.091
13.842500 1.133 -5.021
13.854000 1.127 -4.952
13.865500 1.122 -4.884
13.877000 1.116 -4.813
13.888500 1.114 -4.745
13.900000 1.109 -4.681
13.911500 1.106 -4.613
13.923000 1.102 -4.547
13.934500 1.1 -4.481
13.946000 1.098 -4.417
13.957500 1.097 -4.354
13.969000 1.096 -4.293
13.980500 1.099 -4.228
13.992000 1.099 -4.168
14.003500 1.1 -4.105
14.015000 1.102 -4.043
14.026500 1.105 -3.983
14.038000 1.106 -3.921
14.049500 1.112 -3.862
14.061000 1.112 -3.803
14.072500 1.117 -3.741
14.084000 1.123 -3.683
14.095500 1.128 -3.623
14.107000 1.133 -3.562
14.118500 1.137 -3.503
14.130000 1.145 -3.445
14.141500 1.152 -3.385
14.153000 1.16 -3.326
14.164500 1.167 -3.267
14.176000 1.176 -3.208
14.187500 1.184 -3.151
14.199000 1.193 -3.091
14.210500 1.203 -3.031
14.222000 1.214 -2.973
14.233500 1.224 -2.916
14.245000 1.237 -2.855
14.256500 1.249 -2.795
14.268000 1.261 -2.735
14.279500 1.275 -2.675
14.291000 1.288 -2.615
14.302500 1.304 -2.555
14.314000 1.319 -2.494
14.325500 1.335 -2.435
14.337000 1.353 -2.372
14.348500 1.37 -2.31
14.360000 1.394 -2.253
14.371500 1.409 -2.185
14.383000 1.43 -2.121
14.394500 1.451 -2.057
14.406000 1.473 -1.992
14.417500 1.497 -1.926
14.429000 1.522 -1.862
14.440500 1.548 -1.795
14.452000 1.574 -1.729
14.463500 1.602 -1.661
14.475000 1.632 -1.593
14.486500 1.662 -1.524
14.498000 1.694 -1.454
14.509500 1.726 -1.384
14.521000 1.762 -1.312
14.532500 1.798 -1.24
14.544000 1.836 -1.167
14.555500 1.876 -1.094
14.567000 1.917 -1.019
14.578500 1.96 -0.9436
14.590000 2.006 -0.8668
14.601500 2.054 -0.7902
14.613000 2.105 -0.712
14.624500 2.157 -0.6328
14.636000 2.213 -0.5526
14.647500 2.271 -0.472
14.659000 2.333 -0.3898
14.670500 2.396 -0.3078
14.682000 2.463 -0.2258
14.693500 2.534 -0.1416
14.705000 2.608 -0.0576
14.716500 2.687 0.028
14.728000 2.77 0.1134
14.739500 2.858 0.2
14.751000 2.95 0.285
14.762500 3.047 0.3734
14.774000 3.147 0.4598
14.785500 3.25 0.5464
14.797000 3.362 0.6342
14.808500 3.482 0.7216
14.820000 3.607 0.8074
14.831500 3.738 0.8928
14.843000 3.877 0.979
14.854500 4.025 1.06
14.866000 4.178 1.146
14.877500 4.34 1.22
14.889000 4.516 1.299
14.900500 4.698 1.371
14.912000 4.888 1.442
14.923500 5.091 1.5
14.935000 5.301 1.562
14.946500 5.527 1.611
14.958000 5.76 1.656
14.969500 6.003 1.688
14.981000 6.265 1.712
14.992500 6.526 1.72
15.004000 6.813 1.721
15.015500 7.099 1.704
15.027000 7.397 1.676
15.038500 7.713 1.62
15.050000 8.046 1.556
15.061500 8.364 1.456
15.073000 8.703 1.334
15.084500 9.042 1.188
15.096000 9.388 1.029
15.107500 9.736 0.8208
15.119000 10.06 0.5802
15.130500 10.4 0.304
15.142000 10.71 0.0066
15.153500 11.01 -0.3328
15.165000 11.3 -0.7002
15.176500 11.55 -1.095
15.188000 11.79 -1.547
15.199500 11.96 -2.004
15.211000 12.12 -2.475
15.222500 12.21 -2.975
15.234000 12.29 -3.489
15.245500 12.31 -4.005
15.257000 12.3 -4.515
15.268500 12.24 -5.019
15.280000 12.11 -5.511
15.291500 11.96 -6.009
15.303000 11.76 -6.455
15.314500 11.54 -6.892
15.326000 11.26 -7.268
15.337500 11 -7.653
15.349000 10.68 -7.987
15.360500 10.36 -8.285
15.372000 10.04 -8.54
15.383500 9.689 -8.797
15.395000 9.374 -8.984
15.406500 9.009 -9.16
15.418000 8.68 -9.338
15.429500 8.336 -9.444
15.441000 7.989 -9.541
15.452500 7.68 -9.613
15.464000 7.359 -9.672
15.475500 7.058 -9.719
15.487000 6.78 -9.719
15.498500 6.478 -9.729
15.510000 6.222 -9.736
15.521500 5.958 -9.712
15.533000 5.73 -9.676
15.544500 5.475 -9.648
15.556000 5.253 -9.59
15.567500 5.025 -9.53
15.579000 4.833 -9.481
15.590500 4.629 -9.424
15.602000 4.455 -9.357
15.613500 4.279 -9.292
15.625000 4.107 -9.207
15.636500 3.941 -9.143
15.648000 3.797 -9.063
15.659500 3.654 -8.988
15.671000 3.514 -8.922
15.682500 3.381 -8.824
15.694000 3.261 -8.74
15.705500 3.134 -8.665
15.717000 3.03 -8.582
15.728500 2.916 -8.508
15.740000 2.812 -8.43
15.751500 2.729 -8.353
15.763000 2.624 -8.268
15.774500 2.536 -8.193
15.786000 2.452 -8.121
15.797500 2.373 -8.043
15.809000 2.296 -7.961
15.820500 2.219 -7.885
15.832000 2.15 -7.815
15.843500 2.089 -7.734
15.855000 2.024 -7.662
15.866500 1.958 -7.595
15.878000 1.896 -7.53
15.889500 1.846 -7.456
15.901000 1.787 -7.391
15.912500 1.736 -7.32
15.924000 1.689 -7.255
15.935500 1.65 -7.189
15.947000 1.595 -7.126
15.958500 1.56 -7.066
15.970000 1.517 -7.002
15.981500 1.476 -6.938
15.993000 1.432 -6.877
16.004500 1.398 -6.816
16.016000 1.361 -6.751
16.027500 1.331 -6.699
16.039000 1.294 -6.641
16.050500 1.268 -6.585
16.062000 1.235 -6.529
16.073500 1.207 -6.475
16.085000 1.179 -6.422
16.096500 1.152 -6.366
16.108000 1.125 -6.312
16.119500 1.102 -6.26
16.131000 1.075 -6.211
16.142500 1.052 -6.159
16.154000 1.031 -6.109
16.165500 1.013 -6.064
16.177000 0.9894 -6.008
16.188500 0.9682 -5.965
16.200000 0.9488 -5.92
16.211500 0.9326 -5.87
16.223000 0.9132 -5.826
16.234500 0.8946 -5.782
16.246000 0.8788 -5.732
16.257500 0.8616 -5.69
16.269000 0.8464 -5.646
16.280500 0.8318 -5.603
16.292000 0.8182 -5.558
16.303500 0.8032 -5.514
16.315000 0.792 -5.473
16.326500 0.7744 -5.43
16.338000 0.7616 -5.394
16.349500 0.7504 -5.353
16.361000 0.7378 -5.31
16.372500 0.7262 -5.27
16.384000 0.7152 -5.232
16.395500 0.7038 -5.195
16.407000 0.6958 -5.153
16.418500 0.6844 -5.117
16.430000 0.676 -5.08
16.441500 0.6646 -5.038
16.453000 0.6556 -5.004
16.464500 0.6452 -4.968
16.476000 0.6362 -4.93
16.487500 0.6296 -4.898
16.499000 0.619 -4.858
16.510500 0.614 -4.824
16.522000 0.6044 -4.787
16.533500 0.598 -4.754
16.545000 0.5886 -4.721
16.556500 0.5832 -4.687
16.568000 0.5748 -4.651
16.579500 0.5698 -4.618
16.591000 0.5626 -4.586
16.602500 0.558 -4.553
16.614000 0.5496 -4.52
16.625500 0.5454 -4.485
16.637000 0.5372 -4.455
16.648500 0.5324 -4.424
16.660000 0.5278 -4.39
16.671500 0.522 -4.361
16.683000 0.5158 -4.329
16.694500 0.5098 -4.299
16.706000 0.5076 -4.266
16.717500 0.5006 -4.235
16.729000 0.4978 -4.206
16.740500 0.495 -4.173
16.752000 0.4892 -4.144
16.763500 0.4858 -4.113
16.775000 0.4832 -4.081
16.786500 0.4796 -4.052
16.798000 0.4746 -4.022
16.809500 0.471 -3.991
16.821000 0.4686 -3.962
16.832500 0.4656 -3.932
16.844000 0.4594 -3.903
16.855500 0.4588 -3.874
16.867000 0.455 -3.844
16.878500 0.453 -3.814
16.890000 0.4496 -3.787
16.901500 0.4468 -3.758
16.913000 0.446 -3.727
16.924500 0.443 -3.7
16.936000 0.4398 -3.671
16.947500 0.4394 -3.642
16.959000 0.4364 -3.613
16.970500 0.4356 -3.585
16.982000 0.434 -3.556
16.993500 0.432 -3.528
17.005000 0.4304 -3.499
17.016500 0.4284 -3.47
17.028000 0.428 -3.442
17.039500 0.4254 -3.414
17.051000 0.424 -3.385
17.062500 0.423 -3.357
17.074000 0.4228 -3.328
17.085500 0.4216 -3.299
