1



                                 *********************************************

                                    NUMERICAL ELECTROMAGNETICS CODE (NEC-2D)

                                 *********************************************




                                     - - - - COMMENTS - - - -


                                                                                                     
                          forw: 65, 0 ; back: 65, 180                                                
                                                                                                     




                                 - - - STRUCTURE SPECIFICATION - - -

                                     COORDINATES MUST BE INPUT IN
                                     METERS OR BE SCALED TO METERS
                                     BEFORE STRUCTURE INPUT IS ENDED


  WIRE                                                                               NO. OF    FIRST  LAST     TAG
  NO.        X1         Y1         Z1          X2         Y2         Z2      RADIUS   SEG.     SEG.   SEG.     NO.
     1  -51.83000    0.00000   36.70000    52.16600    0.00000   40.80000    0.00041     19        1    19       1
      STRUCTURE SCALED BY FACTOR   0.30480

   GROUND PLANE SPECIFIED.

   WHERE WIRE ENDS TOUCH GROUND, CURRENT WILL BE INTERPOLATED TO IMAGE IN GROUND PLANE.


   TOTAL SEGMENTS USED=   19     NO. SEG. IN A SYMMETRIC CELL=   19     SYMMETRY FLAG=  0


         - MULTIPLE WIRE JUNCTIONS -
 JUNCTION    SEGMENTS  (- FOR END 1, + FOR END 2)
  NONE




                                 - - - - SEGMENTATION DATA - - - -

                                        COORDINATES IN METERS

                         I+ AND I- INDICATE THE SEGMENTS BEFORE AND AFTER I


  SEG.   COORDINATES OF SEG. CENTER     SEG.     ORIENTATION ANGLES    WIRE    CONNECTION DATA   TAG
  NO.       X         Y         Z       LENGTH     ALPHA     BETA      RADIUS    I-   I    I+    NO.
     1 -14.96363   0.00000  11.21905   1.66961    2.25769   0.00000   0.00012     0    1    2      1
     2 -13.29531   0.00000  11.28482   1.66961    2.25769   0.00000   0.00012     1    2    3      1
     3 -11.62700   0.00000  11.35059   1.66961    2.25769   0.00000   0.00012     2    3    4      1
     4  -9.95868   0.00000  11.41636   1.66961    2.25769   0.00000   0.00012     3    4    5      1
     5  -8.29037   0.00000  11.48214   1.66961    2.25769   0.00000   0.00012     4    5    6      1
     6  -6.62205   0.00000  11.54791   1.66961    2.25769   0.00000   0.00012     5    6    7      1
     7  -4.95374   0.00000  11.61368   1.66961    2.25769   0.00000   0.00012     6    7    8      1
     8  -3.28542   0.00000  11.67945   1.66961    2.25769   0.00000   0.00012     7    8    9      1
     9  -1.61711   0.00000  11.74523   1.66961    2.25769   0.00000   0.00012     8    9   10      1
    10   0.05121   0.00000  11.81100   1.66961    2.25769   0.00000   0.00012     9   10   11      1
    11   1.71952   0.00000  11.87677   1.66961    2.25769   0.00000   0.00012    10   11   12      1
    12   3.38784   0.00000  11.94255   1.66961    2.25769   0.00000   0.00012    11   12   13      1
    13   5.05615   0.00000  12.00832   1.66961    2.25769   0.00000   0.00012    12   13   14      1
    14   6.72447   0.00000  12.07409   1.66961    2.25769   0.00000   0.00012    13   14   15      1
    15   8.39278   0.00000  12.13986   1.66961    2.25769   0.00000   0.00012    14   15   16      1
    16  10.06110   0.00000  12.20564   1.66961    2.25769   0.00000   0.00012    15   16   17      1
    17  11.72941   0.00000  12.27141   1.66961    2.25769   0.00000   0.00012    16   17   18      1
    18  13.39772   0.00000  12.33718   1.66961    2.25769   0.00000   0.00012    17   18   19      1
    19  15.06604   0.00000  12.40295   1.66961    2.25769   0.00000   0.00012    18   19    0      1






 ***** DATA CARD NO.  1   LD   5     1     1    19  5.80000E+07  0.00000E+00  0.00000E+00  0.00000E+00  0.00000E+00  0.00000E+00
 ***** DATA CARD NO.  2   GN   2     0     0     0  1.30000E+01  4.00000E-03  0.00000E+00  0.00000E+00  0.00000E+00  0.00000E+00
 ***** DATA CARD NO.  3   EK   0     0     0     0  0.00000E+00  0.00000E+00  0.00000E+00  0.00000E+00  0.00000E+00  0.00000E+00
 ***** DATA CARD NO.  4   EX   0     1    10     0  0.00000E+00  0.00000E+00  0.00000E+00  0.00000E+00  0.00000E+00  0.00000E+00
 ***** DATA CARD NO.  5   FR   0     0     0     0  1.41000E+01  0.00000E+00  0.00000E+00  0.00000E+00  0.00000E+00  0.00000E+00
 ***** DATA CARD NO.  6   XQ   0     0     0     0  0.00000E+00  0.00000E+00  0.00000E+00  0.00000E+00  0.00000E+00  0.00000E+00




                                 - - - - - - FREQUENCY - - - - - -

                                    FREQUENCY= 1.4100E+01 MHZ
                                    WAVELENGTH= 2.1262E+01 METERS




                    APPROXIMATE INTEGRATION EMPLOYED FOR SEGMENTS MORE THAN   1.000 WAVELENGTHS APART

                    THE EXTENDED THIN WIRE KERNEL WILL BE USED



                               - - - STRUCTURE IMPEDANCE LOADING - - -


       LOCATION          RESISTANCE   INDUCTANCE  CAPACITANCE       IMPEDANCE (OHMS)     CONDUCTIVITY    TYPE
    ITAG FROM THRU          OHMS        HENRYS       FARADS        REAL      IMAGINARY    MHOS/METER

       1    1   19                                                                       5.8000E+07     WIRE  



                                  - - - ANTENNA ENVIRONMENT - - -

                                        FINITE GROUND.  SOMMERFELD SOLUTION
                                        RELATIVE DIELECTRIC CONST.= 13.000
                                        CONDUCTIVITY= 4.000E-03 MHOS/METER
                                        COMPLEX DIELECTRIC CONSTANT= 1.30000E+01-5.09958E+00



                                - - - MATRIX TIMING - - -

                        FILL=    0.000 SEC.,  FACTOR=    0.000 SEC.



                                          - - - ANTENNA INPUT PARAMETERS - - -

   TAG   SEG.    VOLTAGE (VOLTS)         CURRENT (AMPS)         IMPEDANCE (OHMS)        ADMITTANCE (MHOS)      POWER
   NO.   NO.    REAL        IMAG.       REAL        IMAG.       REAL        IMAG.       REAL        IMAG.     (WATTS)
     1    10 1.00000E+00 0.00000E+00 7.36897E-03-1.54371E-03 1.29999E+02 2.72332E+01 7.36897E-03-1.54371E-03 3.68449E-03



                             - - - CURRENTS AND LOCATION - - -

                                 DISTANCES IN WAVELENGTHS


  SEG.  TAG    COORD. OF SEG. CENTER     SEG.            - - - CURRENT (AMPS) - - -
  NO.   NO.     X        Y        Z      LENGTH     REAL        IMAG.       MAG.        PHASE
     1    1  -0.7038   0.0000   0.5276  0.07852  -1.9472E-03  4.9233E-04  2.0085E-03  165.811
     2    1  -0.6253   0.0000   0.5307  0.07852  -5.1439E-03  1.2276E-03  5.2883E-03  166.577
     3    1  -0.5468   0.0000   0.5338  0.07852  -7.0236E-03  1.5516E-03  7.1929E-03  167.542
     4    1  -0.4684   0.0000   0.5369  0.07852  -7.2168E-03  1.4147E-03  7.3542E-03  168.909
     5    1  -0.3899   0.0000   0.5400  0.07852  -5.6961E-03  8.7055E-04  5.7623E-03  171.311
     6    1  -0.3114   0.0000   0.5431  0.07852  -2.8268E-03  7.3704E-05  2.8278E-03  178.506
     7    1  -0.2330   0.0000   0.5462  0.07852   7.1168E-04 -7.5729E-04  1.0392E-03  -46.779
     8    1  -0.1545   0.0000   0.5493  0.07852   4.0834E-03 -1.3940E-03  4.3148E-03  -18.848
     9    1  -0.0761   0.0000   0.5524  0.07852   6.4921E-03 -1.6516E-03  6.6989E-03  -14.273
    10    1   0.0024   0.0000   0.5555  0.07852   7.3690E-03 -1.5437E-03  7.5289E-03  -11.832
    11    1   0.0809   0.0000   0.5586  0.07852   6.5068E-03 -1.6428E-03  6.7109E-03  -14.169
    12    1   0.1593   0.0000   0.5617  0.07852   4.1098E-03 -1.3781E-03  4.3347E-03  -18.537
    13    1   0.2378   0.0000   0.5648  0.07852   7.4499E-04 -7.3734E-04  1.0482E-03  -44.704
    14    1   0.3163   0.0000   0.5679  0.07852  -2.7926E-03  9.4152E-05  2.7942E-03  178.069
    15    1   0.3947   0.0000   0.5710  0.07852  -5.6665E-03  8.8825E-04  5.7357E-03  171.091
    16    1   0.4732   0.0000   0.5740  0.07852  -7.1957E-03  1.4275E-03  7.3359E-03  168.779
    17    1   0.5517   0.0000   0.5771  0.07852  -7.0122E-03  1.5588E-03  7.1833E-03  167.467
    18    1   0.6301   0.0000   0.5802  0.07852  -5.1405E-03  1.2302E-03  5.2856E-03  166.541
    19    1   0.7086   0.0000   0.5833  0.07852  -1.9476E-03  4.9250E-04  2.0089E-03  165.809



                                        - - - POWER BUDGET - - -

                                           INPUT POWER   = 3.6845E-03 WATTS
                                           RADIATED POWER= 3.0707E-03 WATTS
                                           STRUCTURE LOSS= 6.1376E-04 WATTS
                                           NETWORK LOSS  = 0.0000E+00 WATTS
                                           EFFICIENCY    =  83.34 PERCENT






 ***** DATA CARD NO.  7   FR   0   151     0     0  7.00000E+00  1.00000E-01  0.00000E+00  0.00000E+00  0.00000E+00  0.00000E+00
 ***** DATA CARD NO.  8   RP   0     1    73  1000  6.50000E+01  0.00000E+00  0.00000E+00  5.00000E+00  0.00000E+00  0.00000E+00




                                 - - - - - - FREQUENCY - - - - - -

                                    FREQUENCY= 7.0000E+00 MHZ
                                    WAVELENGTH= 4.2829E+01 METERS




                    APPROXIMATE INTEGRATION EMPLOYED FOR SEGMENTS MORE THAN   1.000 WAVELENGTHS APART

                    THE EXTENDED THIN WIRE KERNEL WILL BE USED



                               - - - STRUCTURE IMPEDANCE LOADING - - -


       LOCATION          RESISTANCE   INDUCTANCE  CAPACITANCE       IMPEDANCE (OHMS)     CONDUCTIVITY    TYPE
    ITAG FROM THRU          OHMS        HENRYS       FARADS        REAL      IMAGINARY    MHOS/METER

       1    1   19                                                                       5.8000E+07     WIRE  



                                  - - - ANTENNA ENVIRONMENT - - -

                                        FINITE GROUND.  SOMMERFELD SOLUTION
                                        RELATIVE DIELECTRIC CONST.= 13.000
                                        CONDUCTIVITY= 4.000E-03 MHOS/METER
                                        COMPLEX DIELECTRIC CONSTANT= 1.30000E+01-1.02720E+01



                                - - - MATRIX TIMING - - -

                        FILL=    0.000 SEC.,  FACTOR=    0.000 SEC.



                                          - - - ANTENNA INPUT PARAMETERS - - -

   TAG   SEG.    VOLTAGE (VOLTS)         CURRENT (AMPS)         IMPEDANCE (OHMS)        ADMITTANCE (MHOS)      POWER
   NO.   NO.    REAL        IMAG.       REAL        IMAG.       REAL        IMAG.       REAL        IMAG.     (WATTS)
     1    10 1.00000E+00 0.00000E+00 2.38919E-04-6.54558E-04 4.92080E+02 1.34814E+03 2.38919E-04-6.54558E-04 1.19459E-04



                             - - - CURRENTS AND LOCATION - - -

                                 DISTANCES IN WAVELENGTHS


  SEG.  TAG    COORD. OF SEG. CENTER     SEG.            - - - CURRENT (AMPS) - - -
  NO.   NO.     X        Y        Z      LENGTH     REAL        IMAG.       MAG.        PHASE
     1    1  -0.3494   0.0000   0.2620  0.03898   1.7019E-05 -1.3945E-04  1.4049E-04  -83.042
     2    1  -0.3104   0.0000   0.2635  0.03898   5.1149E-05 -3.9059E-04  3.9393E-04  -82.539
     3    1  -0.2715   0.0000   0.2650  0.03898   8.5857E-05 -6.0803E-04  6.1406E-04  -81.963
     4    1  -0.2325   0.0000   0.2666  0.03898   1.2014E-04 -7.8400E-04  7.9315E-04  -81.288
     5    1  -0.1936   0.0000   0.2681  0.03898   1.5253E-04 -9.0917E-04  9.2187E-04  -80.476
     6    1  -0.1546   0.0000   0.2696  0.03898   1.8155E-04 -9.7615E-04  9.9289E-04  -79.464
     7    1  -0.1157   0.0000   0.2712  0.03898   2.0578E-04 -9.8033E-04  1.0017E-03  -78.145
     8    1  -0.0767   0.0000   0.2727  0.03898   2.2401E-04 -9.1978E-04  9.4667E-04  -76.312
     9    1  -0.0378   0.0000   0.2742  0.03898   2.3527E-04 -7.9344E-04  8.2759E-04  -73.484
    10    1   0.0012   0.0000   0.2758  0.03898   2.3892E-04 -6.5456E-04  6.9680E-04  -69.948
    11    1   0.0401   0.0000   0.2773  0.03898   2.3470E-04 -7.9264E-04  8.2666E-04  -73.506
    12    1   0.0791   0.0000   0.2788  0.03898   2.2291E-04 -9.1826E-04  9.4493E-04  -76.355
    13    1   0.1181   0.0000   0.2804  0.03898   2.0425E-04 -9.7822E-04  9.9932E-04  -78.206
    14    1   0.1570   0.0000   0.2819  0.03898   1.7973E-04 -9.7365E-04  9.9010E-04  -79.541
    15    1   0.1960   0.0000   0.2835  0.03898   1.5060E-04 -9.0650E-04  9.1893E-04  -80.567
    16    1   0.2349   0.0000   0.2850  0.03898   1.1828E-04 -7.8144E-04  7.9035E-04  -81.393
    17    1   0.2739   0.0000   0.2865  0.03898   8.4281E-05 -6.0585E-04  6.1169E-04  -82.080
    18    1   0.3128   0.0000   0.2881  0.03898   5.0050E-05 -3.8907E-04  3.9228E-04  -82.670
    19    1   0.3518   0.0000   0.2896  0.03898   1.6597E-05 -1.3887E-04  1.3986E-04  -83.185



                                        - - - POWER BUDGET - - -

                                           INPUT POWER   = 1.1946E-04 WATTS
                                           RADIATED POWER= 1.0989E-04 WATTS
                                           STRUCTURE LOSS= 9.5685E-06 WATTS
                                           NETWORK LOSS  = 0.0000E+00 WATTS
                                           EFFICIENCY    =  91.99 PERCENT



                                                - - - RADIATION PATTERNS - - -

  - - ANGLES - -           - POWER GAINS -       - - - POLARIZATION - - -    - - - E(THETA) - - -    - - - E(PHI) - - -
  THETA     PHI        VERT.   HOR.    TOTAL      AXIAL     TILT   SENSE     MAGNITUDE    PHASE      MAGNITUDE    PHASE 
 DEGREES  DEGREES       DB      DB      DB        RATIO     DEG.              VOLTS/M    DEGREES      VOLTS/M    DEGREES
   65.00     0.00     -10.25 -999.99  -10.25    0.00000     0.00  LINEAR    2.60126E-02  -106.53    0.00000E+00     0.00
   65.00     5.00     -10.24  -22.49   -9.99    0.09344   -12.71  RIGHT     2.60389E-02  -106.54    6.35422E-03    97.17
   65.00    10.00     -10.21  -16.37   -9.27    0.16331   -24.97  RIGHT     2.61107E-02  -106.60    1.28475E-02    97.08
   65.00    15.00     -10.18  -12.70   -8.25    0.19977   -36.10  RIGHT     2.62061E-02  -106.67    1.96102E-02    96.93
   65.00    20.00     -10.16  -10.00   -7.07    0.20807   -45.55  RIGHT     2.62894E-02  -106.77    2.67543E-02    96.74
   65.00    25.00     -10.15   -7.83   -5.82    0.19918   -53.20  RIGHT     2.63122E-02  -106.87    3.43650E-02    96.52
   65.00    30.00     -10.18   -5.98   -4.58    0.18204   -59.32  RIGHT     2.62149E-02  -106.96    4.24903E-02    96.26
   65.00    35.00     -10.27   -4.38   -3.38    0.16187   -64.26  RIGHT     2.59298E-02  -107.03    5.11324E-02    95.99
   65.00    40.00     -10.46   -2.95   -2.24    0.14123   -68.31  RIGHT     2.53846E-02  -107.05    6.02399E-02    95.71
   65.00    45.00     -10.76   -1.69   -1.18    0.12124   -71.72  RIGHT     2.45076E-02  -107.02    6.97021E-02    95.43
   65.00    50.00     -11.23   -0.56   -0.20    0.10225   -74.65  RIGHT     2.32332E-02  -106.88    7.93469E-02    95.16
   65.00    55.00     -11.90    0.43    0.68    0.08434   -77.23  RIGHT     2.15085E-02  -106.61    8.89441E-02    94.90
   65.00    60.00     -12.84    1.29    1.46    0.06740   -79.54  RIGHT     1.93002E-02  -106.12    9.82136E-02    94.65
   65.00    65.00     -14.15    2.02    2.13    0.05130   -81.66  RIGHT     1.66003E-02  -105.29    1.06841E-01    94.41
   65.00    70.00     -15.99    2.62    2.68    0.03586   -83.63  RIGHT     1.34326E-02  -103.83    1.14495E-01    94.20
   65.00    75.00     -18.67    3.09    3.12    0.02094   -85.49  RIGHT     9.85905E-03  -100.96    1.20855E-01    94.00
   65.00    80.00     -22.98    3.43    3.44    0.00637   -87.29  RIGHT     6.00646E-03   -93.84    1.25637E-01    93.83
   65.00    85.00     -31.00    3.64    3.64    0.00799   -89.04  LEFT      2.38438E-03   -60.78    1.28613E-01    93.67
   65.00    90.00     -27.95    3.70    3.71    0.02229    89.22  LEFT      3.38815E-03    35.00    1.29640E-01    93.54
   65.00    95.00     -21.17    3.64    3.65    0.03666    87.47  LEFT      7.39309E-03    53.69    1.28665E-01    93.43
   65.00   100.00     -17.35    3.44    3.47    0.05124    85.68  LEFT      1.14820E-02    58.98    1.25738E-01    93.33
   65.00   105.00     -14.83    3.11    3.17    0.06616    83.82  LEFT      1.53492E-02    61.42    1.21001E-01    93.26
   65.00   110.00     -13.04    2.64    2.75    0.08157    81.87  LEFT      1.88618E-02    62.81    1.14678E-01    93.21
   65.00   115.00     -11.73    2.04    2.22    0.09760    79.79  LEFT      2.19344E-02    63.73    1.07052E-01    93.18
   65.00   120.00     -10.76    1.31    1.57    0.11439    77.52  LEFT      2.45174E-02    64.39    9.84440E-02    93.17
   65.00   125.00     -10.05    0.46    0.82    0.13202    75.02  LEFT      2.65943E-02    64.90    8.91837E-02    93.18
   65.00   130.00      -9.55   -0.53   -0.02    0.15054    72.21  LEFT      2.81785E-02    65.32    7.95866E-02    93.21
   65.00   135.00      -9.21   -1.66   -0.95    0.16986    68.99  LEFT      2.93085E-02    65.67    6.99337E-02    93.26
   65.00   140.00      -9.00   -2.92   -1.96    0.18960    65.23  LEFT      3.00419E-02    65.98    6.04565E-02    93.32
   65.00   145.00      -8.88   -4.34   -3.03    0.20887    60.77  LEFT      3.04489E-02    66.26    5.13284E-02    93.39
   65.00   150.00      -8.83   -5.95   -4.15    0.22573    55.39  LEFT      3.06054E-02    66.51    4.26618E-02    93.47
   65.00   155.00      -8.84   -7.79   -5.27    0.23659    48.86  LEFT      3.05874E-02    66.72    3.45095E-02    93.56
   65.00   160.00      -8.87   -9.97   -6.38    0.23543    40.99  LEFT      3.04658E-02    66.91    2.68704E-02    93.63
   65.00   165.00      -8.92  -12.66   -7.39    0.21428    31.79  LEFT      3.03028E-02    67.07    1.96971E-02    93.70
   65.00   170.00      -8.97  -16.34   -8.23    0.16635    21.57  LEFT      3.01490E-02    67.18    1.29054E-02    93.76
   65.00   175.00      -9.00  -22.45   -8.80    0.09161    10.85  LEFT      3.00416E-02    67.25    6.38306E-03    93.79
   65.00   180.00      -9.01 -999.99   -9.01    0.00000     0.00  LINEAR    3.00033E-02    67.27    7.43824E-13   -86.20
   65.00   185.00      -9.00  -22.45   -8.80    0.09161   -10.85  RIGHT     3.00416E-02    67.25    6.38306E-03   -86.21
   65.00   190.00      -8.97  -16.34   -8.23    0.16635   -21.57  RIGHT     3.01490E-02    67.18    1.29054E-02   -86.24
   65.00   195.00      -8.92  -12.66   -7.39    0.21428   -31.79  RIGHT     3.03028E-02    67.07    1.96971E-02   -86.30
   65.00   200.00      -8.87   -9.97   -6.38    0.23543   -40.99  RIGHT     3.04658E-02    66.91    2.68704E-02   -86.37
   65.00   205.00      -8.84   -7.79   -5.27    0.23659   -48.86  RIGHT     3.05874E-02    66.72    3.45095E-02   -86.44
   65.00   210.00      -8.83   -5.95   -4.15    0.22573   -55.39  RIGHT     3.06054E-02    66.51    4.26618E-02   -86.53
   65.00   215.00      -8.88   -4.34   -3.03    0.20887   -60.77  RIGHT     3.04489E-02    66.26    5.13284E-02   -86.61
   65.00   220.00      -9.00   -2.92   -1.96    0.18960   -65.23  RIGHT     3.00419E-02    65.98    6.04565E-02   -86.68
   65.00   225.00      -9.21   -1.66   -0.95    0.16986   -68.99  RIGHT     2.93085E-02    65.67    6.99337E-02   -86.74
   65.00   230.00      -9.55   -0.53   -0.02    0.15054   -72.21  RIGHT     2.81785E-02    65.32    7.95866E-02   -86.79
