! Touchstone file generated by AntScope2
# MHz Z RI R 50
! Format: Frequency Z-real Z-imaginary (normalized to 50 Ohm)
3.000000 1.851 -5.452
3.013500 1.841 -5.381
3.027000 1.821 -5.314
3.040500 1.795 -5.245
3.054000 1.69 -5.186
3.067500 1.384 -5.165
3.081000 1.244 -5.151
3.094500 1.083 -5.168
3.108000 0.8892 -5.25
3.121500 0.8066 -5.298
3.135000 0.822 -5.218
3.148500 0.8414 -5.135
3.162000 0.865 -5.059
3.175500 0.8892 -4.983
3.189000 0.9172 -4.911
3.202500 0.9486 -4.84
3.216000 0.9838 -4.769
3.229500 1.023 -4.697
3.243000 1.064 -4.624
3.256500 1.115 -4.549
3.270000 1.166 -4.476
3.283500 1.22 -4.403
3.297000 1.277 -4.329
3.310500 1.336 -4.258
3.324000 1.398 -4.191
3.337500 1.464 -4.124
3.351000 1.533 -4.057
3.364500 1.603 -3.992
3.378000 1.679 -3.927
3.391500 1.754 -3.865
3.405000 1.832 -3.806
3.418500 1.911 -3.748
3.432000 1.992 -3.695
3.445500 2.07 -3.648
3.459000 2.148 -3.604
3.472500 2.223 -3.565
3.486000 2.296 -3.531
3.499500 2.366 -3.502
3.513000 2.418 -3.507
3.526500 2.466 -3.523
3.540000 2.51 -3.542
3.553500 2.551 -3.568
3.567000 2.585 -3.599
3.580500 2.613 -3.632
3.594000 2.634 -3.669
3.607500 2.646 -3.707
3.621000 2.652 -3.745
3.634500 2.646 -3.782
3.648000 2.63 -3.814
3.661500 2.61 -3.844
3.675000 2.582 -3.87
3.688500 2.548 -3.885
3.702000 2.511 -3.897
3.715500 2.468 -3.9
3.729000 2.423 -3.897
3.742500 2.377 -3.886
3.756000 2.328 -3.868
3.769500 2.281 -3.842
3.783000 2.232 -3.81
3.796500 2.183 -3.772
3.810000 2.138 -3.726
3.823500 2.092 -3.676
3.837000 2.05 -3.62
3.850500 2.01 -3.56
3.864000 1.973 -3.496
3.877500 1.938 -3.428
3.891000 1.905 -3.359
3.904500 1.875 -3.286
3.918000 1.849 -3.211
3.931500 1.824 -3.135
3.945000 1.8 -3.059
3.958500 1.779 -2.982
3.972000 1.761 -2.904
3.985500 1.743 -2.828
3.999000 1.727 -2.751
4.012500 1.7 -2.69
4.026000 1.675 -2.631
4.039500 1.65 -2.573
4.053000 1.628 -2.514
4.066500 1.607 -2.456
4.080000 1.587 -2.397
4.093500 1.566 -2.338
4.107000 1.547 -2.28
4.120500 1.526 -2.222
4.134000 1.504 -2.163
4.147500 1.481 -2.101
4.161000 1.457 -2.039
4.174500 1.433 -1.976
4.188000 1.406 -1.908
4.201500 1.381 -1.84
4.215000 1.353 -1.768
4.228500 1.326 -1.693
4.242000 1.299 -1.616
4.255500 1.275 -1.535
4.269000 1.25 -1.452
4.282500 1.228 -1.367
4.296000 1.207 -1.28
4.309500 1.188 -1.191
4.323000 1.17 -1.101
4.336500 1.154 -1.01
4.350000 1.14 -0.9192
4.363500 1.129 -0.8272
4.377000 1.118 -0.7346
4.390500 1.109 -0.6428
4.404000 1.102 -0.5508
4.417500 1.096 -0.4596
4.431000 1.091 -0.3684
4.444500 1.088 -0.2774
4.458000 1.086 -0.1874
4.471500 1.084 -0.098
4.485000 1.085 -0.0086
4.498500 1.086 0.0798
4.512000 1.087 0.1686
4.525500 1.09 0.2568
4.539000 1.093 0.3462
4.552500 1.098 0.4346
4.566000 1.103 0.524
4.579500 1.108 0.6132
4.593000 1.115 0.7026
4.606500 1.121 0.7914
4.620000 1.128 0.8806
4.633500 1.135 0.9694
4.647000 1.143 1.058
4.660500 1.151 1.148
4.674000 1.159 1.237
4.687500 1.168 1.327
4.701000 1.176 1.415
4.714500 1.185 1.504
4.728000 1.194 1.593
4.741500 1.204 1.682
4.755000 1.213 1.771
4.768500 1.223 1.86
4.782000 1.234 1.948
4.795500 1.245 2.037
4.809000 1.257 2.125
4.822500 1.268 2.214
4.836000 1.281 2.301
4.849500 1.295 2.389
4.863000 1.31 2.477
4.876500 1.325 2.563
4.890000 1.342 2.651
4.903500 1.36 2.736
4.917000 1.38 2.821
4.930500 1.4 2.906
4.944000 1.421 2.989
4.957500 1.446 3.072
4.971000 1.471 3.154
4.984500 1.499 3.236
4.998000 1.528 3.315
5.011500 1.542 3.413
5.025000 1.551 3.515
5.038500 1.563 3.619
5.052000 1.572 3.725
5.065500 1.582 3.828
5.079000 1.587 3.933
5.092500 1.597 4.035
5.106000 1.607 4.139
5.119500 1.616 4.244
5.133000 1.625 4.349
5.146500 1.634 4.452
5.160000 1.644 4.556
5.173500 1.654 4.659
5.187000 1.665 4.764
5.200500 1.675 4.865
5.214000 1.688 4.97
5.227500 1.7 5.069
5.241000 1.718 5.168
5.254500 1.727 5.271
5.268000 1.744 5.369
5.281500 1.763 5.467
5.295000 1.784 5.565
5.308500 1.807 5.662
5.322000 1.829 5.758
5.335500 1.86 5.855
5.349000 1.887 5.946
5.362500 1.921 6.039
5.376000 1.96 6.13
5.389500 2.001 6.217
5.403000 2.041 6.306
5.416500 2.087 6.391
5.430000 2.141 6.476
5.443500 2.195 6.556
5.457000 2.257 6.637
5.470500 2.322 6.713
5.484000 2.389 6.791
5.497500 2.468 6.865
5.511000 2.485 6.995
5.524500 2.49 7.138
5.538000 2.491 7.294
5.551500 2.493 7.436
5.565000 2.495 7.58
5.578500 2.495 7.73
5.592000 2.496 7.87
5.605500 2.499 8.018
5.619000 2.506 8.166
5.632500 2.504 8.31
5.646000 2.507 8.454
5.659500 2.511 8.587
5.673000 2.519 8.732
5.686500 2.527 8.872
5.700000 2.533 9.007
5.713500 2.553 9.143
5.727000 2.562 9.272
5.740500 2.596 9.398
5.754000 2.621 9.526
5.767500 2.646 9.653
5.781000 2.682 9.773
5.794500 2.727 9.895
5.808000 2.767 10
5.821500 2.817 10.13
5.835000 2.883 10.25
5.848500 2.947 10.36
5.862000 3.013 10.46
5.875500 3.107 10.56
5.889000 3.18 10.65
5.902500 3.285 10.74
5.916000 3.408 10.83
5.929500 3.533 10.92
5.943000 3.648 10.98
5.956500 3.789 11.06
5.970000 3.925 11.12
5.983500 4.095 11.18
5.997000 4.258 11.23
6.010500 4.297 11.42
6.024000 4.286 11.67
6.037500 4.291 11.94
6.051000 4.273 12.17
6.064500 4.257 12.41
6.078000 4.25 12.66
6.091500 4.241 12.89
6.105000 4.232 13.12
6.118500 4.225 13.37
6.132000 4.214 13.58
6.145500 4.207 13.79
6.159000 4.189 14.03
6.172500 4.216 14.26
6.186000 4.246 14.46
6.199500 4.25 14.69
6.213000 4.257 14.89
6.226500 4.325 15.11
6.240000 4.362 15.33
6.253500 4.407 15.49
6.267000 4.483 15.68
6.280500 4.57 15.86
6.294000 4.656 16.05
6.307500 4.753 16.24
6.321000 4.864 16.36
6.334500 5.052 16.52
6.348000 5.188 16.65
6.361500 5.37 16.79
6.375000 5.549 16.88
6.388500 5.797 16.97
6.402000 5.991 17.05
6.415500 6.251 17.16
6.429000 6.51 17.19
6.442500 6.813 17.28
6.456000 7.124 17.28
6.469500 7.488 17.3
6.483000 7.824 17.27
6.496500 8.145 17.24
6.510000 8.257 17.57
6.523500 8.32 18.05
6.537000 8.334 18.49
6.550500 8.334 18.94
6.564000 8.356 19.44
6.577500 8.379 19.89
6.591000 8.384 20.39
6.604500 8.436 20.8
6.618000 8.488 21.23
6.631500 8.557 21.68
6.645000 8.569 22.17
6.658500 8.64 22.5
6.672000 8.686 22.94
6.685500 8.759 23.32
6.699000 8.857 23.73
6.712500 8.954 24.04
6.726000 9.149 24.45
6.739500 9.273 24.82
6.753000 9.458 25.11
6.766500 9.713 25.39
6.780000 9.976 25.61
6.793500 10.27 25.92
6.807000 10.6 26.1
6.820500 10.94 26.27
6.834000 11.24 26.38
6.847500 11.49 26.43
6.861000 12.05 26.43
6.874500 12.72 26.44
6.888000 13.21 26.47
6.901500 13.67 26.41
6.915000 14.3 26.21
6.928500 15 26.08
6.942000 15.57 25.75
6.955500 16.21 25.29
6.969000 16.83 24.95
6.982500 17.57 24.5
6.996000 18.15 23.96
7.009500 18.67 24.34
7.023000 18.96 25.2
7.036500 19.48 26.11
7.050000 19.72 26.93
7.063500 20.01 27.94
7.077000 20.3 28.89
7.090500 20.75 29.74
7.104000 20.89 30.58
7.117500 21.43 31.39
7.131000 21.78 32.47
7.144500 22.13 33.28
7.158000 22.45 33.95
7.171500 22.98 34.85
7.185000 23.23 35.34
7.198500 24 36.11
7.212000 24.56 36.53
7.225500 24.94 37.2
7.239000 25.57 37.44
7.252500 25.93 37.66
7.266000 26.95 38.09
7.279500 27.58 37.94
7.293000 28.51 37.9
7.306500 29.32 37.95
7.320000 30.05 37.75
7.333500 31.01 37.33
7.347000 32.02 36.71
7.360500 32.54 36.17
7.374000 33.5 35.21
7.387500 34.42 34.4
7.401000 35.03 33
7.414500 35.95 31.76
7.428000 36.62 30.51
7.441500 36.97 28.75
7.455000 37.62 27.31
7.468500 37.54 25.62
7.482000 37.54 24.04
7.495500 37.63 22.41
7.509000 38.63 22.37
7.522500 40.14 23.27
7.536000 41.54 24.09
7.549500 43.51 25.34
7.563000 45.3 26.45
7.576500 46.99 27.15
7.590000 48.95 28.2
7.603500 50.63 29.43
7.617000 52.37 30.57
7.630500 54.31 30.71
7.644000 56.2 31.03
7.657500 58.62 31.53
7.671000 59.94 32.18
7.684500 62.28 33.11
7.698000 63.8 32.6
7.711500 65.39 32.8
7.725000 66.6 31.67
7.738500 68.33 31.14
7.752000 69.26 30.93
7.765500 70.62 28.77
7.779000 71.22 27.96
7.792500 72.6 26.03
7.806000 72.93 24.08
7.819500 72.45 22.16
7.833000 71.8 20.31
7.846500 71.73 18
7.860000 70.39 15.24
7.873500 69.14 13.18
7.887000 68.58 10.89
7.900500 66.48 8.504
7.914000 64.31 7.168
7.927500 62.75 5.038
7.941000 60.83 3.321
7.954500 58.71 1.803
7.968000 56.16 0.9984
7.981500 54.13 -0.3776
7.995000 52 -1.387
8.008500 52.32 -2.26
8.022000 54.36 -3.903
8.035500 56.95 -5.159
8.049000 58.57 -7.106
8.062500 60.56 -8.539
8.076000 62.57 -10.25
8.089500 65.89 -12.23
8.103000 66.06 -14.44
8.116500 67.6 -16.04
8.130000 68.35 -18.39
8.143500 69.2 -20.66
8.157000 69.22 -22.59
8.170500 70.18 -24.52
8.184000 70.89 -26.85
8.197500 69.84 -27.33
8.211000 69.42 -29.24
8.224500 69.61 -31.24
8.238000 68.07 -31.44
8.251500 66.95 -32.41
8.265000 66.19 -32.99
8.278500 64.64 -33.16
8.292000 63.03 -32.99
8.305500 61.62 -32.86
8.319000 59.56 -33.05
8.332500 58.75 -32.85
8.346000 56.64 -31.35
8.359500 54.49 -31.15
8.373000 52.41 -29.97
8.386500 50.67 -28.66
8.400000 49.01 -27.89
8.413500 47.55 -27.04
8.427000 45.84 -25.76
8.440500 43.67 -24.87
8.454000 42.11 -23.91
8.467500 40.57 -22.74
8.481000 39 -21.83
8.494500 37.69 -20.96
8.508000 37.36 -21.36
8.521500 37.54 -22.92
8.535000 37.7 -24.18
8.548500 37.82 -25.56
8.562000 37.93 -27.15
8.575500 37.91 -28.29
8.589000 37.63 -29.5
8.602500 37.44 -30.71
8.616000 37.42 -31.9
8.629500 36.97 -33.25
8.643000 36.38 -33.91
8.656500 36.39 -34.77
8.670000 35.67 -35.33
8.683500 35.82 -35.92
8.697000 35.21 -36.1
8.710500 34.94 -36.62
8.724000 34.64 -36.63
8.737500 34.35 -36.69
8.751000 34.17 -36.72
8.764500 33.42 -36.28
8.778000 33.08 -36.16
8.791500 32.97 -35.69
8.805000 32.7 -35.15
8.818500 32.54 -34.81
8.832000 32.18 -34.02
8.845500 31.68 -33.27
8.859000 31.36 -32.77
8.872500 31.14 -31.84
8.886000 30.78 -30.79
8.899500 30.42 -30.13
8.913000 29.98 -29.31
8.926500 29.15 -28.24
8.940000 28.91 -27.44
8.953500 28.44 -26.51
8.967000 27.74 -25.73
8.980500 27.28 -24.63
8.994000 26.65 -23.85
9.007500 26.27 -24.03
9.021000 25.97 -25.44
9.034500 25.86 -26.53
9.048000 25.59 -27.7
9.061500 25.27 -28.79
9.075000 24.75 -29.79
9.088500 24.22 -31
9.102000 23.83 -31.96
9.115500 23.34 -32.97
9.129000 22.59 -33.62
9.142500 22.24 -34.53
9.156000 21.46 -34.94
9.169500 20.85 -35.57
9.183000 20.35 -36.07
9.196500 19.52 -36.17
9.210000 18.99 -36.27
9.223500 18.35 -36.53
9.237000 17.86 -36.59
9.250500 17.28 -36.4
9.264000 17.05 -36.27
9.277500 16.53 -36.1
9.291000 16.37 -35.68
9.304500 15.96 -35.22
9.318000 15.77 -34.73
9.331500 15.24 -34.17
9.345000 15.06 -33.66
9.358500 15.08 -33.01
9.372000 14.95 -32.3
9.385500 14.87 -31.55
9.399000 14.77 -30.81
9.412500 14.79 -30.1
9.426000 14.66 -29.32
9.439500 14.59 -28.36
9.453000 14.44 -27.56
9.466500 14.41 -26.76
9.480000 14.3 -25.87
9.493500 14.34 -25.07
9.507000 13.85 -24.92
9.520500 13.19 -25.37
9.534000 12.55 -25.8
9.547500 11.97 -26.16
9.561000 11.28 -26.44
9.574500 10.7 -26.69
9.588000 10.11 -26.76
9.601500 9.489 -26.99
9.615000 9.084 -27
9.628500 8.548 -27.04
9.642000 8.152 -26.98
9.655500 7.862 -26.79
9.669000 7.75 -26.65
9.682500 7.535 -26.37
9.696000 7.47 -26.29
9.709500 7.297 -26.01
9.723000 7.15 -25.81
9.736500 7.051 -25.64
9.750000 6.943 -25.47
9.763500 6.849 -25.29
9.777000 6.716 -25.04
9.790500 6.612 -24.84
9.804000 6.458 -24.54
9.817500 6.375 -24.36
9.831000 6.265 -24.1
9.844500 6.204 -23.82
9.858000 6.371 -23.46
9.871500 6.498 -23.07
9.885000 6.688 -22.77
9.898500 6.746 -22.3
9.912000 6.854 -21.87
9.925500 6.95 -21.45
9.939000 7.078 -21.05
9.952500 7.246 -20.55
9.966000 7.363 -20.09
9.979500 7.421 -19.62
9.993000 7.526 -19.16
10.006500 7.378 -18.95
10.020000 7.027 -19.11
10.033500 6.689 -19.18
10.047000 6.284 -19.27
10.060500 5.969 -19.3
10.074000 5.616 -19.32
10.087500 5.368 -19.37
10.101000 5.094 -19.36
10.114500 4.847 -19.32
10.128000 4.644 -19.29
10.141500 4.414 -19.26
10.155000 4.225 -19.17
10.168500 4.086 -19.08
10.182000 3.944 -19.01
10.195500 3.82 -18.93
10.209000 3.736 -18.84
10.222500 3.668 -18.68
10.236000 3.643 -18.61
10.249500 3.579 -18.46
10.263000 3.571 -18.36
10.276500 3.552 -18.21
10.290000 3.605 -18.05
10.303500 3.616 -17.9
10.317000 3.679 -17.72
10.330500 3.734 -17.54
10.344000 3.804 -17.35
10.357500 3.884 -17.18
10.371000 3.962 -16.96
10.384500 4.025 -16.75
10.398000 4.108 -16.53
10.411500 4.226 -16.27
10.425000 4.295 -16.03
10.438500 4.418 -15.79
10.452000 4.525 -15.54
10.465500 4.621 -15.27
10.479000 4.727 -14.99
10.492500 4.836 -14.71
10.506000 4.763 -14.58
10.519500 4.528 -14.61
10.533000 4.294 -14.64
10.546500 4.073 -14.63
10.560000 3.87 -14.63
10.573500 3.688 -14.62
10.587000 3.511 -14.6
10.600500 3.349 -14.55
10.614000 3.213 -14.52
10.627500 3.08 -14.49
10.641000 2.964 -14.43
10.654500 2.856 -14.37
10.668000 2.781 -14.31
10.681500 2.69 -14.25
10.695000 2.633 -14.17
10.708500 2.574 -14.1
10.722000 2.532 -14.03
10.735500 2.513 -13.95
10.749000 2.499 -13.86
10.762500 2.48 -13.77
10.776000 2.494 -13.67
10.789500 2.512 -13.57
10.803000 2.524 -13.47
10.816500 2.562 -13.36
10.830000 2.6 -13.25
10.843500 2.646 -13.11
10.857000 2.704 -13
10.870500 2.759 -12.85
10.884000 2.823 -12.73
10.897500 2.895 -12.58
10.911000 2.97 -12.42
10.924500 3.03 -12.26
10.938000 3.104 -12.1
10.951500 3.186 -11.94
10.965000 3.256 -11.77
10.978500 3.313 -11.6
10.992000 3.405 -11.42
11.005500 3.382 -11.31
11.019000 3.229 -11.3
11.032500 3.092 -11.29
11.046000 2.958 -11.27
11.059500 2.832 -11.25
11.073000 2.722 -11.2
11.086500 2.615 -11.17
11.100000 2.52 -11.13
11.113500 2.437 -11.1
11.127000 2.352 -11.04
11.140500 2.285 -10.99
11.154000 2.226 -10.95
11.167500 2.177 -10.89
11.181000 2.129 -10.84
11.194500 2.09 -10.78
11.208000 2.065 -10.72
11.221500 2.044 -10.66
11.235000 2.028 -10.59
11.248500 2.022 -10.53
11.262000 2.024 -10.46
11.275500 2.021 -10.39
11.289000 2.028 -10.32
11.302500 2.043 -10.24
11.316000 2.07 -10.16
11.329500 2.098 -10.08
11.343000 2.128 -9.996
11.356500 2.158 -9.906
11.370000 2.199 -9.815
11.383500 2.236 -9.723
11.397000 2.275 -9.627
11.410500 2.317 -9.526
11.424000 2.37 -9.416
11.437500 2.418 -9.315
11.451000 2.469 -9.198
11.464500 2.516 -9.085
11.478000 2.566 -8.965
11.491500 2.617 -8.843
11.505000 2.615 -8.757
11.518500 2.518 -8.733
11.532000 2.434 -8.705
11.545500 2.356 -8.667
11.559000 2.277 -8.638
11.572500 2.21 -8.599
11.586000 2.148 -8.565
11.599500 2.094 -8.525
11.613000 2.04 -8.478
11.626500 1.995 -8.444
11.640000 1.959 -8.394
11.653500 1.924 -8.353
11.667000 1.894 -8.304
11.680500 1.871 -8.255
11.694000 1.851 -8.208
11.707500 1.837 -8.155
11.721000 1.831 -8.103
11.734500 1.826 -8.045
11.748000 1.824 -7.991
11.761500 1.829 -7.934
11.775000 1.831 -7.877
11.788500 1.843 -7.816
11.802000 1.854 -7.754
11.815500 1.876 -7.692
11.829000 1.893 -7.626
11.842500 1.921 -7.569
11.856000 1.938 -7.495
11.869500 1.963 -7.426
11.883000 1.992 -7.35
11.896500 2.021 -7.28
11.910000 2.052 -7.203
11.923500 2.08 -7.128
11.937000 2.118 -7.047
11.950500 2.15 -6.963
11.964000 2.184 -6.88
11.977500 2.212 -6.794
11.991000 2.246 -6.706
12.004500 2.255 -6.639
12.018000 2.202 -6.605
12.031500 2.157 -6.571
12.045000 2.115 -6.537
12.058500 2.081 -6.503
12.072000 2.045 -6.468
12.085500 2.014 -6.432
12.099000 1.989 -6.391
12.112500 1.964 -6.353
12.126000 1.942 -6.308
12.139500 1.925 -6.265
12.153000 1.916 -6.223
12.166500 1.908 -6.176
12.180000 1.897 -6.13
12.193500 1.89 -6.085
12.207000 1.888 -6.036
12.220500 1.888 -5.993
12.234000 1.888 -5.941
12.247500 1.892 -5.892
12.261000 1.905 -5.837
12.274500 1.913 -5.789
12.288000 1.922 -5.73
12.301500 1.939 -5.675
12.315000 1.954 -5.62
12.328500 1.971 -5.562
12.342000 1.984 -5.501
12.355500 2.004 -5.438
12.369000 2.024 -5.375
12.382500 2.044 -5.313
12.396000 2.067 -5.247
12.409500 2.087 -5.183
12.423000 2.107 -5.114
12.436500 2.13 -5.046
12.450000 2.15 -4.975
12.463500 2.174 -4.904
12.477000 2.197 -4.834
12.490500 2.216 -4.762
12.504000 2.227 -4.702
12.517500 2.206 -4.665
12.531000 2.196 -4.629
12.544500 2.181 -4.592
12.558000 2.173 -4.559
12.571500 2.166 -4.522
12.585000 2.161 -4.485
12.598500 2.156 -4.441
12.612000 2.155 -4.403
12.625500 2.156 -4.362
12.639000 2.157 -4.322
12.652500 2.16 -4.278
12.666000 2.165 -4.234
12.679500 2.173 -4.189
12.693000 2.181 -4.146
12.706500 2.192 -4.108
12.720000 2.207 -4.057
12.733500 2.22 -4.008
12.747000 2.236 -3.961
12.760500 2.256 -3.912
12.774000 2.274 -3.867
12.787500 2.29 -3.819
12.801000 2.314 -3.772
12.814500 2.335 -3.723
12.828000 2.357 -3.673
12.841500 2.38 -3.624
12.855000 2.402 -3.575
12.868500 2.427 -3.525
12.882000 2.451 -3.476
12.895500 2.475 -3.427
12.909000 2.498 -3.377
12.922500 2.523 -3.326
12.936000 2.549 -3.277
12.949500 2.574 -3.227
12.963000 2.596 -3.174
12.976500 2.62 -3.125
12.990000 2.642 -3.073
13.003500 2.661 -3.03
13.017000 2.674 -3.01
13.030500 2.69 -2.993
13.044000 2.707 -2.973
13.057500 2.722 -2.957
13.071000 2.738 -2.945
13.084500 2.754 -2.932
13.098000 2.773 -2.917
13.111500 2.787 -2.906
13.125000 2.803 -2.894
13.138500 2.819 -2.886
13.152000 2.831 -2.876
13.165500 2.841 -2.868
13.179000 2.851 -2.859
13.192500 2.864 -2.852
13.206000 2.867 -2.846
13.219500 2.873 -2.836
13.233000 2.877 -2.825
13.246500 2.875 -2.817
13.260000 2.874 -2.809
13.273500 2.87 -2.798
13.287000 2.862 -2.784
13.300500 2.853 -2.772
13.314000 2.842 -2.758
13.327500 2.826 -2.74
13.341000 2.808 -2.721
13.354500 2.786 -2.7
13.368000 2.765 -2.678
13.381500 2.741 -2.65
13.395000 2.714 -2.62
13.408500 2.684 -2.587
13.422000 2.655 -2.552
13.435500 2.621 -2.512
13.449000 2.589 -2.469
13.462500 2.554 -2.424
13.476000 2.521 -2.374
13.489500 2.486 -2.324
13.503000 2.452 -2.274
13.516500 2.416 -2.237
13.530000 2.382 -2.197
13.543500 2.348 -2.152
13.557000 2.315 -2.106
13.570500 2.285 -2.054
13.584000 2.257 -2.002
13.597500 2.229 -1.945
13.611000 2.204 -1.885
13.624500 2.18 -1.825
13.638000 2.161 -1.76
13.651500 2.14 -1.695
13.665000 2.123 -1.627
13.678500 2.107 -1.559
13.692000 2.092 -1.49
13.705500 2.08 -1.418
13.719000 2.067 -1.346
13.732500 2.057 -1.273
13.746000 2.049 -1.199
13.759500 2.042 -1.125
13.773000 2.036 -1.051
13.786500 2.03 -0.9742
13.800000 2.026 -0.8982
13.813500 2.023 -0.8222
13.827000 2.021 -0.745
13.840500 2.02 -0.668
13.854000 2.018 -0.591
13.867500 2.019 -0.5148
13.881000 2.02 -0.4374
13.894500 2.022 -0.3602
13.908000 2.024 -0.2834
13.921500 2.028 -0.2074
13.935000 2.03 -0.1316
13.948500 2.034 -0.0552
13.962000 2.038 0.0198
13.975500 2.044 0.0952
13.989000 2.049 0.169
14.002500 2.056 0.2438
14.016000 2.068 0.319
14.029500 2.082 0.3956
14.043000 2.094 0.473
14.056500 2.108 0.55
14.070000 2.122 0.6286
14.083500 2.136 0.7068
14.097000 2.151 0.7856
14.110500 2.166 0.8652
14.124000 2.182 0.9438
14.137500 2.197 1.024
14.151000 2.213 1.104
14.164500 2.231 1.185
14.178000 2.246 1.266
14.191500 2.263 1.347
14.205000 2.279 1.427
14.218500 2.296 1.508
14.232000 2.314 1.587
14.245500 2.331 1.668
14.259000 2.35 1.748
14.272500 2.368 1.829
14.286000 2.387 1.909
14.299500 2.404 1.989
14.313000 2.424 2.067
14.326500 2.443 2.143
14.340000 2.464 2.223
14.353500 2.485 2.3
14.367000 2.506 2.378
14.380500 2.528 2.453
14.394000 2.549 2.525
14.407500 2.576 2.6
14.421000 2.6 2.672
14.434500 2.626 2.743
14.448000 2.652 2.814
14.461500 2.682 2.883
14.475000 2.709 2.95
14.488500 2.743 3.018
14.502000 2.776 3.087
14.515500 2.807 3.181
14.529000 2.835 3.279
14.542500 2.865 3.375
14.556000 2.898 3.475
14.569500 2.928 3.574
14.583000 2.962 3.673
14.596500 2.99 3.774
14.610000 3.024 3.873
14.623500 3.052 3.971
14.637000 3.085 4.073
14.650500 3.119 4.173
14.664000 3.154 4.273
14.677500 3.183 4.373
14.691000 3.222 4.471
14.704500 3.253 4.567
14.718000 3.286 4.663
14.731500 3.328 4.762
14.745000 3.358 4.855
14.758500 3.404 4.947
14.772000 3.442 5.042
14.785500 3.481 5.132
14.799000 3.531 5.226
14.812500 3.571 5.309
14.826000 3.619 5.396
14.839500 3.666 5.476
14.853000 3.712 5.553
14.866500 3.76 5.637
14.880000 3.816 5.715
14.893500 3.88 5.787
14.907000 3.934 5.861
14.920500 4 5.925
14.934000 4.069 5.996
14.947500 4.136 6.053
14.961000 4.201 6.105
14.974500 4.283 6.158
14.988000 4.367 6.211
15.001500 4.44 6.258
15.015000 4.487 6.39
15.028500 4.542 6.554
15.042000 4.588 6.693
15.055500 4.638 6.831
15.069000 4.696 6.981
15.082500 4.744 7.127
15.096000 4.784 7.267
15.109500 4.841 7.41
15.123000 4.901 7.552
15.136500 4.951 7.685
15.150000 5.01 7.826
15.163500 5.064 7.958
15.177000 5.122 8.106
15.190500 5.185 8.233
15.204000 5.265 8.35
15.217500 5.319 8.463
15.231000 5.389 8.587
15.244500 5.482 8.7
15.258000 5.564 8.82
