! Touchstone file generated by AntScope2
# MHz Z RI R 50
! Format: Frequency Z-real Z-imaginary (normalized to 50 Ohm)
7.000000 1.753 -6.703
7.011500 1.677 -6.589
7.023000 1.611 -6.477
7.034500 1.556 -6.362
7.046000 1.502 -6.247
7.057500 1.458 -6.137
7.069000 1.41 -6.029
7.080500 1.368 -5.926
7.092000 1.331 -5.816
7.103500 1.3 -5.714
7.115000 1.26 -5.61
7.126500 1.23 -5.507
7.138000 1.203 -5.41
7.149500 1.18 -5.309
7.161000 1.155 -5.212
7.172500 1.135 -5.117
7.184000 1.114 -5.021
7.195500 1.094 -4.931
7.207000 1.076 -4.837
7.218500 1.062 -4.746
7.230000 1.047 -4.66
7.241500 1.031 -4.572
7.253000 1.017 -4.485
7.264500 1.004 -4.401
7.276000 0.9966 -4.316
7.287500 0.9842 -4.235
7.299000 0.9744 -4.151
7.310500 0.9658 -4.072
7.322000 0.9566 -3.99
7.333500 0.9504 -3.911
7.345000 0.941 -3.835
7.356500 0.9332 -3.757
7.368000 0.9274 -3.68
7.379500 0.9198 -3.604
7.391000 0.9148 -3.527
7.402500 0.9092 -3.454
7.414000 0.9052 -3.38
7.425500 0.901 -3.307
7.437000 0.8954 -3.233
7.448500 0.8946 -3.161
7.460000 0.8906 -3.088
7.471500 0.8874 -3.018
7.483000 0.8836 -2.947
7.494500 0.8818 -2.875
7.506000 0.8792 -2.807
7.517500 0.8788 -2.738
7.529000 0.8768 -2.668
7.540500 0.8746 -2.6
7.552000 0.8744 -2.531
7.563500 0.8726 -2.462
7.575000 0.8726 -2.395
7.586500 0.8714 -2.327
7.598000 0.8698 -2.26
7.609500 0.8702 -2.192
7.621000 0.8702 -2.125
7.632500 0.87 -2.059
7.644000 0.8704 -1.992
7.655500 0.871 -1.925
7.667000 0.871 -1.859
7.678500 0.8724 -1.792
7.690000 0.8728 -1.725
7.701500 0.8738 -1.659
7.713000 0.8746 -1.593
7.724500 0.876 -1.527
7.736000 0.8776 -1.461
7.747500 0.879 -1.394
7.759000 0.8808 -1.328
7.770500 0.8826 -1.262
7.782000 0.8844 -1.195
7.793500 0.8864 -1.129
7.805000 0.8878 -1.062
7.816500 0.8902 -0.9954
7.828000 0.8924 -0.929
7.839500 0.8946 -0.8622
7.851000 0.8968 -0.795
7.862500 0.8992 -0.7282
7.874000 0.9016 -0.6612
7.885500 0.904 -0.594
7.897000 0.9012 -0.5318
7.908500 0.9096 -0.4586
7.920000 0.9122 -0.391
7.931500 0.9156 -0.323
7.943000 0.9182 -0.2546
7.954500 0.9212 -0.1864
7.966000 0.9244 -0.1178
7.977500 0.9274 -0.0492
7.989000 0.9308 0.0194
8.000500 0.934 0.0902
8.012000 0.9378 0.1586
8.023500 0.9414 0.2278
8.035000 0.9452 0.2976
8.046500 0.9492 0.368
8.058000 0.9532 0.438
8.069500 0.9576 0.509
8.081000 0.9622 0.5808
8.092500 0.9668 0.6514
8.104000 0.972 0.724
8.115500 0.9768 0.7964
8.127000 0.9826 0.8696
8.138500 0.9878 0.9428
8.150000 0.994 1.017
8.161500 0.9994 1.092
8.173000 1.006 1.166
8.184500 1.012 1.242
8.196000 1.019 1.317
8.207500 1.025 1.395
8.219000 1.032 1.472
8.230500 1.04 1.55
8.242000 1.048 1.629
8.253500 1.055 1.708
8.265000 1.063 1.788
8.276500 1.071 1.87
8.288000 1.08 1.952
8.299500 1.089 2.035
8.311000 1.098 2.119
8.322500 1.108 2.203
8.334000 1.117 2.288
8.345500 1.128 2.374
8.357000 1.138 2.462
8.368500 1.149 2.551
8.380000 1.16 2.641
8.391500 1.171 2.731
8.403000 1.182 2.822
8.414500 1.194 2.916
8.426000 1.208 3.011
8.437500 1.22 3.106
8.449000 1.234 3.204
8.460500 1.248 3.303
8.472000 1.264 3.4
8.483500 1.278 3.502
8.495000 1.293 3.606
8.506500 1.308 3.711
8.518000 1.323 3.815
8.529500 1.343 3.924
8.541000 1.361 4.033
8.552500 1.377 4.144
8.564000 1.395 4.26
8.575500 1.414 4.375
8.587000 1.434 4.492
8.598500 1.455 4.612
8.610000 1.476 4.734
8.621500 1.498 4.857
8.633000 1.523 4.982
8.644500 1.546 5.11
8.656000 1.567 5.242
8.667500 1.599 5.374
8.679000 1.626 5.514
8.690500 1.651 5.651
8.702000 1.679 5.792
8.713500 1.71 5.937
8.725000 1.75 6.086
8.736500 1.775 6.236
8.748000 1.813 6.396
8.759500 1.852 6.553
8.771000 1.889 6.715
8.782500 1.922 6.884
8.794000 1.969 7.052
8.805500 2.009 7.229
8.817000 2.055 7.413
8.828500 2.109 7.6
8.840000 2.153 7.783
8.851500 2.206 7.992
8.863000 2.268 8.184
8.874500 2.332 8.397
8.886000 2.383 8.611
8.897500 2.456 8.836
8.909000 2.527 9.056
8.920500 2.605 9.286
8.932000 2.677 9.527
8.943500 2.761 9.766
8.955000 2.849 10.03
8.966500 2.946 10.29
8.978000 3.054 10.57
8.989500 3.162 10.86
9.001000 3.259 11.13
9.012500 3.403 11.44
9.024000 3.529 11.75
9.035500 3.669 12.08
9.047000 3.828 12.42
9.058500 3.965 12.78
9.070000 4.129 13.15
9.081500 4.35 13.51
9.093000 4.543 13.91
9.104500 4.777 14.33
9.116000 4.987 14.72
9.127500 5.254 15.2
9.139000 5.528 15.66
9.150500 5.845 16.12
9.162000 6.192 16.61
9.173500 6.578 17.12
9.185000 6.987 17.67
9.196500 7.434 18.21
9.208000 7.903 18.81
9.219500 8.426 19.42
9.231000 9.043 19.99
9.242500 9.793 20.67
9.254000 10.45 21.28
9.265500 11.32 21.98
9.277000 12.18 22.67
9.288500 13.24 23.3
9.300000 14.37 23.96
9.311500 15.67 24.55
9.323000 17.07 25.19
9.334500 18.57 25.61
9.346000 20.27 26.12
9.357500 22.13 26.59
9.369000 24.18 26.6
9.380500 26.36 26.46
9.392000 28.67 26.17
9.403500 31.27 25.69
9.415000 34.01 24.74
9.426500 36.41 23.58
9.438000 38.77 21.53
9.449500 40.63 19.3
9.461000 42.95 16.94
9.472500 44.49 13.97
9.484000 45.64 10.81
9.495500 45.98 7.811
9.507000 46.22 4.634
9.518500 45.72 1.578
9.530000 44.83 -1.407
9.541500 43.6 -3.883
9.553000 42.29 -6.179
9.564500 40.3 -8.112
9.576000 38.85 -9.366
9.587500 37.4 -10.7
9.599000 35.76 -11.77
9.610500 34.11 -12.3
9.622000 32.59 -13
9.633500 31.29 -13.37
9.645000 30 -13.46
9.656500 28.8 -13.69
9.668000 27.79 -13.72
9.679500 26.8 -13.64
9.691000 25.97 -13.46
9.702500 25.16 -13.37
9.714000 24.55 -13.16
9.725500 23.93 -13.18
9.737000 23.41 -12.92
9.748500 22.92 -12.74
9.760000 22.54 -12.57
9.771500 22.26 -12.43
9.783000 21.94 -12.3
9.794500 21.76 -12.13
9.806000 21.59 -12.07
9.817500 21.4 -12
9.829000 21.32 -11.95
9.840500 21.26 -11.95
9.852000 21.08 -11.96
9.863500 21.17 -11.99
9.875000 21.18 -12.11
9.886500 21.11 -11.99
9.898000 21.23 -12.34
9.909500 21.2 -12.64
9.921000 21.25 -12.89
9.932500 21.25 -13.16
9.944000 21.28 -13.54
9.955500 21.38 -13.95
9.967000 21.16 -14.44
9.978500 21.07 -14.9
9.990000 20.93 -15.42
10.001500 20.73 -16.07
10.013000 20.38 -16.51
10.024500 20.07 -17.12
10.036000 19.62 -17.67
10.047500 19.18 -18.16
10.059000 18.58 -18.67
10.070500 18.02 -19.12
10.082000 17.33 -19.59
10.093500 16.66 -19.9
10.105000 15.99 -20.14
10.116500 15.26 -20.41
10.128000 14.52 -20.53
10.139500 13.76 -20.62
10.151000 13.02 -20.65
10.162500 12.35 -20.69
10.174000 11.69 -20.6
10.185500 10.96 -20.46
10.197000 10.29 -20.41
10.208500 9.676 -20.16
10.220000 9.106 -19.97
10.231500 8.606 -19.72
10.243000 8.116 -19.5
10.254500 7.583 -19.24
10.266000 7.082 -18.88
10.277500 6.752 -18.65
10.289000 6.384 -18.42
10.300500 5.994 -18.1
10.312000 5.659 -17.8
10.323500 5.308 -17.58
10.335000 5.015 -17.24
10.346500 4.79 -16.95
10.358000 4.495 -16.65
10.369500 4.279 -16.37
10.381000 4.059 -16.1
10.392500 3.833 -15.81
10.404000 3.623 -15.53
10.415500 3.461 -15.29
10.427000 3.295 -15
10.438500 3.121 -14.78
10.450000 2.963 -14.51
10.461500 2.849 -14.27
10.473000 2.712 -14.03
10.484500 2.592 -13.8
10.496000 2.479 -13.56
10.507500 2.378 -13.34
10.519000 2.264 -13.13
10.530500 2.162 -12.91
10.542000 2.107 -12.71
10.553500 2.01 -12.52
10.565000 1.933 -12.31
10.576500 1.84 -12.12
10.588000 1.785 -11.92
10.599500 1.714 -11.74
10.611000 1.652 -11.55
10.622500 1.605 -11.38
10.634000 1.539 -11.2
10.645500 1.484 -11.04
10.657000 1.448 -10.88
10.668500 1.41 -10.72
10.680000 1.363 -10.57
10.691500 1.311 -10.42
10.703000 1.266 -10.27
10.714500 1.23 -10.11
10.726000 1.199 -9.959
10.737500 1.169 -9.821
10.749000 1.139 -9.687
10.760500 1.107 -9.559
10.772000 1.076 -9.428
10.783500 1.062 -9.299
10.795000 1.027 -9.154
10.806500 0.994 -9.041
10.818000 0.9748 -8.907
10.829500 0.9594 -8.787
10.841000 0.9444 -8.672
10.852500 0.9136 -8.553
10.864000 0.893 -8.435
10.875500 0.8728 -8.319
10.887000 0.859 -8.214
10.898500 0.8388 -8.103
10.910000 0.8284 -7.994
10.921500 0.8118 -7.89
10.933000 0.7944 -7.785
10.944500 0.7842 -7.679
10.956000 0.7768 -7.571
10.967500 0.759 -7.477
10.979000 0.7448 -7.378
10.990500 0.7372 -7.281
11.002000 0.726 -7.184
11.013500 0.7118 -7.089
11.025000 0.7018 -6.999
11.036500 0.702 -6.904
11.048000 0.6852 -6.807
11.059500 0.677 -6.725
11.071000 0.6748 -6.631
11.082500 0.665 -6.545
11.094000 0.6558 -6.466
11.105500 0.6466 -6.372
11.117000 0.6408 -6.291
11.128500 0.6386 -6.205
11.140000 0.63 -6.124
11.151500 0.6268 -6.043
11.163000 0.6206 -5.962
11.174500 0.6146 -5.878
11.186000 0.611 -5.801
11.197500 0.6058 -5.723
11.209000 0.6002 -5.642
11.220500 0.6012 -5.568
11.232000 0.5938 -5.491
11.243500 0.5956 -5.417
11.255000 0.5898 -5.339
11.266500 0.5854 -5.265
11.278000 0.5852 -5.192
11.289500 0.5812 -5.119
11.301000 0.5768 -5.044
11.312500 0.577 -4.974
11.324000 0.576 -4.902
11.335500 0.5736 -4.832
11.347000 0.5726 -4.761
11.358500 0.569 -4.69
11.370000 0.5704 -4.62
11.381500 0.5652 -4.552
11.393000 0.5674 -4.481
11.404500 0.567 -4.41
11.416000 0.5654 -4.342
11.427500 0.566 -4.275
11.439000 0.5658 -4.206
11.450500 0.567 -4.138
11.462000 0.5656 -4.074
11.473500 0.565 -4.006
11.485000 0.5654 -3.939
11.496500 0.5666 -3.873
11.508000 0.568 -3.809
11.519500 0.5686 -3.743
11.531000 0.5684 -3.676
11.542500 0.5692 -3.611
11.554000 0.5706 -3.546
11.565500 0.5728 -3.482
11.577000 0.5726 -3.417
11.588500 0.5742 -3.351
11.600000 0.5774 -3.288
11.611500 0.5786 -3.221
11.623000 0.579 -3.159
11.634500 0.5818 -3.094
11.646000 0.5844 -3.03
11.657500 0.5854 -2.966
11.669000 0.5886 -2.901
11.680500 0.5902 -2.837
11.692000 0.593 -2.774
11.703500 0.5946 -2.711
11.715000 0.5994 -2.646
11.726500 0.602 -2.581
11.738000 0.6046 -2.517
11.749500 0.6072 -2.452
11.761000 0.6102 -2.387
11.772500 0.6144 -2.323
11.784000 0.6182 -2.258
11.795500 0.6218 -2.194
11.807000 0.6262 -2.128
11.818500 0.63 -2.063
11.830000 0.6342 -1.998
11.841500 0.639 -1.932
11.853000 0.6436 -1.866
11.864500 0.649 -1.799
11.876000 0.6524 -1.733
11.887500 0.658 -1.666
11.899000 0.663 -1.6
11.910500 0.6678 -1.532
11.922000 0.674 -1.464
11.933500 0.6798 -1.395
11.945000 0.6878 -1.327
11.956500 0.692 -1.257
11.968000 0.6984 -1.187
11.979500 0.705 -1.117
11.991000 0.7118 -1.047
12.002500 0.7188 -0.975
12.014000 0.7262 -0.903
12.025500 0.7338 -0.8306
12.037000 0.7416 -0.7574
12.048500 0.7494 -0.6838
12.060000 0.758 -0.6092
12.071500 0.7662 -0.5342
12.083000 0.775 -0.4582
12.094500 0.7842 -0.3812
12.106000 0.7938 -0.3036
12.117500 0.8034 -0.2256
12.129000 0.8134 -0.1466
12.140500 0.8244 -0.0668
12.152000 0.8352 0.0138
12.163500 0.8462 0.0954
12.175000 0.8584 0.1782
12.186500 0.871 0.2614
12.198000 0.884 0.3456
12.209500 0.898 0.431
12.221000 0.9126 0.5172
12.232500 0.9284 0.6048
12.244000 0.9448 0.6942
12.255500 0.9618 0.7844
12.267000 0.98 0.8756
12.278500 0.9992 0.9688
12.290000 1.019 1.063
12.301500 1.041 1.159
12.313000 1.063 1.257
12.324500 1.088 1.357
12.336000 1.114 1.457
12.347500 1.141 1.56
12.359000 1.169 1.665
12.370500 1.2 1.772
12.382000 1.232 1.881
12.393500 1.266 1.993
12.405000 1.302 2.107
12.416500 1.343 2.222
12.428000 1.384 2.338
12.439500 1.427 2.458
12.451000 1.475 2.582
12.462500 1.525 2.707
12.474000 1.579 2.835
12.485500 1.634 2.965
12.497000 1.696 3.098
12.508500 1.761 3.236
12.520000 1.831 3.371
12.531500 1.904 3.513
12.543000 1.985 3.655
12.554500 2.072 3.801
12.566000 2.164 3.952
12.577500 2.263 4.102
12.589000 2.369 4.256
12.600500 2.481 4.411
12.612000 2.606 4.565
12.623500 2.736 4.722
12.635000 2.881 4.878
12.646500 3.029 5.037
12.658000 3.195 5.192
12.669500 3.366 5.342
12.681000 3.554 5.494
12.692500 3.756 5.639
12.704000 4.005 5.807
12.715500 4.175 5.934
12.727000 4.438 6.044
12.738500 4.691 6.162
12.750000 4.958 6.264
12.761500 5.234 6.351
12.773000 5.512 6.425
12.784500 5.809 6.478
12.796000 6.105 6.509
12.807500 6.411 6.522
12.819000 6.731 6.496
12.830500 7.02 6.468
12.842000 7.312 6.408
12.853500 7.601 6.321
12.865000 7.878 6.229
12.876500 8.129 6.125
12.888000 8.358 5.972
12.899500 8.573 5.829
12.911000 8.78 5.693
12.922500 8.952 5.542
12.934000 9.125 5.382
12.945500 9.244 5.248
12.957000 9.369 5.108
12.968500 9.48 4.989
12.980000 9.563 4.877
12.991500 9.646 4.781
13.003000 9.736 4.689
13.014500 9.792 4.606
13.026000 9.88 4.56
13.037500 9.937 4.515
13.049000 10.04 4.482
13.060500 10.13 4.475
13.072000 10.21 4.465
13.083500 10.32 4.461
13.095000 10.43 4.466
13.106500 10.55 4.485
13.118000 10.71 4.528
13.129500 10.87 4.531
13.141000 11.04 4.587
13.152500 11.23 4.614
13.164000 11.44 4.654
13.175500 11.68 4.681
13.187000 11.92 4.704
13.198500 12.23 4.643
13.210000 12.52 4.769
13.221500 12.83 4.701
13.233000 13.19 4.692
13.244500 13.59 4.636
13.256000 13.96 4.595
13.267500 14.4 4.488
13.279000 14.85 4.37
13.290500 15.37 4.183
13.302000 15.83 4.015
13.313500 16.32 3.744
13.325000 16.88 3.41
13.336500 17.39 3.093
13.348000 17.88 2.632
13.359500 18.39 2.154
13.371000 18.89 1.537
13.382500 19.37 0.9064
13.394000 19.74 0.1998
13.405500 20.06 -0.6184
13.417000 20.35 -1.473
13.428500 20.53 -2.33
13.440000 20.61 -3.277
13.451500 20.58 -4.25
13.463000 20.48 -5.214
13.474500 20.24 -6.151
13.486000 19.9 -7.108
13.497500 19.48 -7.957
13.509000 18.94 -8.775
13.520500 18.36 -9.487
13.532000 17.71 -10.13
13.543500 16.97 -10.73
13.555000 16.31 -11.18
13.566500 15.59 -11.54
13.578000 14.83 -11.9
13.589500 14.11 -12.12
13.601000 13.4 -12.28
13.612500 12.7 -12.37
13.624000 12.06 -12.46
13.635500 11.41 -12.43
13.647000 10.81 -12.39
13.658500 10.21 -12.35
13.670000 9.688 -12.23
13.681500 9.152 -12.09
13.693000 8.685 -11.96
13.704500 8.213 -11.81
13.716000 7.816 -11.62
13.727500 7.425 -11.44
13.739000 7.077 -11.23
13.750500 6.711 -11.03
13.762000 6.412 -10.82
13.773500 6.114 -10.62
13.785000 5.842 -10.41
13.796500 5.594 -10.21
13.808000 5.368 -10.01
13.819500 5.147 -9.808
13.831000 4.942 -9.604
13.842500 4.758 -9.415
13.854000 4.58 -9.22
13.865500 4.415 -9.022
13.877000 4.255 -8.821
13.888500 4.121 -8.643
13.900000 3.988 -8.458
13.911500 3.87 -8.274
13.923000 3.75 -8.1
13.934500 3.633 -7.924
13.946000 3.529 -7.76
13.957500 3.441 -7.583
13.969000 3.34 -7.427
13.980500 3.258 -7.264
13.992000 3.176 -7.107
14.003500 3.101 -6.953
14.015000 3.03 -6.801
14.026500 2.967 -6.646
14.038000 2.901 -6.506
14.049500 2.848 -6.363
14.061000 2.788 -6.216
14.072500 2.739 -6.079
14.084000 2.696 -5.945
14.095500 2.65 -5.813
14.107000 2.608 -5.678
14.118500 2.57 -5.549
14.130000 2.531 -5.415
14.141500 2.496 -5.295
14.153000 2.463 -5.173
14.164500 2.437 -5.046
14.176000 2.408 -4.927
14.187500 2.378 -4.808
14.199000 2.356 -4.687
14.210500 2.334 -4.575
14.222000 2.31 -4.461
14.233500 2.289 -4.346
14.245000 2.273 -4.231
14.256500 2.257 -4.12
14.268000 2.242 -4.012
14.279500 2.228 -3.903
14.291000 2.214 -3.794
14.302500 2.204 -3.688
14.314000 2.195 -3.58
14.325500 2.185 -3.475
14.337000 2.179 -3.369
14.348500 2.17 -3.264
14.360000 2.165 -3.16
14.371500 2.16 -3.056
14.383000 2.157 -2.955
14.394500 2.154 -2.851
14.406000 2.155 -2.747
14.417500 2.153 -2.647
14.429000 2.155 -2.545
14.440500 2.157 -2.444
14.452000 2.16 -2.342
14.463500 2.163 -2.241
14.475000 2.169 -2.142
14.486500 2.175 -2.041
14.498000 2.183 -1.94
14.509500 2.191 -1.839
14.521000 2.2 -1.739
14.532500 2.209 -1.638
14.544000 2.22 -1.536
14.555500 2.231 -1.436
14.567000 2.244 -1.334
14.578500 2.257 -1.233
14.590000 2.273 -1.13
14.601500 2.288 -1.028
14.613000 2.305 -0.9258
14.624500 2.323 -0.8234
14.636000 2.342 -0.7194
14.647500 2.361 -0.6152
14.659000 2.382 -0.5094
14.670500 2.405 -0.4054
14.682000 2.428 -0.2992
14.693500 2.453 -0.1938
14.705000 2.48 -0.0868
14.716500 2.507 0.0212
14.728000 2.536 0.1302
14.739500 2.567 0.2384
14.751000 2.598 0.3488
14.762500 2.633 0.4592
14.774000 2.668 0.571
14.785500 2.706 0.6832
14.797000 2.746 0.7968
14.808500 2.785 0.9116
14.820000 2.829 1.027
14.831500 2.875 1.146
14.843000 2.923 1.265
14.854500 2.972 1.384
14.866000 3.025 1.505
14.877500 3.08 1.629
14.889000 3.138 1.752
14.900500 3.199 1.877
14.912000 3.263 2.004
14.923500 3.328 2.135
14.935000 3.401 2.264
14.946500 3.471 2.398
14.958000 3.548 2.534
14.969500 3.63 2.67
14.981000 3.717 2.807
14.992500 3.805 2.947
15.004000 3.902 3.094
15.015500 3.998 3.235
15.027000 4.104 3.381
15.038500 4.213 3.538
15.050000 4.327 3.684
15.061500 4.45 3.841
15.073000 4.575 3.998
15.084500 4.711 4.158
15.096000 4.859 4.32
15.107500 5.006 4.482
15.119000 5.159 4.654
15.130500 5.33 4.813
15.142000 5.503 4.995
15.153500 5.689 5.16
15.165000 5.894 5.339
15.176500 6.091 5.52
15.188000 6.317 5.691
15.199500 6.55 5.87
15.211000 6.803 6.034
15.222500 7.01 6.204
15.234000 7.343 6.415
15.245500 7.634 6.59
15.257000 7.962 6.77
15.268500 8.302 6.921
15.280000 8.645 7.097
15.291500 9.046 7.287
15.303000 9.44 7.438
15.314500 9.865 7.575
15.326000 10.32 7.737
15.337500 10.8 7.879
15.349000 11.32 7.957
15.360500 11.84 8.065
15.372000 12.42 8.129
15.383500 13.02 8.185
15.395000 13.67 8.184
15.406500 14.36 8.2
15.418000 15.08 8.095
15.429500 15.79 7.985
15.441000 16.57 7.833
15.452500 17.35 7.601
15.464000 18.17 7.231
15.475500 19 6.867
15.487000 19.85 6.42
15.498500 20.72 5.869
15.510000 21.5 5.123
15.521500 22.29 4.392
15.533000 23.03 3.576
15.544500 23.77 2.637
15.556000 24.35 1.593
15.567500 24.92 0.4044
15.579000 25.21 -0.7998
15.590500 25.49 -2.081
15.602000 25.61 -3.477
15.613500 25.64 -4.8
15.625000 25.35 -6.101
15.636500 25.03 -7.379
15.648000 24.67 -8.621
15.659500 24 -9.752
15.671000 23.4 -10.8
15.682500 22.67 -11.79
15.694000 21.8 -12.69
15.705500 20.9 -13.4
15.717000 20.02 -14
15.728500 19.14 -14.51
15.740000 18.19 -15.02
15.751500 17.29 -15.31
15.763000 16.37 -15.6
15.774500 15.49 -15.79
15.786000 14.67 -15.91
15.797500 13.85 -15.86
15.809000 13.13 -15.91
15.820500 12.37 -15.79
15.832000 11.7 -15.71
15.843500 11.1 -15.61
15.855000 10.46 -15.48
15.866500 9.916 -15.29
15.878000 9.399 -15.11
15.889500 8.901 -14.9
15.901000 8.492 -14.71
15.912500 8.031 -14.48
15.924000 7.612 -14.26
15.935500 7.292 -14.04
15.947000 6.925 -13.82
15.958500 6.63 -13.57
15.970000 6.338 -13.36
15.981500 6.039 -13.14
15.993000 5.809 -12.92
16.004500 5.575 -12.71
16.016000 5.332 -12.48
16.027500 5.132 -12.27
16.039000 4.93 -12.06
16.050500 4.74 -11.86
16.062000 4.585 -11.66
16.073500 4.421 -11.45
16.085000 4.26 -11.28
16.096500 4.117 -11.08
16.108000 3.985 -10.88
16.119500 3.866 -10.71
16.131000 3.739 -10.53
16.142500 3.622 -10.36
16.154000 3.527 -10.19
16.165500 3.433 -10.02
16.177000 3.33 -9.855
16.188500 3.243 -9.705
16.200000 3.18 -9.543
16.211500 3.096 -9.411
16.223000 3.021 -9.25
16.234500 2.953 -9.099
16.246000 2.884 -8.964
16.257500 2.822 -8.828
16.269000 2.77 -8.68
16.280500 2.723 -8.553
16.292000 2.671 -8.412
16.303500 2.617 -8.286
16.315000 2.56 -8.162
16.326500 2.533 -8.033
16.338000 2.491 -7.912
16.349500 2.46 -7.797
16.361000 2.418 -7.67
16.372500 2.395 -7.56
16.384000 2.361 -7.442
16.395500 2.337 -7.33
16.407000 2.316 -7.215
16.418500 2.286 -7.106
16.430000 2.266 -6.996
16.441500 2.247 -6.895
16.453000 2.227 -6.796
16.464500 2.214 -6.691
16.476000 2.196 -6.589
16.487500 2.189 -6.491
16.499000 2.181 -6.397
16.510500 2.174 -6.297
16.522000 2.164 -6.208
16.533500 2.164 -6.111
16.545000 2.158 -6.018
16.556500 2.151 -5.929
16.568000 2.157 -5.838
16.579500 2.159 -5.75
16.591000 2.161 -5.662
16.602500 2.172 -5.575
16.614000 2.18 -5.488
16.625500 2.187 -5.402
16.637000 2.2 -5.322
16.648500 2.213 -5.233
16.660000 2.233 -5.163
16.671500 2.246 -5.08
16.683000 2.269 -5.001
16.694500 2.293 -4.922
16.706000 2.317 -4.851
16.717500 2.34 -4.777
16.729000 2.372 -4.702
16.740500 2.402 -4.639
16.752000 2.437 -4.567
16.763500 2.473 -4.503
16.775000 2.512 -4.441
16.786500 2.553 -4.381
16.798000 2.596 -4.325
16.809500 2.641 -4.267
16.821000 2.693 -4.216
16.832500 2.742 -4.169
16.844000 2.792 -4.126
16.855500 2.847 -4.086
16.867000 2.904 -4.047
16.878500 2.965 -4.021
16.890000 3.024 -3.99
16.901500 3.083 -3.97
16.913000 3.15 -3.956
16.924500 3.21 -3.945
16.936000 3.27 -3.942
16.947500 3.334 -3.944
16.959000 3.398 -3.957
16.970500 3.458 -3.976
16.982000 3.515 -3.999
16.993500 3.568 -4.035
17.005000 3.613 -4.069
17.016500 3.658 -4.114
17.028000 3.694 -4.163
17.039500 3.722 -4.222
17.051000 3.747 -4.282
17.062500 3.755 -4.348
17.074000 3.76 -4.417
17.085500 3.751 -4.488
17.097000 3.739 -4.557
17.108500 3.715 -4.627
17.120000 3.674 -4.7
17.131500 3.633 -4.762
17.143000 3.576 -4.821
17.154500 3.516 -4.88
17.166000 3.446 -4.924
17.177500 3.373 -4.973
17.189000 3.29 -5.007
17.200500 3.209 -5.035
