! Touchstone file generated by AntScope2
# MHz Z RI R 50
! Format: Frequency Z-real Z-imaginary (normalized to 50 Ohm)
7.000000 1.785 -6.703
7.011500 1.713 -6.585
7.023000 1.645 -6.477
7.034500 1.583 -6.366
7.046000 1.521 -6.252
7.057500 1.475 -6.141
7.069000 1.428 -6.032
7.080500 1.387 -5.927
7.092000 1.347 -5.819
7.103500 1.306 -5.714
7.115000 1.274 -5.615
7.126500 1.245 -5.512
7.138000 1.216 -5.413
7.149500 1.184 -5.313
7.161000 1.157 -5.219
7.172500 1.136 -5.126
7.184000 1.116 -5.029
7.195500 1.095 -4.938
7.207000 1.076 -4.844
7.218500 1.061 -4.757
7.230000 1.046 -4.669
7.241500 1.029 -4.584
7.253000 1.016 -4.496
7.264500 1.005 -4.411
7.276000 0.993 -4.327
7.287500 0.9816 -4.245
7.299000 0.973 -4.163
7.310500 0.9622 -4.083
7.322000 0.9548 -4.003
7.333500 0.9462 -3.923
7.345000 0.9394 -3.844
7.356500 0.9304 -3.767
7.368000 0.9252 -3.69
7.379500 0.9198 -3.613
7.391000 0.9148 -3.538
7.402500 0.9092 -3.465
7.414000 0.9064 -3.391
7.425500 0.9002 -3.316
7.437000 0.897 -3.243
7.448500 0.8932 -3.172
7.460000 0.8906 -3.099
7.471500 0.886 -3.028
7.483000 0.8848 -2.957
7.494500 0.8824 -2.886
7.506000 0.8804 -2.816
7.517500 0.8778 -2.747
7.529000 0.8754 -2.677
7.540500 0.875 -2.609
7.552000 0.8734 -2.539
7.563500 0.873 -2.472
7.575000 0.873 -2.403
7.586500 0.8726 -2.335
7.598000 0.8718 -2.268
7.609500 0.8708 -2.2
7.621000 0.8712 -2.133
7.632500 0.8708 -2.066
7.644000 0.8712 -2
7.655500 0.8716 -1.932
7.667000 0.8718 -1.865
7.678500 0.873 -1.799
7.690000 0.8736 -1.732
7.701500 0.8748 -1.666
7.713000 0.876 -1.6
7.724500 0.8774 -1.534
7.736000 0.8786 -1.468
7.747500 0.8806 -1.401
7.759000 0.8824 -1.335
7.770500 0.884 -1.268
7.782000 0.8856 -1.203
7.793500 0.888 -1.135
7.805000 0.89 -1.069
7.816500 0.8916 -1.002
7.828000 0.894 -0.9354
7.839500 0.8962 -0.8692
7.851000 0.899 -0.8022
7.862500 0.9008 -0.7348
7.874000 0.9036 -0.668
7.885500 0.9064 -0.6004
7.897000 0.9062 -0.5298
7.908500 0.9116 -0.4654
7.920000 0.9146 -0.3974
7.931500 0.9176 -0.3292
7.943000 0.9204 -0.2612
7.954500 0.9232 -0.1926
7.966000 0.9264 -0.1244
7.977500 0.9294 -0.0554
7.989000 0.9332 0.0136
8.000500 0.9366 0.0828
8.012000 0.9398 0.152
8.023500 0.9432 0.2218
8.035000 0.947 0.2916
8.046500 0.9506 0.3618
8.058000 0.955 0.4324
8.069500 0.9594 0.5034
8.081000 0.9638 0.5744
8.092500 0.969 0.6456
8.104000 0.9736 0.7184
8.115500 0.9786 0.791
8.127000 0.9836 0.8644
8.138500 0.9892 0.9376
8.150000 0.995 1.011
8.161500 1 1.086
8.173000 1.007 1.161
8.184500 1.013 1.237
8.196000 1.021 1.313
8.207500 1.027 1.39
8.219000 1.034 1.467
8.230500 1.041 1.546
8.242000 1.049 1.624
8.253500 1.057 1.704
8.265000 1.065 1.785
8.276500 1.073 1.866
8.288000 1.081 1.947
8.299500 1.09 2.03
8.311000 1.1 2.113
8.322500 1.109 2.199
8.334000 1.12 2.284
8.345500 1.129 2.371
8.357000 1.14 2.458
8.368500 1.151 2.547
8.380000 1.162 2.635
8.391500 1.173 2.726
8.403000 1.185 2.818
8.414500 1.196 2.913
8.426000 1.21 3.007
8.437500 1.222 3.103
8.449000 1.236 3.199
8.460500 1.25 3.297
8.472000 1.264 3.398
8.483500 1.28 3.499
8.495000 1.295 3.602
8.506500 1.311 3.706
8.518000 1.326 3.814
8.529500 1.344 3.92
8.541000 1.363 4.03
8.552500 1.379 4.141
8.564000 1.399 4.257
8.575500 1.417 4.37
8.587000 1.438 4.489
8.598500 1.458 4.609
8.610000 1.481 4.731
8.621500 1.501 4.857
8.633000 1.526 4.982
8.644500 1.55 5.11
8.656000 1.577 5.243
8.667500 1.602 5.377
8.679000 1.628 5.509
8.690500 1.658 5.652
8.702000 1.689 5.794
8.713500 1.716 5.939
8.725000 1.751 6.087
8.736500 1.779 6.241
8.748000 1.815 6.398
8.759500 1.851 6.556
8.771000 1.891 6.722
8.782500 1.929 6.884
8.794000 1.971 7.057
8.805500 2.019 7.239
8.817000 2.067 7.421
8.828500 2.114 7.603
8.840000 2.166 7.795
8.851500 2.211 7.996
8.863000 2.277 8.188
8.874500 2.337 8.398
8.886000 2.403 8.612
8.897500 2.455 8.84
8.909000 2.527 9.056
8.920500 2.602 9.291
8.932000 2.689 9.539
8.943500 2.766 9.788
8.955000 2.852 10.04
8.966500 2.959 10.29
8.978000 3.055 10.58
8.989500 3.16 10.87
9.001000 3.289 11.15
9.012500 3.403 11.47
9.024000 3.538 11.77
9.035500 3.673 12.1
9.047000 3.823 12.44
9.058500 4.008 12.81
9.070000 4.158 13.16
9.081500 4.347 13.51
9.093000 4.562 13.9
9.104500 4.788 14.34
9.116000 5.024 14.77
9.127500 5.273 15.2
9.139000 5.566 15.66
9.150500 5.884 16.14
9.162000 6.189 16.63
9.173500 6.606 17.17
9.185000 6.978 17.7
9.196500 7.431 18.28
9.208000 7.943 18.83
9.219500 8.469 19.47
9.231000 9.127 20.02
9.242500 9.776 20.68
9.254000 10.56 21.32
9.265500 11.36 22.02
9.277000 12.29 22.7
9.288500 13.32 23.32
9.300000 14.51 24.06
9.311500 15.72 24.51
9.323000 17.13 25.25
9.334500 18.73 25.68
9.346000 20.42 26.05
9.357500 22.3 26.39
9.369000 24.34 26.59
9.380500 26.52 26.6
9.392000 28.87 26.24
9.403500 31.43 25.7
9.415000 33.98 24.68
9.426500 36.45 23.36
9.438000 38.72 21.43
9.449500 40.95 19.35
9.461000 43.12 16.53
9.472500 44.57 13.67
9.484000 45.45 10.71
9.495500 46.03 7.461
9.507000 45.9 4.356
9.518500 45.86 1.278
9.530000 44.72 -1.596
9.541500 43.39 -4.261
9.553000 42.15 -6.29
9.564500 40.77 -8.224
9.576000 38.72 -9.848
9.587500 37.02 -10.78
9.599000 35.46 -11.83
9.610500 33.91 -12.46
9.622000 32.42 -12.95
9.633500 31.12 -13.29
9.645000 29.81 -13.57
9.656500 28.59 -13.66
9.668000 27.61 -13.64
9.679500 26.64 -13.59
9.691000 25.75 -13.48
9.702500 25.09 -13.32
9.714000 24.41 -13.11
9.725500 23.73 -13.02
9.737000 23.26 -12.79
9.748500 22.88 -12.66
9.760000 22.48 -12.49
9.771500 22.2 -12.32
9.783000 21.79 -12.21
9.794500 21.68 -12.05
9.806000 21.4 -12.01
9.817500 21.26 -11.88
9.829000 21.24 -11.85
9.840500 21.16 -11.83
9.852000 21.12 -11.81
9.863500 21.09 -11.88
9.875000 21.18 -11.96
9.886500 21.03 -12.26
9.898000 21.27 -12.34
9.909500 21.3 -12.47
9.921000 21.34 -12.82
9.932500 21.37 -13.09
9.944000 21.26 -13.52
9.955500 21.15 -14.47
9.967000 21.16 -14.5
9.978500 21.06 -14.95
9.990000 20.91 -15.51
10.001500 20.67 -16.02
10.013000 20.38 -16.62
10.024500 19.97 -17.09
10.036000 19.62 -17.62
10.047500 19.15 -18.25
10.059000 18.52 -18.73
10.070500 17.9 -19.13
10.082000 17.3 -19.55
10.093500 16.6 -19.92
10.105000 15.9 -20.19
10.116500 15.15 -20.4
10.128000 14.46 -20.57
10.139500 13.77 -20.61
10.151000 13 -20.65
10.162500 12.24 -20.63
10.174000 11.57 -20.62
10.185500 10.94 -20.46
10.197000 10.3 -20.3
10.208500 9.736 -20.15
10.220000 9.12 -19.94
10.231500 8.589 -19.74
10.243000 8.05 -19.42
10.254500 7.574 -19.2
10.266000 7.041 -19.01
10.277500 6.751 -18.7
10.289000 6.324 -18.38
10.300500 5.925 -18.07
10.312000 5.605 -17.78
10.323500 5.278 -17.49
10.335000 5.002 -17.21
10.346500 4.738 -16.92
10.358000 4.445 -16.64
10.369500 4.246 -16.33
10.381000 4.032 -16.08
10.392500 3.821 -15.8
10.404000 3.622 -15.52
10.415500 3.423 -15.24
10.427000 3.274 -15
10.438500 3.109 -14.75
10.450000 2.958 -14.49
10.461500 2.828 -14.26
10.473000 2.703 -14.02
10.484500 2.59 -13.77
10.496000 2.437 -13.55
10.507500 2.361 -13.34
10.519000 2.267 -13.11
10.530500 2.164 -12.91
10.542000 2.07 -12.7
10.553500 1.986 -12.48
10.565000 1.916 -12.28
10.576500 1.822 -12.09
10.588000 1.77 -11.92
10.599500 1.707 -11.74
10.611000 1.642 -11.55
10.622500 1.583 -11.37
10.634000 1.543 -11.2
10.645500 1.494 -11.03
10.657000 1.423 -10.87
10.668500 1.378 -10.71
10.680000 1.344 -10.55
10.691500 1.311 -10.4
10.703000 1.257 -10.26
10.714500 1.232 -10.1
10.726000 1.196 -9.954
10.737500 1.171 -9.831
10.749000 1.123 -9.687
10.760500 1.108 -9.55
10.772000 1.066 -9.402
10.783500 1.044 -9.282
10.795000 1.018 -9.15
10.806500 0.9992 -9.029
10.818000 0.9638 -8.9
10.829500 0.9566 -8.783
10.841000 0.93 -8.664
10.852500 0.9126 -8.547
10.864000 0.8874 -8.439
10.875500 0.8744 -8.321
10.887000 0.8596 -8.207
10.898500 0.8346 -8.099
10.910000 0.8284 -7.988
10.921500 0.8096 -7.886
10.933000 0.798 -7.777
10.944500 0.7788 -7.674
10.956000 0.7662 -7.573
10.967500 0.7586 -7.478
10.979000 0.7484 -7.375
10.990500 0.7276 -7.279
11.002000 0.7264 -7.177
11.013500 0.7172 -7.086
11.025000 0.7034 -6.993
11.036500 0.6952 -6.903
11.048000 0.6876 -6.81
11.059500 0.6812 -6.718
11.071000 0.6722 -6.637
11.082500 0.667 -6.54
11.094000 0.6562 -6.461
11.105500 0.6482 -6.374
11.117000 0.6438 -6.288
11.128500 0.6376 -6.204
11.140000 0.628 -6.12
11.151500 0.6232 -6.038
11.163000 0.622 -5.957
11.174500 0.6136 -5.877
11.186000 0.6108 -5.796
11.197500 0.6082 -5.72
11.209000 0.6046 -5.644
11.220500 0.5988 -5.569
11.232000 0.5952 -5.492
11.243500 0.5932 -5.414
11.255000 0.5916 -5.339
11.266500 0.583 -5.267
11.278000 0.5836 -5.192
11.289500 0.582 -5.118
11.301000 0.577 -5.046
11.312500 0.5756 -4.975
11.324000 0.5758 -4.901
11.335500 0.5746 -4.834
11.347000 0.5744 -4.762
11.358500 0.5726 -4.691
11.370000 0.5704 -4.621
11.381500 0.5684 -4.551
11.393000 0.5692 -4.483
11.404500 0.5674 -4.413
11.416000 0.567 -4.344
11.427500 0.5664 -4.278
11.439000 0.565 -4.206
11.450500 0.5674 -4.141
11.462000 0.5662 -4.073
11.473500 0.5644 -4.006
11.485000 0.5664 -3.942
11.496500 0.5666 -3.877
11.508000 0.5676 -3.811
11.519500 0.567 -3.745
11.531000 0.5694 -3.679
11.542500 0.5696 -3.614
11.554000 0.569 -3.549
11.565500 0.5704 -3.484
11.577000 0.5722 -3.419
11.588500 0.5748 -3.354
11.600000 0.5764 -3.291
11.611500 0.5774 -3.225
11.623000 0.578 -3.16
11.634500 0.5808 -3.096
11.646000 0.5836 -3.032
11.657500 0.5852 -2.968
11.669000 0.5878 -2.904
11.680500 0.5894 -2.841
11.692000 0.5924 -2.776
11.703500 0.595 -2.712
11.715000 0.5976 -2.647
11.726500 0.6008 -2.583
11.738000 0.603 -2.519
11.749500 0.6064 -2.455
11.761000 0.6092 -2.39
11.772500 0.6132 -2.325
11.784000 0.6168 -2.26
11.795500 0.6204 -2.197
11.807000 0.6246 -2.131
11.818500 0.6286 -2.065
11.830000 0.6332 -2.001
11.841500 0.6376 -1.933
11.853000 0.6416 -1.869
11.864500 0.6468 -1.803
11.876000 0.6514 -1.736
11.887500 0.6564 -1.67
11.899000 0.6612 -1.603
11.910500 0.667 -1.535
11.922000 0.6722 -1.467
11.933500 0.678 -1.399
11.945000 0.6828 -1.329
11.956500 0.6906 -1.26
11.968000 0.6964 -1.191
11.979500 0.7036 -1.12
11.991000 0.7102 -1.049
12.002500 0.7176 -0.9784
12.014000 0.7246 -0.9066
12.025500 0.7322 -0.8338
12.037000 0.7398 -0.7608
12.048500 0.7478 -0.6868
12.060000 0.7558 -0.6124
12.071500 0.7646 -0.537
12.083000 0.7734 -0.4612
12.094500 0.7824 -0.3846
12.106000 0.7918 -0.3068
12.117500 0.8016 -0.2286
12.129000 0.812 -0.1494
12.140500 0.8224 -0.0698
12.152000 0.8334 0.011
12.163500 0.8446 0.0924
12.175000 0.8568 0.1752
12.186500 0.8692 0.259
12.198000 0.8828 0.343
12.209500 0.8968 0.4282
12.221000 0.9114 0.515
12.232500 0.9272 0.6024
12.244000 0.943 0.692
12.255500 0.9604 0.782
12.267000 0.9788 0.8732
12.278500 0.9976 0.9668
12.290000 1.018 1.061
12.301500 1.039 1.158
12.313000 1.062 1.255
12.324500 1.087 1.355
12.336000 1.112 1.456
12.347500 1.139 1.559
12.359000 1.168 1.664
12.370500 1.198 1.772
12.382000 1.23 1.88
12.393500 1.265 1.991
12.405000 1.301 2.104
12.416500 1.34 2.22
12.428000 1.381 2.337
12.439500 1.425 2.458
12.451000 1.472 2.581
12.462500 1.521 2.706
12.474000 1.575 2.834
12.485500 1.631 2.965
12.497000 1.693 3.098
12.508500 1.757 3.234
12.520000 1.826 3.371
12.531500 1.901 3.515
12.543000 1.982 3.657
12.554500 2.067 3.802
12.566000 2.161 3.954
12.577500 2.258 4.101
12.589000 2.366 4.258
12.600500 2.478 4.414
12.612000 2.6 4.565
12.623500 2.732 4.723
12.635000 2.873 4.878
12.646500 3.03 5.039
12.658000 3.184 5.194
12.669500 3.364 5.346
12.681000 3.547 5.499
12.692500 3.749 5.647
12.704000 3.963 5.832
12.715500 4.215 5.908
12.727000 4.433 6.052
12.738500 4.68 6.174
12.750000 4.947 6.275
12.761500 5.226 6.369
12.773000 5.513 6.44
12.784500 5.806 6.488
12.796000 6.109 6.521
12.807500 6.42 6.539
12.819000 6.73 6.535
12.830500 7.051 6.491
12.842000 7.326 6.436
12.853500 7.62 6.346
12.865000 7.899 6.261
12.876500 8.15 6.137
12.888000 8.397 6.008
12.899500 8.619 5.863
12.911000 8.816 5.717
12.922500 9.005 5.568
12.934000 9.154 5.413
12.945500 9.285 5.262
12.957000 9.418 5.128
12.968500 9.528 4.999
12.980000 9.616 4.888
12.991500 9.69 4.774
13.003000 9.758 4.683
13.014500 9.858 4.605
13.026000 9.924 4.55
13.037500 9.99 4.484
13.049000 10.08 4.454
13.060500 10.17 4.433
13.072000 10.25 4.439
13.083500 10.33 4.425
13.095000 10.47 4.436
13.106500 10.61 4.468
13.118000 10.73 4.494
13.129500 10.88 4.515
13.141000 11.08 4.544
13.152500 11.25 4.571
13.164000 11.48 4.62
13.175500 11.68 4.651
13.187000 11.97 4.636
13.198500 12.18 4.689
13.210000 12.53 4.713
13.221500 12.85 4.701
13.233000 13.19 4.679
13.244500 13.57 4.633
13.256000 14 4.556
13.267500 14.43 4.475
13.279000 14.85 4.329
13.290500 15.31 4.176
13.302000 15.84 3.985
13.313500 16.35 3.718
13.325000 16.83 3.403
13.336500 17.38 3.037
13.348000 17.86 2.601
13.359500 18.36 2.101
13.371000 18.81 1.518
13.382500 19.27 0.8354
13.394000 19.7 0.1602
13.405500 19.98 -0.6372
13.417000 20.29 -1.495
13.428500 20.49 -2.37
13.440000 20.56 -3.328
13.451500 20.52 -4.252
13.463000 20.41 -5.263
13.474500 20.2 -6.164
13.486000 19.85 -7.12
13.497500 19.42 -7.909
13.509000 18.92 -8.787
13.520500 18.33 -9.506
13.532000 17.72 -10.19
13.543500 17.01 -10.7
13.555000 16.28 -11.22
13.566500 15.54 -11.58
13.578000 14.85 -11.9
13.589500 14.03 -12.1
13.601000 13.36 -12.3
13.612500 12.67 -12.41
13.624000 11.98 -12.42
13.635500 11.35 -12.45
13.647000 10.74 -12.39
13.658500 10.17 -12.34
13.670000 9.612 -12.22
13.681500 9.113 -12.11
13.693000 8.657 -11.95
13.704500 8.188 -11.81
13.716000 7.794 -11.63
13.727500 7.397 -11.42
13.739000 7.048 -11.23
13.750500 6.695 -11.04
13.762000 6.407 -10.84
13.773500 6.105 -10.61
13.785000 5.839 -10.42
13.796500 5.59 -10.22
13.808000 5.348 -10.01
13.819500 5.126 -9.815
13.831000 4.935 -9.616
13.842500 4.746 -9.414
13.854000 4.57 -9.214
13.865500 4.41 -9.019
13.877000 4.262 -8.828
13.888500 4.117 -8.645
13.900000 3.99 -8.461
13.911500 3.852 -8.281
13.923000 3.735 -8.106
13.934500 3.627 -7.929
13.946000 3.521 -7.751
13.957500 3.424 -7.59
13.969000 3.338 -7.425
13.980500 3.248 -7.265
13.992000 3.173 -7.108
14.003500 3.095 -6.956
14.015000 3.025 -6.803
14.026500 2.958 -6.652
14.038000 2.9 -6.513
14.049500 2.84 -6.36
14.061000 2.793 -6.219
14.072500 2.739 -6.086
14.084000 2.691 -5.95
14.095500 2.645 -5.812
14.107000 2.607 -5.682
14.118500 2.567 -5.55
14.130000 2.528 -5.423
14.141500 2.496 -5.297
14.153000 2.464 -5.174
14.164500 2.435 -5.054
14.176000 2.404 -4.928
14.187500 2.377 -4.808
14.199000 2.352 -4.691
14.210500 2.33 -4.576
14.222000 2.31 -4.46
14.233500 2.289 -4.348
14.245000 2.268 -4.238
14.256500 2.254 -4.125
14.268000 2.239 -4.015
14.279500 2.224 -3.906
14.291000 2.212 -3.797
14.302500 2.201 -3.689
14.314000 2.193 -3.58
14.325500 2.181 -3.478
14.337000 2.176 -3.371
14.348500 2.167 -3.267
14.360000 2.163 -3.163
14.371500 2.16 -3.058
14.383000 2.157 -2.957
14.394500 2.154 -2.852
14.406000 2.155 -2.752
14.417500 2.152 -2.651
14.429000 2.155 -2.548
14.440500 2.158 -2.447
14.452000 2.16 -2.346
14.463500 2.164 -2.245
14.475000 2.17 -2.145
14.486500 2.176 -2.044
14.498000 2.183 -1.943
14.509500 2.19 -1.842
14.521000 2.2 -1.741
14.532500 2.21 -1.64
14.544000 2.221 -1.539
14.555500 2.233 -1.437
14.567000 2.246 -1.336
14.578500 2.26 -1.235
14.590000 2.274 -1.132
14.601500 2.289 -1.032
14.613000 2.308 -0.9286
14.624500 2.325 -0.8258
14.636000 2.344 -0.7212
14.647500 2.364 -0.6172
14.659000 2.386 -0.5124
14.670500 2.407 -0.4068
14.682000 2.431 -0.3012
14.693500 2.456 -0.1958
14.705000 2.483 -0.0884
14.716500 2.51 0.0194
14.728000 2.54 0.1264
14.739500 2.57 0.236
14.751000 2.603 0.3454
14.762500 2.637 0.4562
14.774000 2.673 0.5688
14.785500 2.71 0.6816
14.797000 2.747 0.7952
14.808500 2.79 0.9094
14.820000 2.834 1.025
14.831500 2.878 1.143
14.843000 2.926 1.263
14.854500 2.975 1.381
14.866000 3.028 1.503
14.877500 3.082 1.626
14.889000 3.142 1.748
14.900500 3.202 1.875
14.912000 3.263 2.001
14.923500 3.332 2.131
14.935000 3.403 2.262
14.946500 3.474 2.398
14.958000 3.554 2.528
14.969500 3.633 2.666
14.981000 3.718 2.806
14.992500 3.811 2.947
15.004000 3.903 3.089
15.015500 4.003 3.23
15.027000 4.106 3.379
15.038500 4.216 3.531
15.050000 4.333 3.682
15.061500 4.453 3.839
15.073000 4.578 3.994
15.084500 4.717 4.152
15.096000 4.862 4.317
15.107500 5.008 4.48
15.119000 5.166 4.64
15.130500 5.322 4.811
15.142000 5.506 4.981
15.153500 5.691 5.149
15.165000 5.892 5.323
15.176500 6.094 5.499
15.188000 6.32 5.682
15.199500 6.562 5.861
15.211000 6.815 6.041
15.222500 7.044 6.203
15.234000 7.349 6.408
15.245500 7.651 6.572
15.257000 7.961 6.756
15.268500 8.3 6.929
15.280000 8.68 7.094
15.291500 9.041 7.27
15.303000 9.452 7.422
15.314500 9.879 7.589
15.326000 10.31 7.708
15.337500 10.81 7.866
15.349000 11.32 7.971
15.360500 11.87 8.053
15.372000 12.45 8.101
15.383500 13.04 8.198
15.395000 13.69 8.157
15.406500 14.34 8.147
15.418000 15.06 8.097
15.429500 15.79 7.971
15.441000 16.55 7.81
15.452500 17.35 7.573
15.464000 18.24 7.295
15.475500 19 6.876
15.487000 19.85 6.412
15.498500 20.7 5.862
15.510000 21.5 5.195
15.521500 22.32 4.405
15.533000 23 3.597
15.544500 23.73 2.611
15.556000 24.37 1.523
15.567500 24.87 0.4232
15.579000 25.28 -0.8428
15.590500 25.46 -2.13
15.602000 25.54 -3.391
15.613500 25.54 -4.755
15.625000 25.57 -6.096
15.636500 25.11 -7.328
15.648000 24.61 -8.622
15.659500 24.04 -9.782
15.671000 23.43 -10.86
15.682500 22.59 -11.85
15.694000 21.81 -12.73
15.705500 20.95 -13.43
15.717000 19.97 -14.13
15.728500 19.13 -14.61
15.740000 18.13 -15
15.751500 17.24 -15.38
15.763000 16.3 -15.59
15.774500 15.45 -15.79
15.786000 14.66 -15.89
15.797500 13.85 -15.9
15.809000 13.09 -15.92
15.820500 12.33 -15.81
15.832000 11.65 -15.81
15.843500 11.08 -15.6
15.855000 10.47 -15.53
15.866500 9.878 -15.31
15.878000 9.384 -15.15
15.889500 8.907 -14.91
15.901000 8.458 -14.73
15.912500 8.02 -14.5
15.924000 7.631 -14.23
15.935500 7.282 -14.04
15.947000 6.9 -13.81
15.958500 6.599 -13.58
15.970000 6.309 -13.35
15.981500 6.058 -13.13
15.993000 5.778 -12.92
16.004500 5.527 -12.69
16.016000 5.318 -12.49
16.027500 5.121 -12.28
16.039000 4.893 -12.08
16.050500 4.736 -11.86
16.062000 4.564 -11.64
16.073500 4.398 -11.46
16.085000 4.252 -11.28
16.096500 4.111 -11.09
16.108000 3.975 -10.89
16.119500 3.849 -10.72
16.131000 3.741 -10.54
16.142500 3.639 -10.37
16.154000 3.512 -10.21
16.165500 3.421 -10.04
16.177000 3.326 -9.862
16.188500 3.234 -9.724
16.200000 3.161 -9.561
16.211500 3.091 -9.413
16.223000 3.021 -9.257
16.234500 2.942 -9.113
16.246000 2.877 -8.963
16.257500 2.821 -8.825
16.269000 2.77 -8.695
16.280500 2.709 -8.556
16.292000 2.661 -8.426
16.303500 2.607 -8.286
16.315000 2.569 -8.168
16.326500 2.522 -8.04
16.338000 2.492 -7.918
16.349500 2.456 -7.797
16.361000 2.414 -7.675
16.372500 2.388 -7.555
16.384000 2.36 -7.453
16.395500 2.332 -7.328
16.407000 2.306 -7.219
16.418500 2.286 -7.107
16.430000 2.262 -7.006
16.441500 2.247 -6.897
16.453000 2.225 -6.799
16.464500 2.214 -6.699
16.476000 2.198 -6.597
16.487500 2.191 -6.499
16.499000 2.184 -6.401
16.510500 2.177 -6.308
16.522000 2.164 -6.212
16.533500 2.16 -6.116
16.545000 2.158 -6.025
16.556500 2.157 -5.936
16.568000 2.157 -5.847
16.579500 2.162 -5.756
16.591000 2.163 -5.67
16.602500 2.167 -5.586
16.614000 2.174 -5.496
16.625500 2.187 -5.412
16.637000 2.197 -5.333
16.648500 2.212 -5.248
16.660000 2.227 -5.171
16.671500 2.245 -5.089
16.683000 2.265 -5.015
16.694500 2.285 -4.934
16.706000 2.314 -4.862
16.717500 2.332 -4.79
16.729000 2.364 -4.72
16.740500 2.391 -4.65
16.752000 2.421 -4.583
16.763500 2.459 -4.518
16.775000 2.498 -4.455
16.786500 2.537 -4.392
16.798000 2.58 -4.334
16.809500 2.628 -4.279
16.821000 2.673 -4.226
16.832500 2.721 -4.18
16.844000 2.775 -4.132
16.855500 2.83 -4.092
16.867000 2.885 -4.055
16.878500 2.945 -4.025
16.890000 3.002 -3.996
16.901500 3.063 -3.975
16.913000 3.128 -3.958
16.924500 3.186 -3.949
16.936000 3.252 -3.942
16.947500 3.311 -3.943
16.959000 3.373 -3.954
16.970500 3.431 -3.968
16.982000 3.492 -3.991
16.993500 3.543 -4.021
17.005000 3.591 -4.062
17.016500 3.633 -4.104
17.028000 3.672 -4.152
17.039500 3.704 -4.211
17.051000 3.727 -4.271
17.062500 3.739 -4.336
17.074000 3.746 -4.407
17.085500 3.741 -4.478
17.097000 3.724 -4.55
17.108500 3.703 -4.617
17.120000 3.669 -4.684
17.131500 3.62 -4.754
17.143000 3.572 -4.813
17.154500 3.509 -4.868
17.166000 3.443 -4.92
17.177500 3.368 -4.965
17.189000 3.289 -4.997
