! Touchstone file generated by AntScope2
# MHz Z RI R 50
! Format: Frequency Z-real Z-imaginary (normalized to 50 Ohm)
3.000000 1.231 11.02
3.013500 1.318 11.47
3.027000 1.419 11.96
3.040500 1.531 12.47
3.054000 1.659 13.02
3.067500 1.805 13.61
3.081000 1.966 14.24
3.094500 2.148 14.9
3.108000 2.356 15.63
3.121500 2.587 16.4
3.135000 2.867 17.27
3.148500 3.163 18.14
3.162000 3.531 19.16
3.175500 3.941 20.24
3.189000 4.413 21.39
3.202500 4.979 22.69
3.216000 5.639 24.07
3.229500 6.448 25.64
3.243000 7.418 27.38
3.256500 8.623 29.35
3.270000 10.05 31.48
3.283500 11.95 33.98
3.297000 14.2 36.62
3.310500 17.16 39.63
3.324000 20.97 42.89
3.337500 25.88 46.3
3.351000 32.84 49.94
3.364500 41.54 52.86
3.378000 53.91 54.4
3.391500 69.76 52.2
3.405000 87.53 43.2
3.418500 103 24.63
3.432000 108.9 -0.3914
3.445500 103.1 -24.48
3.459000 86.83 -43.76
3.472500 70.05 -52.16
3.486000 54.83 -54.45
3.499500 43.12 -53.26
3.513000 34.2 -50.55
3.526500 27.61 -47.38
3.540000 22.44 -44.04
3.553500 18.38 -40.79
3.567000 15.72 -38.27
3.580500 13.25 -35.59
3.594000 11.37 -33.29
3.607500 9.91 -31.31
3.621000 8.666 -29.46
3.634500 7.573 -27.69
3.648000 6.715 -26.18
3.661500 6.007 -24.85
3.675000 5.364 -23.55
3.688500 4.845 -22.44
3.702000 4.38 -21.38
3.715500 3.996 -20.45
3.729000 3.64 -19.55
3.742500 3.339 -18.74
3.756000 3.069 -17.97
3.769500 2.836 -17.28
3.783000 2.624 -16.63
3.796500 2.428 -15.99
3.810000 2.253 -15.4
3.823500 2.106 -14.89
3.837000 1.958 -14.35
3.850500 1.835 -13.88
3.864000 1.719 -13.42
3.877500 1.611 -12.98
3.891000 1.517 -12.58
3.904500 1.424 -12.18
3.918000 1.343 -11.81
3.931500 1.274 -11.48
3.945000 1.193 -11.11
3.958500 1.13 -10.79
3.972000 1.073 -10.49
3.985500 1.017 -10.19
3.999000 0.9638 -9.896
4.012500 0.9148 -9.623
4.026000 0.8682 -9.352
4.039500 0.8258 -9.09
4.053000 0.785 -8.836
4.066500 0.7482 -8.6
4.080000 0.7136 -8.365
4.093500 0.6812 -8.136
4.107000 0.665 -7.917
4.120500 0.678 -7.698
4.134000 0.6938 -7.491
4.147500 0.6988 -7.282
4.161000 0.7108 -7.081
4.174500 0.7242 -6.881
4.188000 0.7296 -6.679
4.201500 0.745 -6.503
4.215000 0.7524 -6.321
4.228500 0.7662 -6.141
4.242000 0.7784 -5.958
4.255500 0.7886 -5.787
4.269000 0.795 -5.618
4.282500 0.8104 -5.452
4.296000 0.8192 -5.287
4.309500 0.8356 -5.124
4.323000 0.8438 -4.963
4.336500 0.8576 -4.804
4.350000 0.8708 -4.647
4.363500 0.8858 -4.494
4.377000 0.8994 -4.342
4.390500 0.9122 -4.191
4.404000 0.9294 -4.042
4.417500 0.9448 -3.891
4.431000 0.9614 -3.744
4.444500 0.9768 -3.597
4.458000 0.9952 -3.45
4.471500 1.012 -3.304
4.485000 1.031 -3.159
4.498500 1.049 -3.014
4.512000 1.068 -2.871
4.525500 1.088 -2.727
4.539000 1.109 -2.583
4.552500 1.131 -2.438
4.566000 1.153 -2.292
4.579500 1.177 -2.147
4.593000 1.201 -2.002
4.606500 1.227 -1.856
4.620000 1.253 -1.708
4.633500 1.281 -1.56
4.647000 1.31 -1.411
4.660500 1.339 -1.26
4.674000 1.369 -1.109
4.687500 1.4 -0.9554
4.701000 1.433 -0.8004
4.714500 1.466 -0.6438
4.728000 1.502 -0.4858
4.741500 1.538 -0.3248
4.755000 1.575 -0.1618
4.768500 1.616 0.0022
4.782000 1.657 0.1682
4.795500 1.702 0.3382
4.809000 1.748 0.51
4.822500 1.796 0.685
4.836000 1.848 0.8634
4.849500 1.903 1.046
4.863000 1.961 1.23
4.876500 2.024 1.42
4.890000 2.092 1.615
4.903500 2.163 1.813
4.917000 2.238 2.019
4.930500 2.319 2.228
4.944000 2.407 2.439
4.957500 2.499 2.66
4.971000 2.598 2.888
4.984500 2.705 3.125
4.998000 2.818 3.365
5.011500 2.94 3.614
5.025000 3.071 3.881
5.038500 3.218 4.144
5.052000 3.371 4.421
5.065500 3.538 4.71
5.079000 3.722 5.014
5.092500 3.925 5.326
5.106000 4.138 5.656
5.119500 4.382 5.985
5.133000 4.644 6.334
5.146500 4.932 6.703
5.160000 5.25 7.085
5.173500 5.611 7.482
5.187000 5.995 7.89
5.200500 6.429 8.324
5.214000 6.925 8.757
5.227500 7.455 9.21
5.241000 8.07 9.627
5.254500 8.757 10.16
5.268000 9.516 10.61
5.281500 10.38 11.07
5.295000 11.36 11.54
5.308500 12.51 11.98
5.322000 13.75 12.33
5.335500 15.2 12.61
5.349000 16.76 12.78
5.362500 18.6 12.82
5.376000 20.54 12.56
5.389500 22.67 11.98
5.403000 24.9 11.16
5.416500 27.19 9.711
5.430000 29.31 7.938
5.443500 31.24 5.403
5.457000 32.78 2.523
5.470500 33.61 -0.6614
5.484000 33.79 -4.166
5.497500 33.33 -7.608
5.511000 32 -10.61
5.524500 30.31 -13.32
5.538000 28.37 -15.46
5.551500 26.07 -17.11
5.565000 23.86 -18.23
5.578500 21.77 -19
5.592000 19.71 -19.37
5.605500 17.83 -19.48
5.619000 16.09 -19.39
5.632500 14.61 -19.19
5.646000 13.32 -18.87
5.659500 12.07 -18.51
5.673000 11.1 -18.03
5.686500 10.12 -17.66
5.700000 9.307 -17.12
5.713500 8.616 -16.69
5.727000 7.971 -16.17
5.740500 7.382 -15.74
5.754000 6.896 -15.32
5.767500 6.434 -14.87
5.781000 6.028 -14.46
5.794500 5.693 -14.03
5.808000 5.368 -13.63
5.821500 5.077 -13.26
5.835000 4.801 -12.89
5.848500 4.592 -12.55
5.862000 4.384 -12.22
5.875500 4.204 -11.91
5.889000 4.034 -11.6
5.902500 3.887 -11.3
5.916000 3.747 -11.01
5.929500 3.634 -10.76
5.943000 3.529 -10.5
5.956500 3.434 -10.24
5.970000 3.351 -10.01
5.983500 3.285 -9.775
5.997000 3.202 -9.547
6.010500 3.152 -9.332
6.024000 3.096 -9.128
6.037500 3.06 -8.921
6.051000 3.025 -8.742
6.064500 2.992 -8.551
6.078000 2.958 -8.373
6.091500 2.945 -8.193
6.105000 2.936 -8.029
6.118500 2.917 -7.867
6.132000 2.928 -7.706
6.145500 2.933 -7.558
6.159000 2.936 -7.409
6.172500 2.963 -7.268
6.186000 2.99 -7.14
6.199500 3.018 -7.01
6.213000 3.057 -6.894
6.226500 3.094 -6.779
6.240000 3.145 -6.673
6.253500 3.191 -6.581
6.267000 3.246 -6.493
6.280500 3.296 -6.407
6.294000 3.371 -6.336
6.307500 3.429 -6.282
6.321000 3.498 -6.233
6.334500 3.559 -6.189
6.348000 3.627 -6.169
6.361500 3.698 -6.152
6.375000 3.764 -6.155
6.388500 3.827 -6.17
6.402000 3.88 -6.193
6.415500 3.931 -6.229
6.429000 3.964 -6.269
6.442500 3.995 -6.34
6.456000 4.007 -6.405
6.469500 4.002 -6.477
6.483000 3.992 -6.552
6.496500 3.953 -6.637
6.510000 3.9 -6.72
6.523500 3.841 -6.785
6.537000 3.768 -6.861
6.550500 3.665 -6.925
6.564000 3.563 -6.981
6.577500 3.448 -7.02
6.591000 3.323 -7.051
6.604500 3.189 -7.071
6.618000 3.058 -7.07
6.631500 2.915 -7.066
6.645000 2.78 -7.048
6.658500 2.65 -7.004
6.672000 2.526 -6.968
6.685500 2.394 -6.919
6.699000 2.273 -6.859
6.712500 2.156 -6.781
6.726000 2.049 -6.711
6.739500 1.947 -6.631
6.753000 1.851 -6.545
6.766500 1.758 -6.461
6.780000 1.672 -6.375
6.793500 1.597 -6.279
6.807000 1.525 -6.186
6.820500 1.453 -6.092
6.834000 1.387 -5.999
6.847500 1.328 -5.904
6.861000 1.275 -5.805
6.874500 1.221 -5.714
6.888000 1.177 -5.617
6.901500 1.137 -5.524
6.915000 1.096 -5.433
6.928500 1.06 -5.341
6.942000 1.025 -5.254
6.955500 0.9942 -5.162
6.969000 0.9714 -5.075
6.982500 0.9422 -4.987
6.996000 0.9202 -4.9
7.009500 0.8964 -4.815
7.023000 0.876 -4.729
7.036500 0.8598 -4.648
7.050000 0.8418 -4.565
7.063500 0.8238 -4.486
7.077000 0.8122 -4.408
7.090500 0.8002 -4.326
7.104000 0.7842 -4.249
7.117500 0.7758 -4.171
7.131000 0.7678 -4.093
7.144500 0.7578 -4.02
7.158000 0.7508 -3.946
7.171500 0.7438 -3.872
7.185000 0.7374 -3.8
7.198500 0.7308 -3.727
7.212000 0.7244 -3.655
7.225500 0.7214 -3.584
7.239000 0.7168 -3.515
7.252500 0.7132 -3.446
7.266000 0.7108 -3.377
7.279500 0.7092 -3.307
7.293000 0.7062 -3.24
7.306500 0.7044 -3.173
7.320000 0.7038 -3.105
7.333500 0.7018 -3.039
7.347000 0.7016 -2.972
7.360500 0.7022 -2.907
7.374000 0.7012 -2.842
7.387500 0.7012 -2.777
7.401000 0.7018 -2.71
7.414500 0.7034 -2.646
7.428000 0.7038 -2.582
7.441500 0.7058 -2.517
7.455000 0.7078 -2.452
7.468500 0.7106 -2.388
7.482000 0.7118 -2.323
7.495500 0.7148 -2.258
7.509000 0.7174 -2.194
7.522500 0.72 -2.129
7.536000 0.7234 -2.065
7.549500 0.7254 -2
7.563000 0.7296 -1.936
7.576500 0.7334 -1.871
7.590000 0.7382 -1.806
7.603500 0.742 -1.741
7.617000 0.7472 -1.676
7.630500 0.7518 -1.611
7.644000 0.7566 -1.545
7.657500 0.7618 -1.479
7.671000 0.7672 -1.411
7.684500 0.7734 -1.344
7.698000 0.7796 -1.277
7.711500 0.7858 -1.209
7.725000 0.7926 -1.141
7.738500 0.7994 -1.072
7.752000 0.8064 -1.003
7.765500 0.814 -0.9332
7.779000 0.8218 -0.8622
7.792500 0.8298 -0.7916
7.806000 0.8378 -0.7198
7.819500 0.8468 -0.6476
7.833000 0.8558 -0.5746
7.846500 0.8648 -0.501
7.860000 0.8744 -0.4262
7.873500 0.8844 -0.351
7.887000 0.8948 -0.2746
7.900500 0.9052 -0.1978
7.914000 0.9164 -0.1198
7.927500 0.9282 -0.0412
7.941000 0.94 0.0382
7.954500 0.953 0.1186
7.968000 0.9664 0.2004
7.981500 0.9804 0.283
7.995000 0.9952 0.3664
8.008500 1.011 0.4514
8.022000 1.027 0.5374
8.035500 1.045 0.6248
8.049000 1.063 0.7132
8.062500 1.082 0.8038
8.076000 1.102 0.8956
8.089500 1.124 0.989
8.103000 1.147 1.084
8.116500 1.171 1.181
8.130000 1.197 1.279
8.143500 1.224 1.38
8.157000 1.253 1.482
8.170500 1.284 1.586
8.184000 1.316 1.691
8.197500 1.353 1.8
8.211000 1.388 1.909
8.224500 1.427 2.022
8.238000 1.467 2.138
8.251500 1.513 2.255
8.265000 1.56 2.372
8.278500 1.61 2.495
8.292000 1.663 2.62
8.305500 1.721 2.748
8.319000 1.783 2.877
8.332500 1.846 3.008
8.346000 1.916 3.146
8.359500 1.989 3.282
8.373000 2.068 3.421
8.386500 2.154 3.564
8.400000 2.243 3.711
8.413500 2.343 3.855
8.427000 2.445 4.007
8.440500 2.557 4.156
8.454000 2.676 4.308
8.467500 2.803 4.456
8.481000 2.938 4.612
8.494500 3.079 4.769
8.508000 3.227 4.915
8.521500 3.391 5.074
8.535000 3.565 5.224
8.548500 3.746 5.373
8.562000 3.936 5.515
8.575500 4.145 5.656
8.589000 4.354 5.801
8.602500 4.58 5.93
8.616000 4.813 6.051
8.629500 5.06 6.171
8.643000 5.3 6.278
8.656500 5.578 6.369
8.670000 5.832 6.454
8.683500 6.112 6.535
8.697000 6.398 6.599
8.710500 6.684 6.655
8.724000 6.966 6.687
8.737500 7.258 6.722
8.751000 7.55 6.718
8.764500 7.831 6.732
8.778000 8.143 6.731
8.791500 8.417 6.694
8.805000 8.712 6.645
8.818500 8.991 6.609
8.832000 9.265 6.587
8.845500 9.549 6.524
8.859000 9.812 6.465
8.872500 10.1 6.412
8.886000 10.36 6.343
8.899500 10.6 6.269
8.913000 10.88 6.187
8.926500 11.13 6.125
8.940000 11.38 6.041
8.953500 11.65 5.98
8.967000 11.91 5.894
8.980500 12.17 5.836
8.994000 12.47 5.749
9.007500 12.74 5.657
9.021000 13.03 5.607
9.034500 13.33 5.514
9.048000 13.65 5.452
9.061500 13.99 5.371
9.075000 14.31 5.259
9.088500 14.62 5.156
9.102000 15 5.038
9.115500 15.41 4.894
9.129000 15.78 4.735
9.142500 16.21 4.564
9.156000 16.65 4.395
9.169500 17.12 4.153
9.183000 17.59 3.909
9.196500 18.03 3.672
9.210000 18.51 3.39
9.223500 19.06 2.971
9.237000 19.52 2.554
9.250500 20.08 2.134
9.264000 20.57 1.621
9.277500 21.07 1.007
9.291000 21.53 0.3628
9.304500 21.94 -0.3528
9.318000 22.37 -1.119
9.331500 22.68 -1.929
9.345000 23.04 -2.838
9.358500 23.24 -3.756
9.372000 23.39 -4.789
9.385500 23.42 -5.762
9.399000 23.46 -6.868
9.412500 23.29 -7.862
9.426000 23.01 -8.937
9.439500 22.75 -10.01
9.453000 22.24 -11
9.466500 21.74 -11.95
9.480000 21.05 -12.81
9.493500 20.35 -13.68
9.507000 19.53 -14.36
9.520500 18.75 -14.97
9.534000 17.98 -15.6
9.547500 17.07 -15.98
9.561000 16.21 -16.34
9.574500 15.35 -16.63
9.588000 14.48 -16.83
9.601500 13.63 -16.97
9.615000 12.87 -17.03
9.628500 12.08 -17.09
9.642000 11.27 -17.02
9.655500 10.62 -16.99
9.669000 9.962 -16.84
9.682500 9.347 -16.69
9.696000 8.787 -16.51
9.709500 8.24 -16.3
9.723000 7.707 -16.14
9.736500 7.225 -15.92
9.750000 6.776 -15.66
9.763500 6.363 -15.43
9.777000 5.946 -15.19
9.790500 5.595 -14.93
9.804000 5.273 -14.67
9.817500 4.951 -14.43
9.831000 4.663 -14.17
9.844500 4.427 -13.93
9.858000 4.159 -13.68
9.871500 3.91 -13.46
9.885000 3.696 -13.24
9.898500 3.517 -12.97
9.912000 3.302 -12.78
9.925500 3.143 -12.55
9.939000 2.974 -12.31
9.952500 2.891 -12.03
9.966000 2.674 -11.9
9.979500 2.54 -11.71
9.993000 2.427 -11.5
10.006500 2.302 -11.32
10.020000 2.209 -11.13
10.033500 2.096 -10.95
10.047000 2.008 -10.76
10.060500 1.921 -10.6
10.074000 1.831 -10.42
10.087500 1.759 -10.26
10.101000 1.692 -10.09
10.114500 1.625 -9.935
10.128000 1.565 -9.788
10.141500 1.5 -9.637
10.155000 1.44 -9.493
10.168500 1.393 -9.346
10.182000 1.351 -9.208
10.195500 1.301 -9.07
10.209000 1.26 -8.951
10.222500 1.223 -8.808
10.236000 1.183 -8.689
10.249500 1.143 -8.562
10.263000 1.137 -8.48
10.276500 1.087 -8.315
10.290000 1.058 -8.211
10.303500 1.023 -8.096
10.317000 1.007 -7.989
10.330500 0.9868 -7.875
10.344000 0.9548 -7.772
10.357500 0.9386 -7.675
10.371000 0.9194 -7.577
10.384500 0.9032 -7.47
10.398000 0.883 -7.381
10.411500 0.8674 -7.284
10.425000 0.8554 -7.193
10.438500 0.8444 -7.107
10.452000 0.827 -7.014
10.465500 0.8168 -6.926
10.479000 0.8058 -6.844
10.492500 0.7954 -6.762
10.506000 0.7842 -6.68
10.519500 0.7806 -6.597
10.533000 0.768 -6.523
10.546500 0.7634 -6.443
10.560000 0.7606 -6.37
10.573500 0.7542 -6.294
10.587000 0.7454 -6.222
10.600500 0.7408 -6.146
10.614000 0.7378 -6.078
10.627500 0.7314 -6.01
10.641000 0.7312 -5.944
10.654500 0.7306 -5.871
10.668000 0.7248 -5.81
10.681500 0.7234 -5.748
10.695000 0.7198 -5.681
10.708500 0.722 -5.618
10.722000 0.7156 -5.562
10.735500 0.7112 -5.496
10.749000 0.7154 -5.439
10.762500 0.712 -5.381
10.776000 0.7094 -5.321
10.789500 0.7112 -5.266
10.803000 0.7126 -5.211
10.816500 0.7086 -5.155
10.830000 0.7054 -5.103
10.843500 0.7054 -5.048
10.857000 0.7062 -4.995
10.870500 0.703 -4.946
10.884000 0.7002 -4.895
10.897500 0.7014 -4.84
10.911000 0.6978 -4.791
10.924500 0.699 -4.741
10.938000 0.698 -4.694
10.951500 0.6962 -4.645
10.965000 0.6954 -4.595
10.978500 0.6922 -4.548
10.992000 0.6938 -4.502
11.005500 0.6916 -4.451
11.019000 0.6886 -4.408
11.032500 0.6864 -4.361
11.046000 0.6868 -4.314
11.059500 0.6846 -4.268
11.073000 0.6828 -4.223
11.086500 0.682 -4.18
11.100000 0.6802 -4.135
11.113500 0.6774 -4.091
11.127000 0.6746 -4.047
11.140500 0.673 -4.004
11.154000 0.671 -3.96
11.167500 0.669 -3.914
11.181000 0.665 -3.872
11.194500 0.6622 -3.83
11.208000 0.6588 -3.783
11.221500 0.6586 -3.742
11.235000 0.6546 -3.696
11.248500 0.6506 -3.653
11.262000 0.6476 -3.61
11.275500 0.6444 -3.564
11.289000 0.6396 -3.518
11.302500 0.6358 -3.473
11.316000 0.633 -3.43
11.329500 0.629 -3.383
11.343000 0.6244 -3.34
11.356500 0.6208 -3.293
11.370000 0.6168 -3.247
11.383500 0.6128 -3.201
11.397000 0.6094 -3.155
11.410500 0.605 -3.107
11.424000 0.6014 -3.06
11.437500 0.5968 -3.012
11.451000 0.5936 -2.964
11.464500 0.5894 -2.917
11.478000 0.5864 -2.869
11.491500 0.583 -2.82
11.505000 0.5792 -2.769
11.518500 0.5768 -2.719
11.532000 0.5732 -2.668
11.545500 0.5708 -2.616
11.559000 0.5694 -2.565
11.572500 0.568 -2.512
11.586000 0.5662 -2.459
11.599500 0.5652 -2.406
11.613000 0.5638 -2.351
11.626500 0.5622 -2.298
11.640000 0.5628 -2.242
11.653500 0.563 -2.187
11.667000 0.5626 -2.13
11.680500 0.5632 -2.074
11.694000 0.5644 -2.016
11.707500 0.5658 -1.958
11.721000 0.5678 -1.899
11.734500 0.5696 -1.839
11.748000 0.5726 -1.779
11.761500 0.5752 -1.718
11.775000 0.58 -1.655
11.788500 0.5828 -1.593
11.802000 0.5872 -1.529
11.815500 0.5912 -1.465
11.829000 0.597 -1.4
11.842500 0.6028 -1.334
11.856000 0.6094 -1.267
11.869500 0.6158 -1.199
11.883000 0.623 -1.13
11.896500 0.631 -1.06
11.910000 0.6392 -0.9884
11.923500 0.6486 -0.9164
11.937000 0.6582 -0.8428
11.950500 0.6682 -0.768
11.964000 0.6792 -0.6918
11.977500 0.6908 -0.6146
11.991000 0.703 -0.5362
12.004500 0.7158 -0.4564
12.018000 0.7296 -0.3748
12.031500 0.7438 -0.2918
12.045000 0.7588 -0.2076
12.058500 0.7752 -0.1216
12.072000 0.7922 -0.034
12.085500 0.8098 0.0552
12.099000 0.8286 0.1464
12.112500 0.8486 0.2392
12.126000 0.87 0.334
12.139500 0.8924 0.4306
12.153000 0.9168 0.5294
12.166500 0.9422 0.6306
12.180000 0.969 0.7338
12.193500 0.9984 0.8396
12.207000 1.03 0.948
12.220500 1.062 1.059
12.234000 1.097 1.173
12.247500 1.134 1.291
12.261000 1.175 1.412
12.274500 1.217 1.536
12.288000 1.26 1.663
12.301500 1.309 1.796
12.315000 1.36 1.931
12.328500 1.415 2.071
12.342000 1.474 2.216
12.355500 1.536 2.365
12.369000 1.604 2.519
12.382500 1.675 2.679
12.396000 1.754 2.846
12.409500 1.837 3.017
12.423000 1.926 3.195
12.436500 2.023 3.379
12.450000 2.127 3.569
12.463500 2.24 3.771
12.477000 2.361 3.977
12.490500 2.496 4.192
12.504000 2.641 4.417
12.517500 2.799 4.651
12.531000 2.971 4.895
12.544500 3.161 5.138
12.558000 3.352 5.413
12.571500 3.588 5.675
12.585000 3.836 5.966
12.598500 4.103 6.258
12.612000 4.406 6.563
12.625500 4.739 6.888
12.639000 5.119 7.208
12.652500 5.521 7.54
12.666000 5.983 7.89
12.679500 6.498 8.252
12.693000 7.076 8.59
12.706500 7.642 8.972
12.720000 8.435 9.255
12.733500 9.277 9.576
12.747000 10.18 9.863
12.760500 11.19 10.12
12.774000 12.34 10.28
12.787500 13.59 10.33
12.801000 15 10.22
12.814500 16.49 9.984
12.828000 18.16 9.579
12.841500 19.82 8.754
12.855000 21.5 7.688
12.868500 23.17 6.285
12.882000 24.58 4.341
12.895500 25.69 2.179
12.909000 26.52 -0.2238
12.922500 26.65 -2.828
12.936000 26.36 -5.159
12.949500 25.61 -7.81
12.963000 24.51 -9.909
12.976500 23.05 -11.67
12.990000 21.37 -13.1
13.003500 19.75 -14.2
13.017000 18.15 -14.88
13.030500 16.5 -15.38
13.044000 15.03 -15.63
13.057500 13.6 -15.71
13.071000 12.37 -15.61
13.084500 11.24 -15.47
13.098000 10.25 -15.23
13.111500 9.351 -14.92
13.125000 8.581 -14.62
13.138500 7.861 -14.3
13.152000 7.216 -13.99
13.165500 6.686 -13.62
13.179000 6.185 -13.3
13.192500 5.748 -12.98
13.206000 5.321 -12.64
13.219500 4.942 -12.29
13.233000 4.642 -11.99
13.246500 4.326 -11.71
13.260000 4.078 -11.43
13.273500 3.838 -11.15
13.287000 3.61 -10.87
13.300500 3.412 -10.61
13.314000 3.234 -10.36
13.327500 3.056 -10.13
13.341000 2.91 -9.916
13.354500 2.762 -9.686
13.368000 2.654 -9.484
13.381500 2.523 -9.272
13.395000 2.406 -9.074
13.408500 2.317 -8.893
13.422000 2.211 -8.699
13.435500 2.125 -8.533
13.449000 2.047 -8.362
13.462500 1.976 -8.188
13.476000 1.907 -8.035
13.489500 1.84 -7.884
13.503000 1.786 -7.733
13.516500 1.728 -7.582
13.530000 1.674 -7.446
13.543500 1.627 -7.309
13.557000 1.584 -7.177
13.570500 1.542 -7.054
13.584000 1.499 -6.929
13.597500 1.471 -6.806
13.611000 1.434 -6.689
13.624500 1.408 -6.572
13.638000 1.377 -6.458
13.651500 1.35 -6.349
13.665000 1.32 -6.245
13.678500 1.301 -6.135
13.692000 1.283 -6.038
13.705500 1.261 -5.936
13.719000 1.243 -5.841
13.732500 1.227 -5.745
13.746000 1.209 -5.647
13.759500 1.197 -5.552
13.773000 1.18 -5.463
13.786500 1.168 -5.373
13.800000 1.157 -5.29
13.813500 1.15 -5.2
13.827000 1.141 -5.117
13.840500 1.131 -5.031
13.854000 1.123 -4.95
13.867500 1.119 -4.871
13.881000 1.112 -4.79
13.894500 1.111 -4.71
13.908000 1.104 -4.635
13.921500 1.101 -4.557
13.935000 1.097 -4.48
13.948500 1.098 -4.404
13.962000 1.097 -4.331
13.975500 1.096 -4.258
13.989000 1.096 -4.183
14.002500 1.098 -4.112
14.016000 1.1 -4.039
14.029500 1.104 -3.966
14.043000 1.108 -3.896
14.056500 1.108 -3.825
14.070000 1.115 -3.755
14.083500 1.122 -3.683
14.097000 1.127 -3.612
14.110500 1.131 -3.545
14.124000 1.147 -3.469
14.137500 1.149 -3.406
14.151000 1.157 -3.337
14.164500 1.165 -3.268
14.178000 1.176 -3.2
14.191500 1.187 -3.132
14.205000 1.197 -3.063
14.218500 1.209 -2.993
14.232000 1.221 -2.923
14.245500 1.236 -2.854
14.259000 1.251 -2.785
14.272500 1.265 -2.713
14.286000 1.282 -2.642
14.299500 1.3 -2.571
14.313000 1.317 -2.499
14.326500 1.337 -2.429
14.340000 1.357 -2.358
14.353500 1.379 -2.284
14.367000 1.401 -2.21
14.380500 1.425 -2.136
14.394000 1.45 -2.061
14.407500 1.476 -1.986
14.421000 1.503 -1.909
14.434500 1.533 -1.831
14.448000 1.564 -1.753
14.461500 1.596 -1.674
14.475000 1.631 -1.594
14.488500 1.667 -1.513
14.502000 1.705 -1.431
14.515500 1.745 -1.348
14.529000 1.788 -1.263
14.542500 1.832 -1.178
14.556000 1.878 -1.09
14.569500 1.927 -1.003
14.583000 1.98 -0.9158
14.596500 2.034 -0.8246
14.610000 2.093 -0.7334
14.623500 2.155 -0.6408
14.637000 2.221 -0.5478
14.650500 2.287 -0.4526
14.664000 2.362 -0.3558
14.677500 2.438 -0.2602
14.691000 2.519 -0.1612
14.704500 2.606 -0.0622
14.718000 2.698 0.037
14.731500 2.796 0.1384
14.745000 2.898 0.2392
14.758500 3.01 0.3418
14.772000 3.128 0.4436
14.785500 3.252 0.547
14.799000 3.384 0.6484
14.812500 3.526 0.75
14.826000 3.676 0.8514
14.839500 3.834 0.9502
14.853000 4.006 1.05
14.866500 4.189 1.145
14.880000 4.382 1.238
14.893500 4.585 1.325
14.907000 4.804 1.412
14.920500 5.04 1.49
14.934000 5.284 1.558
14.947500 5.551 1.616
14.961000 5.831 1.667
14.974500 6.123 1.704
14.988000 6.429 1.722
15.001500 6.757 1.728
15.015000 7.091 1.683
15.028500 7.447 1.673
15.042000 7.813 1.607
15.055500 8.2 1.514
