! Touchstone file generated by AntScope2
# MHz Z RI R 50
! Format: Frequency Z-real Z-imaginary (normalized to 50 Ohm)
3.000000 1.237 11.01
3.013500 1.319 11.45
3.027000 1.42 11.94
3.040500 1.532 12.46
3.054000 1.658 13
3.067500 1.806 13.61
3.081000 1.962 14.21
3.094500 2.145 14.89
3.108000 2.352 15.61
3.121500 2.588 16.39
3.135000 2.872 17.27
3.148500 3.184 18.19
3.162000 3.519 19.13
3.175500 3.938 20.23
3.189000 4.455 21.48
3.202500 4.996 22.72
3.216000 5.684 24.16
3.229500 6.492 25.73
3.243000 7.496 27.51
3.256500 8.639 29.38
3.270000 10.12 31.57
3.283500 12.01 34.07
3.297000 14.22 36.64
3.310500 17.29 39.75
3.324000 21.13 43.02
3.337500 26.13 46.46
3.351000 32.86 49.95
3.364500 41.77 52.91
3.378000 54.55 54.41
3.391500 69.49 52.29
3.405000 87.34 43.35
3.418500 102.7 25.23
3.432000 108.9 -0.0608
3.445500 102.4 -25.78
3.459000 87.01 -43.63
3.472500 70.18 -52.12
3.486000 55.56 -54.43
3.499500 43.47 -53.33
3.513000 34.42 -50.63
3.526500 27.7 -47.43
3.540000 22.48 -44.08
3.553500 18.69 -41.06
3.567000 15.66 -38.21
3.580500 13.4 -35.76
3.594000 11.38 -33.31
3.607500 9.921 -31.33
3.621000 8.647 -29.43
3.634500 7.629 -27.78
3.648000 6.782 -26.3
3.661500 6.032 -24.9
3.675000 5.43 -23.69
3.688500 4.87 -22.49
3.702000 4.437 -21.51
3.715500 4.005 -20.48
3.729000 3.654 -19.59
3.742500 3.362 -18.81
3.756000 3.083 -18.01
3.769500 2.842 -17.31
3.783000 2.629 -16.65
3.796500 2.44 -16.04
3.810000 2.267 -15.45
3.823500 2.106 -14.89
3.837000 1.967 -14.39
3.850500 1.839 -13.9
3.864000 1.726 -13.45
3.877500 1.619 -13.02
3.891000 1.519 -12.6
3.904500 1.431 -12.22
3.918000 1.348 -11.84
3.931500 1.27 -11.48
3.945000 1.211 -11.19
3.958500 1.133 -10.81
3.972000 1.071 -10.49
3.985500 1.016 -10.19
3.999000 0.9662 -9.916
4.012500 0.9178 -9.641
4.026000 0.872 -9.375
4.039500 0.828 -9.11
4.053000 0.7872 -8.858
4.066500 0.7512 -8.618
4.080000 0.7166 -8.386
4.093500 0.6816 -8.15
4.107000 0.6616 -7.93
4.120500 0.667 -7.713
4.134000 0.685 -7.502
4.147500 0.696 -7.295
4.161000 0.7056 -7.089
4.174500 0.7116 -6.898
4.188000 0.729 -6.706
4.201500 0.7392 -6.512
4.215000 0.7456 -6.33
4.228500 0.7588 -6.152
4.242000 0.7658 -5.975
4.255500 0.7792 -5.803
4.269000 0.79 -5.631
4.282500 0.8004 -5.46
4.296000 0.8124 -5.296
4.309500 0.8228 -5.13
4.323000 0.8378 -4.971
4.336500 0.8506 -4.813
4.350000 0.8628 -4.657
4.363500 0.8772 -4.501
4.377000 0.8928 -4.348
4.390500 0.907 -4.197
4.404000 0.9208 -4.05
4.417500 0.9406 -3.898
4.431000 0.953 -3.749
4.444500 0.9696 -3.601
4.458000 0.9882 -3.455
4.471500 1.006 -3.311
4.485000 1.024 -3.166
4.498500 1.043 -3.02
4.512000 1.063 -2.875
4.525500 1.082 -2.73
4.539000 1.103 -2.586
4.552500 1.125 -2.442
4.566000 1.147 -2.297
4.579500 1.17 -2.152
4.593000 1.194 -2.006
4.606500 1.22 -1.859
4.620000 1.247 -1.712
4.633500 1.274 -1.563
4.647000 1.302 -1.414
4.660500 1.331 -1.264
4.674000 1.361 -1.112
4.687500 1.391 -0.9568
4.701000 1.425 -0.8026
4.714500 1.458 -0.646
4.728000 1.492 -0.4872
4.741500 1.528 -0.3266
4.755000 1.566 -0.1642
4.768500 1.605 0.001
4.782000 1.647 0.1676
4.795500 1.691 0.3376
4.809000 1.737 0.5094
4.822500 1.785 0.6858
4.836000 1.837 0.8646
4.849500 1.892 1.046
4.863000 1.952 1.233
4.876500 2.014 1.423
4.890000 2.081 1.617
4.903500 2.154 1.817
4.917000 2.228 2.02
4.930500 2.311 2.231
4.944000 2.397 2.442
4.957500 2.492 2.664
4.971000 2.59 2.893
4.984500 2.696 3.127
4.998000 2.813 3.369
5.011500 2.932 3.622
5.025000 3.06 3.883
5.038500 3.216 4.15
5.052000 3.365 4.426
5.065500 3.54 4.715
5.079000 3.721 5.016
5.092500 3.921 5.324
5.106000 4.135 5.651
5.119500 4.373 5.987
5.133000 4.641 6.34
5.146500 4.928 6.703
5.160000 5.239 7.091
5.173500 5.588 7.484
5.187000 5.981 7.877
5.200500 6.431 8.325
5.214000 6.896 8.765
5.227500 7.438 9.209
5.241000 8.069 9.68
5.254500 8.715 10.16
5.268000 9.493 10.62
5.281500 10.36 11.08
5.295000 11.33 11.54
5.308500 12.44 11.99
5.322000 13.66 12.35
5.335500 15.11 12.66
5.349000 16.69 12.86
5.362500 18.45 12.9
5.376000 20.4 12.66
5.389500 22.52 12.18
5.403000 24.8 11.31
5.416500 27.06 9.99
5.430000 29.37 8.167
5.443500 31.36 5.69
5.457000 32.78 2.797
5.470500 33.75 -0.4886
5.484000 34.16 -4.005
5.497500 33.55 -7.419
5.511000 32.43 -10.62
5.524500 30.73 -13.16
5.538000 28.64 -15.53
5.551500 26.44 -17.19
5.565000 24.24 -18.29
5.578500 21.89 -19.1
5.592000 19.88 -19.57
5.605500 18.01 -19.65
5.619000 16.29 -19.59
5.632500 14.76 -19.38
5.646000 13.35 -19.02
5.659500 12.16 -18.65
5.673000 11.11 -18.23
5.686500 10.2 -17.72
5.700000 9.359 -17.22
5.713500 8.663 -16.74
5.727000 7.973 -16.29
5.740500 7.407 -15.84
5.754000 6.885 -15.36
5.767500 6.454 -14.93
5.781000 6.029 -14.53
5.794500 5.668 -14.09
5.808000 5.384 -13.69
5.821500 5.083 -13.33
5.835000 4.815 -12.98
5.848500 4.587 -12.59
5.862000 4.398 -12.26
5.875500 4.177 -11.95
5.889000 4.03 -11.63
5.902500 3.883 -11.34
5.916000 3.752 -11.05
5.929500 3.616 -10.8
5.943000 3.527 -10.52
5.956500 3.432 -10.28
5.970000 3.346 -10.04
5.983500 3.275 -9.808
5.997000 3.195 -9.583
6.010500 3.139 -9.361
6.024000 3.08 -9.158
6.037500 3.044 -8.951
6.051000 3.008 -8.761
6.064500 2.976 -8.57
6.078000 2.957 -8.385
6.091500 2.942 -8.217
6.105000 2.922 -8.044
6.118500 2.911 -7.876
6.132000 2.908 -7.725
6.145500 2.921 -7.572
6.159000 2.933 -7.427
6.172500 2.947 -7.282
6.186000 2.963 -7.148
6.199500 2.993 -7.025
6.213000 3.023 -6.901
6.226500 3.06 -6.78
6.240000 3.109 -6.674
6.253500 3.155 -6.582
6.267000 3.212 -6.483
6.280500 3.269 -6.401
6.294000 3.331 -6.332
6.307500 3.392 -6.266
6.321000 3.458 -6.213
6.334500 3.528 -6.165
6.348000 3.597 -6.14
6.361500 3.671 -6.123
6.375000 3.731 -6.116
6.388500 3.797 -6.127
6.402000 3.858 -6.152
6.415500 3.913 -6.185
6.429000 3.953 -6.227
6.442500 3.987 -6.29
6.456000 4.005 -6.356
6.469500 4.015 -6.427
6.483000 4.001 -6.501
6.496500 3.971 -6.595
6.510000 3.929 -6.674
6.523500 3.867 -6.756
6.537000 3.79 -6.829
6.550500 3.7 -6.901
6.564000 3.591 -6.96
6.577500 3.476 -7.004
6.591000 3.349 -7.044
6.604500 3.218 -7.058
6.618000 3.086 -7.064
6.631500 2.949 -7.066
6.645000 2.813 -7.048
6.658500 2.675 -7.011
6.672000 2.546 -6.974
6.685500 2.412 -6.924
6.699000 2.292 -6.864
6.712500 2.174 -6.789
6.726000 2.062 -6.722
6.739500 1.956 -6.641
6.753000 1.86 -6.551
6.766500 1.76 -6.471
6.780000 1.673 -6.378
6.793500 1.595 -6.288
6.807000 1.525 -6.194
6.820500 1.447 -6.099
6.834000 1.386 -6.003
6.847500 1.327 -5.918
6.861000 1.276 -5.815
6.874500 1.223 -5.721
6.888000 1.177 -5.621
6.901500 1.133 -5.53
6.915000 1.094 -5.437
6.928500 1.059 -5.347
6.942000 1.025 -5.252
6.955500 0.9924 -5.168
6.969000 0.9628 -5.078
6.982500 0.9414 -4.992
6.996000 0.9154 -4.906
7.009500 0.8938 -4.82
7.023000 0.8744 -4.737
7.036500 0.856 -4.651
7.050000 0.8368 -4.572
7.063500 0.8244 -4.492
7.077000 0.8066 -4.41
7.090500 0.7968 -4.332
7.104000 0.7848 -4.256
7.117500 0.7722 -4.176
7.131000 0.7642 -4.1
7.144500 0.7562 -4.026
7.158000 0.7498 -3.952
7.171500 0.7394 -3.878
7.185000 0.7336 -3.803
7.198500 0.7272 -3.733
7.212000 0.723 -3.661
7.225500 0.7174 -3.59
7.239000 0.7148 -3.518
7.252500 0.7108 -3.451
7.266000 0.707 -3.381
7.279500 0.706 -3.311
7.293000 0.7034 -3.245
7.306500 0.7014 -3.177
7.320000 0.6988 -3.108
7.333500 0.6984 -3.043
7.347000 0.6984 -2.976
7.360500 0.6978 -2.911
7.374000 0.697 -2.844
7.387500 0.6978 -2.779
7.401000 0.698 -2.714
7.414500 0.7 -2.648
7.428000 0.7016 -2.584
7.441500 0.7026 -2.519
7.455000 0.7052 -2.454
7.468500 0.7074 -2.389
7.482000 0.708 -2.323
7.495500 0.712 -2.26
7.509000 0.714 -2.195
7.522500 0.7168 -2.13
7.536000 0.72 -2.067
7.549500 0.723 -2.002
7.563000 0.7278 -1.937
7.576500 0.7314 -1.872
7.590000 0.736 -1.807
7.603500 0.7406 -1.742
7.617000 0.745 -1.677
7.630500 0.7506 -1.612
7.644000 0.7556 -1.546
7.657500 0.761 -1.48
7.671000 0.7674 -1.413
7.684500 0.7734 -1.346
7.698000 0.7796 -1.279
7.711500 0.786 -1.211
7.725000 0.793 -1.143
7.738500 0.7996 -1.074
7.752000 0.8076 -1.005
7.765500 0.8154 -0.9354
7.779000 0.823 -0.8654
7.792500 0.8316 -0.7946
7.806000 0.84 -0.7232
7.819500 0.849 -0.6508
7.833000 0.8582 -0.5782
7.846500 0.8678 -0.5046
7.860000 0.8776 -0.4306
7.873500 0.8876 -0.3554
7.887000 0.898 -0.2792
7.900500 0.9092 -0.2026
7.914000 0.9208 -0.1252
7.927500 0.9326 -0.0468
7.941000 0.945 0.0326
7.954500 0.958 0.1128
7.968000 0.9714 0.1944
7.981500 0.9856 0.2766
7.995000 1 0.3598
8.008500 1.016 0.4446
8.022000 1.033 0.5306
8.035500 1.05 0.6176
8.049000 1.068 0.7062
8.062500 1.087 0.7962
8.076000 1.107 0.8874
8.089500 1.128 0.981
8.103000 1.152 1.075
8.116500 1.176 1.172
8.130000 1.202 1.27
8.143500 1.229 1.37
8.157000 1.258 1.472
8.170500 1.288 1.576
8.184000 1.321 1.682
8.197500 1.357 1.79
8.211000 1.393 1.901
8.224500 1.431 2.013
8.238000 1.473 2.129
8.251500 1.517 2.245
8.265000 1.565 2.364
8.278500 1.616 2.486
8.292000 1.669 2.61
8.305500 1.726 2.737
8.319000 1.786 2.867
8.332500 1.851 2.999
8.346000 1.919 3.136
8.359500 1.994 3.273
8.373000 2.073 3.411
8.386500 2.158 3.552
8.400000 2.239 3.694
8.413500 2.347 3.845
8.427000 2.45 3.991
8.440500 2.562 4.144
8.454000 2.68 4.295
8.467500 2.808 4.446
8.481000 2.94 4.597
8.494500 3.083 4.751
8.508000 3.236 4.903
8.521500 3.398 5.052
8.535000 3.568 5.205
8.548500 3.75 5.347
8.562000 3.947 5.494
8.575500 4.146 5.631
8.589000 4.356 5.774
8.602500 4.584 5.908
8.616000 4.821 6.021
8.629500 5.062 6.14
8.643000 5.308 6.25
8.656500 5.574 6.346
8.670000 5.837 6.439
8.683500 6.12 6.493
8.697000 6.402 6.559
8.710500 6.687 6.602
8.724000 6.973 6.643
8.737500 7.272 6.668
8.751000 7.557 6.677
8.764500 7.858 6.672
8.778000 8.159 6.674
8.791500 8.431 6.636
8.805000 8.717 6.607
8.818500 9.014 6.56
8.832000 9.29 6.528
8.845500 9.556 6.451
8.859000 9.842 6.386
8.872500 10.12 6.335
8.886000 10.37 6.265
8.899500 10.64 6.197
8.913000 10.9 6.124
8.926500 11.16 6.048
8.940000 11.41 5.958
8.953500 11.67 5.871
8.967000 11.93 5.795
8.980500 12.19 5.726
8.994000 12.49 5.642
9.007500 12.76 5.56
9.021000 13.02 5.486
9.034500 13.3 5.414
9.048000 13.61 5.322
9.061500 13.92 5.237
9.075000 14.26 5.122
9.088500 14.62 5.002
9.102000 14.97 4.866
9.115500 15.34 4.783
9.129000 15.73 4.623
9.142500 16.06 4.459
9.156000 16.53 4.275
9.169500 16.97 4.055
9.183000 17.41 3.813
9.196500 17.9 3.537
9.210000 18.42 3.247
9.223500 18.88 2.913
9.237000 19.32 2.48
9.250500 19.87 2.05
9.264000 20.34 1.541
9.277500 20.81 0.953
9.291000 21.32 0.387
9.304500 21.78 -0.3004
9.318000 22.22 -1.049
9.331500 22.56 -1.911
9.345000 22.82 -2.764
9.358500 23.11 -3.682
9.372000 23.23 -4.699
9.385500 23.32 -5.676
9.399000 23.36 -6.761
9.412500 23.19 -7.819
9.426000 22.98 -8.836
9.439500 22.66 -9.966
9.453000 22.23 -10.97
9.466500 21.67 -11.95
9.480000 21.05 -12.76
9.493500 20.38 -13.64
9.507000 19.57 -14.35
9.520500 18.79 -14.98
9.534000 17.9 -15.6
9.547500 17.05 -15.98
9.561000 16.17 -16.36
9.574500 15.34 -16.72
9.588000 14.49 -16.89
9.601500 13.64 -17.05
9.615000 12.85 -17.1
9.628500 12.1 -17.15
9.642000 11.3 -17.09
9.655500 10.63 -17.04
9.669000 9.936 -16.85
9.682500 9.35 -16.76
9.696000 8.714 -16.55
9.709500 8.151 -16.33
9.723000 7.674 -16.17
9.736500 7.169 -15.97
9.750000 6.744 -15.68
9.763500 6.314 -15.46
9.777000 5.936 -15.22
9.790500 5.581 -14.95
9.804000 5.254 -14.69
9.817500 4.929 -14.48
9.831000 4.657 -14.22
9.844500 4.452 -13.94
9.858000 4.152 -13.72
9.871500 3.897 -13.48
9.885000 3.685 -13.17
9.898500 3.495 -12.99
9.912000 3.309 -12.77
9.925500 3.126 -12.56
9.939000 2.962 -12.34
9.952500 2.809 -12.12
9.966000 2.656 -11.9
9.979500 2.538 -11.71
9.993000 2.408 -11.51
10.006500 2.299 -11.33
10.020000 2.195 -11.14
10.033500 2.091 -10.95
10.047000 2.014 -10.77
10.060500 1.914 -10.59
10.074000 1.85 -10.43
10.087500 1.77 -10.26
10.101000 1.699 -10.1
10.114500 1.628 -9.95
10.128000 1.566 -9.788
10.141500 1.508 -9.628
10.155000 1.451 -9.49
10.168500 1.407 -9.349
10.182000 1.357 -9.214
10.195500 1.303 -9.072
10.209000 1.257 -8.944
10.222500 1.222 -8.812
10.236000 1.191 -8.682
10.249500 1.155 -8.564
10.263000 1.067 -8.45
10.276500 1.101 -8.325
10.290000 1.057 -8.212
10.303500 1.027 -8.094
10.317000 1.008 -7.988
10.330500 0.9918 -7.879
10.344000 0.9702 -7.779
10.357500 0.943 -7.677
10.371000 0.9248 -7.574
10.384500 0.905 -7.482
10.398000 0.8888 -7.386
10.411500 0.875 -7.29
10.425000 0.86 -7.195
10.438500 0.8482 -7.105
10.452000 0.8288 -7.019
10.465500 0.8218 -6.934
10.479000 0.811 -6.854
10.492500 0.7976 -6.773
10.506000 0.7902 -6.684
10.519500 0.7818 -6.605
10.533000 0.7756 -6.529
10.546500 0.7658 -6.453
10.560000 0.7608 -6.372
10.573500 0.755 -6.3
10.587000 0.7466 -6.225
10.600500 0.7472 -6.155
10.614000 0.7428 -6.084
10.627500 0.7358 -6.014
10.641000 0.736 -5.953
10.654500 0.7316 -5.882
10.668000 0.728 -5.818
10.681500 0.7226 -5.754
10.695000 0.723 -5.689
10.708500 0.7224 -5.626
10.722000 0.7178 -5.571
10.735500 0.7136 -5.507
10.749000 0.7132 -5.447
10.762500 0.7132 -5.386
10.776000 0.7094 -5.329
10.789500 0.7104 -5.272
10.803000 0.708 -5.215
10.816500 0.706 -5.163
10.830000 0.7044 -5.108
10.843500 0.703 -5.055
10.857000 0.704 -5.001
10.870500 0.703 -4.949
10.884000 0.7002 -4.897
10.897500 0.6994 -4.844
10.911000 0.6998 -4.795
10.924500 0.6956 -4.744
10.938000 0.6962 -4.694
10.951500 0.6942 -4.643
10.965000 0.694 -4.598
10.978500 0.6922 -4.55
10.992000 0.692 -4.499
11.005500 0.6916 -4.456
11.019000 0.6896 -4.407
11.032500 0.6868 -4.36
11.046000 0.6876 -4.313
11.059500 0.687 -4.27
11.073000 0.684 -4.226
11.086500 0.6826 -4.179
11.100000 0.6814 -4.137
11.113500 0.6778 -4.092
11.127000 0.6768 -4.047
11.140500 0.6736 -4.003
11.154000 0.6708 -3.96
11.167500 0.6686 -3.916
11.181000 0.6666 -3.871
11.194500 0.6644 -3.829
11.208000 0.6588 -3.785
11.221500 0.6572 -3.741
11.235000 0.654 -3.696
11.248500 0.6508 -3.654
11.262000 0.6476 -3.609
11.275500 0.6432 -3.564
11.289000 0.6418 -3.52
11.302500 0.637 -3.476
11.316000 0.6322 -3.432
11.329500 0.63 -3.387
11.343000 0.6248 -3.34
11.356500 0.6218 -3.295
11.370000 0.6168 -3.249
11.383500 0.613 -3.203
11.397000 0.6086 -3.155
11.410500 0.6048 -3.11
11.424000 0.6004 -3.063
11.437500 0.597 -3.015
11.451000 0.5932 -2.966
11.464500 0.589 -2.918
11.478000 0.585 -2.869
11.491500 0.5818 -2.821
11.505000 0.58 -2.769
11.518500 0.577 -2.72
11.532000 0.5734 -2.669
11.545500 0.571 -2.617
11.559000 0.5694 -2.566
11.572500 0.5674 -2.514
11.586000 0.5654 -2.46
11.599500 0.5642 -2.406
11.613000 0.5642 -2.353
11.626500 0.5632 -2.298
11.640000 0.5622 -2.244
11.653500 0.5626 -2.188
11.667000 0.5624 -2.132
11.680500 0.5634 -2.075
11.694000 0.565 -2.017
11.707500 0.5654 -1.959
11.721000 0.5674 -1.9
11.734500 0.5692 -1.84
11.748000 0.5726 -1.78
11.761500 0.5754 -1.719
11.775000 0.5772 -1.651
11.788500 0.5824 -1.594
11.802000 0.587 -1.53
11.815500 0.5914 -1.466
11.829000 0.597 -1.401
11.842500 0.6008 -1.337
11.856000 0.6084 -1.268
11.869500 0.6154 -1.2
11.883000 0.6224 -1.131
11.896500 0.6304 -1.061
11.910000 0.6388 -0.9898
11.923500 0.6482 -0.9176
11.937000 0.6576 -0.8442
11.950500 0.6674 -0.7694
11.964000 0.6782 -0.6936
11.977500 0.6898 -0.6164
11.991000 0.7018 -0.5378
12.004500 0.7144 -0.4582
12.018000 0.7282 -0.3764
12.031500 0.7424 -0.2936
12.045000 0.7574 -0.209
12.058500 0.7736 -0.1234
12.072000 0.7906 -0.0356
12.085500 0.8078 0.0536
12.099000 0.8268 0.1444
12.112500 0.8468 0.2376
12.126000 0.8682 0.3326
12.139500 0.8904 0.4294
12.153000 0.9144 0.5282
12.166500 0.94 0.6294
12.180000 0.9672 0.7326
12.193500 0.996 0.8386
12.207000 1.027 0.947
12.220500 1.06 1.059
12.234000 1.094 1.173
12.247500 1.131 1.291
12.261000 1.171 1.412
12.274500 1.213 1.536
12.288000 1.258 1.664
12.301500 1.305 1.795
12.315000 1.356 1.931
12.328500 1.411 2.072
12.342000 1.47 2.217
12.355500 1.532 2.366
12.369000 1.6 2.52
12.382500 1.672 2.679
12.396000 1.748 2.846
12.409500 1.831 3.019
12.423000 1.922 3.196
12.436500 2.019 3.379
12.450000 2.122 3.572
12.463500 2.236 3.769
12.477000 2.36 3.976
12.490500 2.49 4.193
12.504000 2.637 4.415
12.517500 2.794 4.647
12.531000 2.965 4.892
12.544500 3.151 5.141
12.558000 3.355 5.4
12.571500 3.583 5.677
12.585000 3.834 5.961
12.598500 4.103 6.261
12.612000 4.402 6.555
12.625500 4.728 6.88
12.639000 5.108 7.206
12.652500 5.511 7.549
12.666000 5.979 7.897
12.679500 6.491 8.237
12.693000 7.067 8.582
12.706500 7.701 8.992
12.720000 8.448 9.276
12.733500 9.255 9.595
12.747000 10.17 9.874
12.760500 11.21 10.09
12.774000 12.32 10.26
12.787500 13.56 10.31
12.801000 14.95 10.21
12.814500 16.5 9.986
12.828000 18.09 9.547
12.841500 19.8 8.741
12.855000 21.47 7.647
12.868500 23.08 6.257
12.882000 24.51 4.462
12.895500 25.68 2.283
12.909000 26.39 -0.1814
12.922500 26.65 -2.728
12.936000 26.42 -5.227
12.949500 25.61 -7.685
12.963000 24.47 -9.82
12.976500 23.04 -11.64
12.990000 21.45 -12.95
13.003500 19.76 -14.1
13.017000 18.09 -14.88
13.030500 16.54 -15.35
13.044000 15.03 -15.53
13.057500 13.7 -15.69
13.071000 12.43 -15.61
13.084500 11.26 -15.42
13.098000 10.27 -15.19
13.111500 9.398 -14.94
13.125000 8.571 -14.59
13.138500 7.904 -14.3
13.152000 7.253 -13.95
13.165500 6.7 -13.61
13.179000 6.21 -13.29
13.192500 5.767 -13.04
13.206000 5.327 -12.63
13.219500 4.997 -12.31
13.233000 4.656 -12.02
13.246500 4.351 -11.7
13.260000 4.074 -11.41
13.273500 3.841 -11.14
13.287000 3.618 -10.87
13.300500 3.429 -10.63
13.314000 3.241 -10.39
13.327500 3.071 -10.13
13.341000 2.92 -9.916
13.354500 2.783 -9.683
13.368000 2.64 -9.475
13.381500 2.528 -9.275
13.395000 2.416 -9.083
13.408500 2.323 -8.897
13.422000 2.228 -8.703
13.435500 2.133 -8.531
13.449000 2.062 -8.357
13.462500 1.982 -8.199
13.476000 1.918 -8.044
13.489500 1.837 -7.884
13.503000 1.793 -7.733
13.516500 1.736 -7.592
13.530000 1.681 -7.448
13.543500 1.635 -7.316
13.557000 1.591 -7.177
13.570500 1.547 -7.053
13.584000 1.506 -6.928
13.597500 1.474 -6.806
13.611000 1.438 -6.688
13.624500 1.406 -6.569
13.638000 1.383 -6.463
13.651500 1.352 -6.352
13.665000 1.329 -6.247
13.678500 1.306 -6.144
13.692000 1.284 -6.037
13.705500 1.263 -5.935
13.719000 1.245 -5.84
13.732500 1.225 -5.743
13.746000 1.213 -5.647
13.759500 1.201 -5.556
13.773000 1.184 -5.468
13.786500 1.172 -5.382
13.800000 1.163 -5.288
13.813500 1.149 -5.205
13.827000 1.143 -5.12
13.840500 1.134 -5.035
13.854000 1.126 -4.957
13.867500 1.12 -4.873
13.881000 1.117 -4.793
13.894500 1.108 -4.713
13.908000 1.104 -4.636
13.921500 1.102 -4.561
13.935000 1.1 -4.485
13.948500 1.099 -4.408
13.962000 1.098 -4.335
13.975500 1.094 -4.262
13.989000 1.097 -4.188
14.002500 1.101 -4.114
14.016000 1.1 -4.042
14.029500 1.104 -3.971
14.043000 1.108 -3.903
14.056500 1.111 -3.829
14.070000 1.117 -3.759
14.083500 1.122 -3.687
14.097000 1.127 -3.619
14.110500 1.134 -3.549
14.124000 1.144 -3.479
14.137500 1.15 -3.41
14.151000 1.157 -3.341
14.164500 1.167 -3.271
14.178000 1.177 -3.204
14.191500 1.188 -3.136
14.205000 1.199 -3.066
14.218500 1.211 -2.996
14.232000 1.224 -2.927
14.245500 1.238 -2.856
14.259000 1.253 -2.788
14.272500 1.268 -2.717
14.286000 1.284 -2.647
14.299500 1.301 -2.575
14.313000 1.32 -2.506
14.326500 1.339 -2.433
14.340000 1.36 -2.361
14.353500 1.381 -2.288
14.367000 1.403 -2.215
14.380500 1.427 -2.14
14.394000 1.453 -2.065
14.407500 1.48 -1.989
14.421000 1.507 -1.913
14.434500 1.537 -1.835
14.448000 1.567 -1.757
14.461500 1.601 -1.678
14.475000 1.634 -1.598
14.488500 1.671 -1.517
14.502000 1.709 -1.435
14.515500 1.749 -1.351
14.529000 1.792 -1.267
14.542500 1.837 -1.183
14.556000 1.883 -1.096
14.569500 1.933 -1.008
14.583000 1.985 -0.9198
14.596500 2.04 -0.8306
14.610000 2.099 -0.7386
14.623500 2.161 -0.6466
14.637000 2.226 -0.554
14.650500 2.294 -0.4586
14.664000 2.367 -0.3628
14.677500 2.445 -0.2666
14.691000 2.527 -0.1692
14.704500 2.613 -0.0698
14.718000 2.705 0.0288
14.731500 2.803 0.1304
14.745000 2.907 0.2314
14.758500 3.016 0.3342
14.772000 3.134 0.4364
14.785500 3.259 0.537
14.799000 3.392 0.638
14.812500 3.532 0.74
14.826000 3.685 0.8408
14.839500 3.843 0.94
14.853000 4.013 1.034
14.866500 4.19 1.134
14.880000 4.384 1.224
14.893500 4.588 1.313
14.907000 4.808 1.396
14.920500 5.039 1.474
14.934000 5.291 1.54
14.947500 5.55 1.604
14.961000 5.824 1.65
14.974500 6.119 1.686
14.988000 6.427 1.702
15.001500 6.749 1.713
15.015000 7.076 1.682
15.028500 7.445 1.654
15.042000 7.809 1.592
15.055500 8.194 1.492
