! Touchstone file generated by AntScope2
# MHz Z RI R 50
! Format: Frequency Z-real Z-imaginary (normalized to 50 Ohm)
3.000000 0.7888 8.822
3.013500 0.8272 9.091
3.027000 0.8704 9.381
3.040500 0.9186 9.687
3.054000 0.9724 10
3.067500 1.031 10.33
3.081000 1.1 10.7
3.094500 1.169 11.07
3.108000 1.248 11.45
3.121500 1.332 11.85
3.135000 1.423 12.27
3.148500 1.526 12.71
3.162000 1.637 13.18
3.175500 1.762 13.67
3.189000 1.905 14.21
3.202500 2.049 14.73
3.216000 2.213 15.31
3.229500 2.4 15.93
3.243000 2.61 16.6
3.256500 2.843 17.31
3.270000 3.11 18.09
3.283500 3.395 18.88
3.297000 3.73 19.76
3.310500 4.101 20.69
3.324000 4.542 21.73
3.337500 5.033 22.82
3.351000 5.607 24.03
3.364500 6.237 25.27
3.378000 7.044 26.75
3.391500 7.914 28.24
3.405000 9.009 29.97
3.418500 10.32 31.86
3.432000 11.93 33.99
3.445500 13.95 36.37
3.459000 16.41 38.94
3.472500 19.49 41.73
3.486000 23.59 44.84
3.499500 28.72 47.98
3.513000 35.18 50.91
3.526500 43.44 53.31
3.540000 55 54.44
3.553500 68.99 52.46
3.567000 85.51 44.72
3.580500 100 29.77
3.594000 108.3 7.714
3.607500 105.9 -17.86
3.621000 94.69 -36.67
3.634500 78.52 -48.85
3.648000 62.75 -53.81
3.661500 49.98 -54.27
3.675000 40.28 -52.58
3.688500 32.19 -49.69
3.702000 26.06 -46.46
3.715500 21.64 -43.44
3.729000 18.04 -40.48
3.742500 15.22 -37.74
3.756000 12.98 -35.27
3.769500 11.19 -33.05
3.783000 9.677 -30.97
3.796500 8.51 -29.21
3.810000 7.494 -27.53
3.823500 6.634 -25.99
3.837000 5.912 -24.6
3.850500 5.3 -23.33
3.864000 4.759 -22.15
3.877500 4.311 -21.09
3.891000 3.916 -20.12
3.904500 3.574 -19.23
3.918000 3.265 -18.37
3.931500 3 -17.61
3.945000 2.725 -16.77
3.958500 2.541 -16.18
3.972000 2.341 -15.52
3.985500 2.167 -14.91
3.999000 2.004 -14.32
4.012500 1.87 -13.81
4.026000 1.743 -13.3
4.039500 1.622 -12.81
4.053000 1.513 -12.35
4.066500 1.416 -11.91
4.080000 1.325 -11.49
4.093500 1.246 -11.11
4.107000 1.17 -10.72
4.120500 1.1 -10.36
4.134000 1.059 -10.01
4.147500 1.067 -9.664
4.161000 1.079 -9.313
4.174500 1.076 -9.011
4.188000 1.083 -8.698
4.201500 1.084 -8.391
4.215000 1.093 -8.115
4.228500 1.103 -7.837
4.242000 1.105 -7.555
4.255500 1.112 -7.302
4.269000 1.116 -7.049
4.282500 1.115 -6.807
4.296000 1.129 -6.564
4.309500 1.138 -6.327
4.323000 1.14 -6.099
4.336500 1.148 -5.877
4.350000 1.155 -5.658
4.363500 1.163 -5.446
4.377000 1.17 -5.237
4.390500 1.181 -5.029
4.404000 1.191 -4.829
4.417500 1.196 -4.633
4.431000 1.205 -4.441
4.444500 1.213 -4.25
4.458000 1.227 -4.06
4.471500 1.235 -3.877
4.485000 1.245 -3.692
4.498500 1.257 -3.513
4.512000 1.268 -3.333
4.525500 1.28 -3.156
4.539000 1.292 -2.982
4.552500 1.306 -2.808
4.566000 1.317 -2.637
4.579500 1.332 -2.464
4.593000 1.346 -2.294
4.606500 1.361 -2.126
4.620000 1.374 -1.957
4.633500 1.39 -1.79
4.647000 1.406 -1.623
4.660500 1.423 -1.456
4.674000 1.439 -1.29
4.687500 1.456 -1.122
4.701000 1.473 -0.9562
4.714500 1.49 -0.7904
4.728000 1.508 -0.6234
4.741500 1.526 -0.4572
4.755000 1.545 -0.2898
4.768500 1.564 -0.1238
4.782000 1.584 0.0446
4.795500 1.604 0.2128
4.809000 1.625 0.382
4.822500 1.647 0.5514
4.836000 1.669 0.7212
4.849500 1.695 0.8932
4.863000 1.718 1.066
4.876500 1.745 1.241
4.890000 1.774 1.418
4.903500 1.804 1.596
4.917000 1.836 1.776
4.930500 1.869 1.958
4.944000 1.905 2.143
4.957500 1.943 2.33
4.971000 1.982 2.518
4.984500 2.022 2.711
4.998000 2.067 2.907
5.011500 2.11 3.106
5.025000 2.157 3.317
5.038500 2.206 3.519
5.052000 2.259 3.729
5.065500 2.312 3.944
5.079000 2.377 4.171
5.092500 2.433 4.396
5.106000 2.498 4.624
5.119500 2.568 4.864
5.133000 2.639 5.108
5.146500 2.716 5.364
5.160000 2.797 5.62
5.173500 2.884 5.891
5.187000 2.97 6.162
5.200500 3.07 6.439
5.214000 3.172 6.733
5.227500 3.279 7.037
5.241000 3.393 7.344
5.254500 3.516 7.66
5.268000 3.657 8.006
5.281500 3.798 8.355
5.295000 3.955 8.713
5.308500 4.126 9.095
5.322000 4.306 9.49
5.335500 4.489 9.897
5.349000 4.719 10.32
5.362500 4.939 10.77
5.376000 5.195 11.24
5.389500 5.464 11.73
5.403000 5.771 12.22
5.416500 6.101 12.78
5.430000 6.453 13.33
5.443500 6.842 13.93
5.457000 7.319 14.54
5.470500 7.807 15.17
5.484000 8.351 15.92
5.497500 8.927 16.6
5.511000 9.649 17.39
5.524500 10.4 18.16
5.538000 11.34 19.05
5.551500 12.3 19.9
5.565000 13.46 20.81
5.578500 14.71 21.84
5.592000 16.26 22.7
5.605500 17.94 23.71
5.619000 19.85 24.68
5.632500 22.19 25.55
5.646000 24.9 26.27
5.659500 27.8 27.07
5.673000 31.34 27.36
5.686500 35.39 27.11
5.700000 39.98 26.43
5.713500 45.05 24.68
5.727000 50.07 22
5.740500 54.43 17.94
5.754000 58.97 12.17
5.767500 62.28 5.457
5.781000 63.59 -2.593
5.794500 62.6 -10.05
5.808000 60.44 -17.7
5.821500 56.27 -23.72
5.835000 51.78 -28.64
5.848500 46.2 -31.66
5.862000 40.87 -34
5.875500 35.64 -34.78
5.889000 31.67 -35.04
5.902500 27.9 -34.86
5.916000 24.54 -33.96
5.929500 21.74 -33.17
5.943000 19.07 -31.97
5.956500 17.04 -31.01
5.970000 15.11 -29.87
5.983500 13.57 -28.66
5.997000 12.21 -27.62
6.010500 11.05 -26.67
6.024000 10.07 -25.5
6.037500 9.18 -24.67
6.051000 8.307 -23.74
6.064500 7.675 -22.89
6.078000 7.142 -22.08
6.091500 6.599 -21.28
6.105000 6.168 -20.58
6.118500 5.741 -19.85
6.132000 5.358 -19.24
6.145500 5.057 -18.63
6.159000 4.729 -17.98
6.172500 4.484 -17.49
6.186000 4.219 -16.96
6.199500 4.006 -16.46
6.213000 3.851 -15.98
6.226500 3.647 -15.55
6.240000 3.481 -15.11
6.253500 3.335 -14.7
6.267000 3.19 -14.31
6.280500 3.086 -13.93
6.294000 2.958 -13.57
6.307500 2.882 -13.23
6.321000 2.768 -12.9
6.334500 2.691 -12.61
6.348000 2.609 -12.29
6.361500 2.565 -11.99
6.375000 2.488 -11.71
6.388500 2.414 -11.44
6.402000 2.362 -11.16
6.415500 2.325 -10.9
6.429000 2.282 -10.65
6.442500 2.25 -10.41
6.456000 2.225 -10.16
6.469500 2.188 -9.938
6.483000 2.17 -9.71
6.496500 2.156 -9.494
6.510000 2.145 -9.269
6.523500 2.142 -9.069
6.537000 2.131 -8.869
6.550500 2.135 -8.663
6.564000 2.141 -8.474
6.577500 2.152 -8.296
6.591000 2.166 -8.119
6.604500 2.199 -7.937
6.618000 2.23 -7.773
6.631500 2.266 -7.607
6.645000 2.312 -7.45
6.658500 2.367 -7.301
6.672000 2.414 -7.161
6.685500 2.485 -7.031
6.699000 2.56 -6.906
6.712500 2.643 -6.801
6.726000 2.726 -6.709
6.739500 2.831 -6.627
6.753000 2.925 -6.574
6.766500 3.022 -6.538
6.780000 3.12 -6.525
6.793500 3.198 -6.544
6.807000 3.268 -6.589
6.820500 3.312 -6.649
6.834000 3.328 -6.733
6.847500 3.296 -6.834
6.861000 3.25 -6.909
6.874500 3.167 -6.986
6.888000 3.047 -7.04
6.901500 2.909 -7.073
6.915000 2.756 -7.077
6.928500 2.604 -7.056
6.942000 2.454 -7.008
6.955500 2.309 -6.943
6.969000 2.174 -6.87
6.982500 2.046 -6.765
6.996000 1.926 -6.665
7.009500 1.817 -6.553
7.023000 1.726 -6.437
7.036500 1.642 -6.317
7.050000 1.569 -6.197
7.063500 1.494 -6.072
7.077000 1.433 -5.952
7.090500 1.378 -5.831
7.104000 1.324 -5.721
7.117500 1.286 -5.598
7.131000 1.245 -5.478
7.144500 1.211 -5.367
7.158000 1.173 -5.253
7.171500 1.146 -5.14
7.185000 1.12 -5.03
7.198500 1.096 -4.926
7.212000 1.072 -4.819
7.225500 1.053 -4.715
7.239000 1.038 -4.611
7.252500 1.018 -4.51
7.266000 1.001 -4.411
7.279500 0.9882 -4.314
7.293000 0.9762 -4.216
7.306500 0.9668 -4.121
7.320000 0.9578 -4.026
7.333500 0.9468 -3.934
7.347000 0.9372 -3.84
7.360500 0.9304 -3.75
7.374000 0.923 -3.66
7.387500 0.915 -3.573
7.401000 0.9102 -3.484
7.414500 0.9046 -3.396
7.428000 0.8996 -3.311
7.441500 0.8962 -3.224
7.455000 0.8924 -3.14
7.468500 0.8892 -3.055
7.482000 0.8838 -2.972
7.495500 0.8828 -2.889
7.509000 0.8808 -2.807
7.522500 0.8776 -2.724
7.536000 0.8762 -2.644
7.549500 0.8754 -2.562
7.563000 0.8742 -2.483
7.576500 0.8732 -2.403
7.590000 0.8728 -2.324
7.603500 0.8722 -2.244
7.617000 0.8724 -2.165
7.630500 0.8722 -2.086
7.644000 0.8726 -2.007
7.657500 0.8726 -1.929
7.671000 0.8736 -1.85
7.684500 0.8744 -1.772
7.698000 0.8756 -1.695
7.711500 0.8768 -1.616
7.725000 0.8784 -1.539
7.738500 0.8802 -1.461
7.752000 0.8826 -1.383
7.765500 0.8844 -1.305
7.779000 0.8862 -1.227
7.792500 0.8886 -1.149
7.806000 0.8912 -1.071
7.819500 0.8936 -0.992
7.833000 0.8964 -0.9136
7.846500 0.8994 -0.8352
7.860000 0.9018 -0.7562
7.873500 0.905 -0.6776
7.887000 0.908 -0.5984
7.900500 0.911 -0.5188
7.914000 0.9142 -0.4396
7.927500 0.9178 -0.3596
7.941000 0.9212 -0.2794
7.954500 0.9246 -0.1992
7.968000 0.9282 -0.1186
7.981500 0.9318 -0.0378
7.995000 0.9358 0.0432
8.008500 0.9396 0.1248
8.022000 0.944 0.207
8.035500 0.9482 0.2888
8.049000 0.9528 0.371
8.062500 0.9578 0.4542
8.076000 0.963 0.5378
8.089500 0.9674 0.6228
8.103000 0.9742 0.7066
8.116500 0.9796 0.7914
8.130000 0.9862 0.8774
8.143500 0.9924 0.964
8.157000 0.9992 1.051
8.170500 1.006 1.139
8.184000 1.014 1.228
8.197500 1.021 1.318
8.211000 1.029 1.408
8.224500 1.038 1.499
8.238000 1.046 1.591
8.251500 1.055 1.685
8.265000 1.066 1.778
8.278500 1.075 1.874
8.292000 1.085 1.971
8.305500 1.096 2.069
8.319000 1.107 2.167
8.332500 1.119 2.267
8.346000 1.13 2.369
8.359500 1.142 2.472
8.373000 1.155 2.576
8.386500 1.167 2.683
8.400000 1.18 2.792
8.413500 1.195 2.899
8.427000 1.209 3.011
8.440500 1.226 3.124
8.454000 1.242 3.236
8.467500 1.259 3.353
8.481000 1.275 3.473
8.494500 1.292 3.595
8.508000 1.311 3.714
8.521500 1.33 3.839
8.535000 1.351 3.971
8.548500 1.372 4.098
8.562000 1.394 4.23
8.575500 1.418 4.366
8.589000 1.437 4.506
8.602500 1.465 4.648
8.616000 1.491 4.789
8.629500 1.516 4.936
8.643000 1.545 5.089
8.656500 1.577 5.243
8.670000 1.606 5.401
8.683500 1.64 5.562
8.697000 1.674 5.725
8.710500 1.711 5.895
8.724000 1.745 6.072
8.737500 1.782 6.247
8.751000 1.831 6.435
8.764500 1.866 6.621
8.778000 1.91 6.818
8.791500 1.96 7.02
8.805000 2.01 7.225
8.818500 2.065 7.445
8.832000 2.119 7.655
8.845500 2.187 7.884
8.859000 2.251 8.119
8.872500 2.319 8.362
8.886000 2.394 8.605
8.899500 2.482 8.868
8.913000 2.549 9.14
8.926500 2.635 9.421
8.940000 2.74 9.713
8.953500 2.853 10.01
8.967000 2.955 10.32
8.980500 3.071 10.65
8.994000 3.195 10.99
9.007500 3.348 11.33
9.021000 3.48 11.69
9.034500 3.652 12.08
9.048000 3.843 12.47
9.061500 4.017 12.89
9.075000 4.23 13.32
9.088500 4.493 13.76
9.102000 4.738 14.27
9.115500 4.999 14.75
9.129000 5.305 15.28
9.142500 5.689 15.82
9.156000 6.028 16.42
9.169500 6.454 16.97
9.183000 6.926 17.61
9.196500 7.452 18.26
9.210000 8.028 18.98
9.223500 8.707 19.66
9.237000 9.467 20.43
9.250500 10.31 21.15
9.264000 11.26 21.93
9.277500 12.36 22.73
9.291000 13.63 23.49
9.304500 14.97 24.25
9.318000 16.53 24.93
9.331500 18.41 25.6
9.345000 20.33 26.15
9.358500 22.58 26.48
9.372000 25.12 26.5
9.385500 27.6 26.48
9.399000 30.18 25.85
9.412500 33.49 25.16
9.426000 36.45 23.13
9.439500 39.29 21.2
9.453000 41.7 18.59
9.466500 43.84 15.27
9.480000 45.14 11.8
9.493500 46.16 7.66
9.507000 45.94 4.141
9.520500 45.58 0.4802
9.534000 44.12 -2.861
9.547500 42.72 -5.494
9.561000 40.86 -7.886
9.574500 39.07 -9.605
9.588000 37.14 -11.04
9.601500 35.15 -11.89
9.615000 32.77 -12.02
9.628500 31.62 -13.35
9.642000 30.14 -13.42
9.655500 28.82 -13.61
9.669000 27.53 -13.7
9.682500 26.41 -13.54
9.696000 25.51 -13.48
9.709500 24.63 -13.27
9.723000 23.92 -13.09
9.736500 23.36 -12.86
9.750000 22.84 -12.68
9.763500 22.36 -12.43
9.777000 22.03 -12.27
9.790500 21.71 -12.08
9.804000 21.47 -11.98
9.817500 21.32 -11.86
9.831000 21.27 -11.81
9.844500 21.2 -11.86
9.858000 21.17 -11.87
9.871500 21.18 -12.01
9.885000 21.08 -12.14
9.898500 21.19 -12.35
9.912000 21.24 -12.62
9.925500 21.23 -12.97
9.939000 21.25 -13.45
9.952500 21.24 -13.82
9.966000 21.17 -14.38
9.979500 21.04 -14.98
9.993000 20.81 -15.53
10.006500 20.55 -16.3
10.020000 20.17 -16.94
10.033500 19.7 -17.57
10.047000 19.02 -18.15
10.060500 18.48 -18.72
10.074000 17.76 -19.25
10.087500 16.98 -19.68
10.101000 16.21 -20
10.114500 15.29 -20.4
10.128000 14.42 -20.52
10.141500 13.56 -20.55
10.155000 12.75 -20.71
10.168500 11.91 -20.65
10.182000 11.14 -20.53
10.195500 10.38 -20.35
10.209000 9.65 -20.19
10.222500 8.991 -19.94
10.236000 8.405 -19.65
10.249500 7.828 -19.35
10.263000 7.231 -19.15
10.276500 6.746 -18.73
10.290000 6.265 -18.39
10.303500 5.887 -18.04
10.317000 5.489 -17.71
10.330500 5.13 -17.37
10.344000 4.788 -17
10.357500 4.486 -16.68
10.371000 4.185 -16.31
10.384500 3.96 -16
10.398000 3.705 -15.68
10.411500 3.482 -15.38
10.425000 3.328 -15.03
10.438500 3.113 -14.74
10.452000 2.942 -14.45
10.465500 2.765 -14.18
10.479000 2.629 -13.91
10.492500 2.486 -13.64
10.506000 2.341 -13.39
10.519500 2.248 -13.11
10.533000 2.128 -12.86
10.546500 2.023 -12.61
10.560000 1.944 -12.4
10.573500 1.856 -12.16
10.587000 1.767 -11.94
10.600500 1.696 -11.73
10.614000 1.638 -11.52
10.627500 1.557 -11.31
10.641000 1.493 -11.11
10.654500 1.431 -10.92
10.668000 1.383 -10.72
10.681500 1.345 -10.55
10.695000 1.288 -10.37
10.708500 1.252 -10.19
10.722000 1.208 -10.02
10.735500 1.17 -9.851
10.749000 1.136 -9.682
10.762500 1.108 -9.527
10.776000 1.069 -9.376
10.789500 1.038 -9.222
10.803000 1 -9.076
10.816500 0.9776 -8.938
10.830000 0.9492 -8.791
10.843500 0.9284 -8.648
10.857000 0.9094 -8.511
10.870500 0.8824 -8.374
10.884000 0.8604 -8.242
10.897500 0.8398 -8.113
10.911000 0.8268 -7.982
10.924500 0.8048 -7.858
10.938000 0.7878 -7.74
10.951500 0.7756 -7.616
10.965000 0.7592 -7.503
10.978500 0.7492 -7.388
10.992000 0.732 -7.268
11.005500 0.722 -7.161
11.019000 0.7142 -7.048
11.032500 0.7006 -6.937
11.046000 0.69 -6.834
11.059500 0.6784 -6.726
11.073000 0.6692 -6.624
11.086500 0.6608 -6.524
11.100000 0.654 -6.421
11.113500 0.646 -6.316
11.127000 0.64 -6.221
11.140500 0.634 -6.119
11.154000 0.6288 -6.024
11.167500 0.6228 -5.935
11.181000 0.6158 -5.836
11.194500 0.611 -5.746
11.208000 0.607 -5.657
11.221500 0.6008 -5.565
11.235000 0.6002 -5.477
11.248500 0.5952 -5.388
11.262000 0.5922 -5.301
11.275500 0.5868 -5.213
11.289000 0.5836 -5.126
11.302500 0.5814 -5.042
11.316000 0.5788 -4.959
11.329500 0.5792 -4.872
11.343000 0.5772 -4.789
11.356500 0.5744 -4.706
11.370000 0.5746 -4.622
11.383500 0.5716 -4.543
11.397000 0.5718 -4.46
11.410500 0.5706 -4.382
11.424000 0.569 -4.301
11.437500 0.5668 -4.222
11.451000 0.5686 -4.142
11.464500 0.5688 -4.063
11.478000 0.5716 -3.985
11.491500 0.569 -3.907
11.505000 0.5688 -3.83
11.518500 0.5712 -3.753
11.532000 0.5714 -3.676
11.545500 0.574 -3.6
11.559000 0.5742 -3.524
11.572500 0.5764 -3.447
11.586000 0.5774 -3.37
11.599500 0.5788 -3.296
11.613000 0.5796 -3.218
11.626500 0.5826 -3.144
11.640000 0.5842 -3.068
11.653500 0.5868 -2.993
11.667000 0.5902 -2.917
11.680500 0.5918 -2.841
11.694000 0.5946 -2.768
11.707500 0.5976 -2.691
11.721000 0.6024 -2.616
11.734500 0.6046 -2.54
11.748000 0.6086 -2.465
11.761500 0.6136 -2.389
11.775000 0.5908 -2.305
11.788500 0.6212 -2.237
11.802000 0.6258 -2.16
11.815500 0.6304 -2.084
11.829000 0.6362 -2.007
11.842500 0.6412 -1.928
11.856000 0.6464 -1.852
11.869500 0.652 -1.774
11.883000 0.6578 -1.696
11.896500 0.664 -1.617
11.910000 0.6704 -1.538
11.923500 0.6766 -1.458
11.937000 0.6836 -1.378
11.950500 0.6912 -1.296
11.964000 0.6988 -1.214
11.977500 0.7064 -1.132
11.991000 0.7146 -1.049
12.004500 0.7226 -0.9646
12.018000 0.7314 -0.88
12.031500 0.7402 -0.7946
12.045000 0.7498 -0.7082
12.058500 0.7594 -0.6204
12.072000 0.7694 -0.5322
12.085500 0.78 -0.443
12.099000 0.7906 -0.352
12.112500 0.8018 -0.2602
12.126000 0.8138 -0.1678
12.139500 0.8264 -0.0742
12.153000 0.8392 0.0208
12.166500 0.8526 0.117
12.180000 0.8674 0.2146
12.193500 0.882 0.3132
12.207000 0.8984 0.4134
12.220500 0.9158 0.5148
12.234000 0.9342 0.6186
12.247500 0.954 0.7228
12.261000 0.9746 0.8298
12.274500 0.9968 0.9388
12.288000 1.02 1.05
12.301500 1.045 1.162
12.315000 1.072 1.278
12.328500 1.101 1.396
12.342000 1.132 1.515
12.355500 1.166 1.638
12.369000 1.201 1.764
12.382500 1.239 1.892
12.396000 1.28 2.024
12.409500 1.323 2.159
12.423000 1.371 2.294
12.436500 1.422 2.436
12.450000 1.477 2.579
12.463500 1.536 2.727
12.477000 1.6 2.879
12.490500 1.67 3.033
12.504000 1.745 3.193
12.517500 1.825 3.354
12.531000 1.912 3.52
12.544500 2.008 3.688
12.558000 2.11 3.866
12.571500 2.225 4.039
12.585000 2.345 4.219
12.598500 2.479 4.397
12.612000 2.626 4.581
12.625500 2.779 4.766
12.639000 2.957 4.954
12.652500 3.137 5.141
12.666000 3.338 5.316
12.679500 3.549 5.497
12.693000 3.79 5.67
12.706500 4.051 5.836
12.720000 4.322 5.987
12.733500 4.61 6.144
12.747000 4.919 6.27
12.760500 5.245 6.381
12.774000 5.584 6.453
12.787500 5.942 6.509
12.801000 6.295 6.555
12.814500 6.66 6.537
12.828000 7.013 6.512
12.841500 7.385 6.443
12.855000 7.713 6.343
12.868500 8.028 6.234
12.882000 8.337 6.075
12.895500 8.607 5.922
12.909000 8.841 5.734
12.922500 9.048 5.552
12.936000 9.241 5.409
12.949500 9.395 5.21
12.963000 9.526 5.043
12.976500 9.637 4.896
12.990000 9.734 4.777
13.003500 9.83 4.647
13.017000 9.921 4.567
13.030500 9.998 4.51
13.044000 10.08 4.459
13.057500 10.18 4.422
13.071000 10.26 4.408
13.084500 10.4 4.405
13.098000 10.54 4.424
13.111500 10.69 4.445
13.125000 10.85 4.477
13.138500 11.04 4.523
13.152000 11.28 4.559
13.165500 11.53 4.586
13.179000 11.81 4.619
13.192500 12.17 4.686
13.206000 12.47 4.659
13.219500 12.85 4.643
13.233000 13.26 4.63
13.246500 13.72 4.562
13.260000 14.18 4.466
13.273500 14.72 4.331
13.287000 15.23 4.148
13.300500 15.79 3.905
13.314000 16.41 3.619
13.327500 16.98 3.231
13.341000 17.6 2.774
13.354500 18.19 2.224
13.368000 18.77 1.578
13.381500 19.27 0.8044
13.395000 19.71 -0.051
13.408500 20.12 -1.007
13.422000 20.37 -2.054
13.435500 20.52 -3.087
13.449000 20.55 -4.154
13.462500 20.47 -5.316
13.476000 20.11 -6.462
13.489500 19.66 -7.467
13.503000 19.12 -8.45
13.516500 18.47 -9.303
13.530000 17.72 -10.09
13.543500 16.91 -10.75
13.557000 16.07 -11.32
13.570500 15.2 -11.74
13.584000 14.36 -12.01
13.597500 13.52 -12.29
13.611000 12.68 -12.44
13.624500 11.89 -12.47
13.638000 11.13 -12.45
13.651500 10.46 -12.39
13.665000 9.822 -12.28
13.678500 9.183 -12.12
13.692000 8.653 -11.97
13.705500 8.129 -11.77
13.719000 7.665 -11.56
13.732500 7.22 -11.33
13.746000 6.813 -11.09
13.759500 6.445 -10.87
13.773000 6.089 -10.62
13.786500 5.771 -10.38
13.800000 5.484 -10.15
13.813500 5.236 -9.902
13.827000 4.993 -9.674
13.840500 4.76 -9.431
13.854000 4.547 -9.209
13.867500 4.373 -8.981
13.881000 4.19 -8.761
13.894500 4.022 -8.533
13.908000 3.868 -8.317
13.921500 3.738 -8.111
13.935000 3.603 -7.908
13.948500 3.495 -7.709
13.962000 3.379 -7.516
13.975500 3.281 -7.324
13.989000 3.186 -7.142
14.002500 3.093 -6.957
14.016000 3.013 -6.783
14.029500 2.942 -6.607
14.043000 2.873 -6.443
14.056500 2.805 -6.27
14.070000 2.744 -6.104
14.083500 2.685 -5.955
14.097000 2.636 -5.791
14.110500 2.59 -5.642
14.124000 2.545 -5.487
14.137500 2.504 -5.341
14.151000 2.47 -5.191
14.164500 2.431 -5.046
14.178000 2.399 -4.907
14.191500 2.365 -4.766
14.205000 2.337 -4.63
14.218500 2.312 -4.498
14.232000 2.29 -4.363
14.245500 2.269 -4.232
14.259000 2.247 -4.1
14.272500 2.23 -3.973
14.286000 2.215 -3.846
14.299500 2.201 -3.716
14.313000 2.19 -3.594
14.326500 2.18 -3.467
14.340000 2.171 -3.345
14.353500 2.162 -3.223
14.367000 2.157 -3.102
14.380500 2.153 -2.981
14.394000 2.153 -2.86
14.407500 2.151 -2.739
14.421000 2.151 -2.621
14.434500 2.154 -2.502
14.448000 2.158 -2.383
14.461500 2.161 -2.264
14.475000 2.167 -2.147
14.488500 2.175 -2.029
14.502000 2.182 -1.91
14.515500 2.193 -1.792
14.529000 2.204 -1.674
14.542500 2.216 -1.555
14.556000 2.23 -1.436
14.569500 2.245 -1.318
14.583000 2.262 -1.198
14.596500 2.28 -1.078
14.610000 2.3 -0.9582
14.623500 2.321 -0.8368
14.637000 2.343 -0.7158
14.650500 2.367 -0.5934
14.664000 2.392 -0.4702
14.677500 2.419 -0.3466
14.691000 2.446 -0.2222
14.704500 2.477 -0.0976
14.718000 2.51 0.03
14.731500 2.545 0.1556
14.745000 2.582 0.2856
14.758500 2.62 0.4142
14.772000 2.662 0.5466
14.785500 2.704 0.677
14.799000 2.75 0.8104
14.812500 2.8 0.9464
14.826000 2.852 1.08
14.839500 2.907 1.22
14.853000 2.964 1.36
14.866500 3.025 1.502
14.880000 3.091 1.646
14.893500 3.158 1.795
14.907000 3.233 1.942
14.920500 3.308 2.092
14.934000 3.389 2.245
14.947500 3.475 2.401
14.961000 3.566 2.561
14.974500 3.665 2.719
14.988000 3.764 2.884
15.001500 3.878 3.054
15.015000 3.973 3.226
15.028500 4.116 3.393
15.042000 4.244 3.567
15.055500 4.38 3.749
15.069000 4.524 3.933
15.082500 4.678 4.12
15.096000 4.847 4.306
15.109500 5.018 4.499
15.123000 5.21 4.693
15.136500 5.408 4.895
15.150000 5.625 5.103
