! Touchstone file generated by AntScope2
# MHz Z RI R 50
! Format: Frequency Z-real Z-imaginary (normalized to 50 Ohm)
7.000000 0.8736 -4.863
7.011500 0.8602 -4.796
7.023000 0.849 -4.723
7.034500 0.8382 -4.652
7.046000 0.8272 -4.585
7.057500 0.8172 -4.517
7.069000 0.8076 -4.448
7.080500 0.8002 -4.381
7.092000 0.7884 -4.312
7.103500 0.7844 -4.244
7.115000 0.7728 -4.183
7.126500 0.7672 -4.118
7.138000 0.7576 -4.054
7.149500 0.7536 -3.989
7.161000 0.748 -3.926
7.172500 0.7404 -3.865
7.184000 0.735 -3.803
7.195500 0.7322 -3.74
7.207000 0.7268 -3.681
7.218500 0.7232 -3.621
7.230000 0.7206 -3.56
7.241500 0.7178 -3.502
7.253000 0.7138 -3.442
7.264500 0.7116 -3.384
7.276000 0.711 -3.326
7.287500 0.7086 -3.267
7.299000 0.7062 -3.212
7.310500 0.705 -3.153
7.322000 0.7032 -3.097
7.333500 0.7026 -3.039
7.345000 0.7018 -2.982
7.356500 0.7018 -2.927
7.368000 0.7018 -2.872
7.379500 0.7018 -2.816
7.391000 0.7024 -2.761
7.402500 0.7022 -2.706
7.414000 0.7026 -2.65
7.425500 0.7046 -2.595
7.437000 0.7056 -2.541
7.448500 0.7074 -2.485
7.460000 0.7094 -2.431
7.471500 0.7106 -2.375
7.483000 0.7128 -2.32
7.494500 0.7148 -2.266
7.506000 0.717 -2.211
7.517500 0.719 -2.156
7.529000 0.7208 -2.102
7.540500 0.7242 -2.047
7.552000 0.7274 -1.992
7.563500 0.7304 -1.936
7.575000 0.734 -1.882
7.586500 0.7376 -1.827
7.598000 0.7408 -1.771
7.609500 0.745 -1.715
7.621000 0.749 -1.66
7.632500 0.7532 -1.604
7.644000 0.758 -1.547
7.655500 0.7624 -1.491
7.667000 0.7674 -1.434
7.678500 0.7726 -1.377
7.690000 0.7776 -1.32
7.701500 0.783 -1.262
7.713000 0.7888 -1.205
7.724500 0.7944 -1.147
7.736000 0.8002 -1.089
7.747500 0.8062 -1.029
7.759000 0.813 -0.97
7.770500 0.8196 -0.9104
7.782000 0.826 -0.8504
7.793500 0.833 -0.7902
7.805000 0.8402 -0.7292
7.816500 0.848 -0.6676
7.828000 0.855 -0.6054
7.839500 0.863 -0.543
7.851000 0.8704 -0.4798
7.862500 0.8796 -0.4162
7.874000 0.8882 -0.352
7.885500 0.8966 -0.2874
7.897000 0.906 -0.222
7.908500 0.9154 -0.1564
7.920000 0.9252 -0.09
7.931500 0.9356 -0.0226
7.943000 0.946 0.0454
7.954500 0.9572 0.1142
7.966000 0.9682 0.183
7.977500 0.98 0.2532
7.989000 0.9924 0.3238
8.000500 1.005 0.3952
8.012000 1.019 0.4678
8.023500 1.032 0.541
8.035000 1.047 0.615
8.046500 1.063 0.69
8.058000 1.079 0.767
8.069500 1.096 0.8444
8.081000 1.114 0.923
8.092500 1.133 1.003
8.104000 1.152 1.084
8.115500 1.173 1.165
8.127000 1.194 1.249
8.138500 1.217 1.333
8.150000 1.241 1.42
8.161500 1.266 1.506
8.173000 1.292 1.595
8.184500 1.32 1.686
8.196000 1.347 1.777
8.207500 1.38 1.871
8.219000 1.413 1.966
8.230500 1.447 2.063
8.242000 1.483 2.162
8.253500 1.521 2.263
8.265000 1.561 2.364
8.276500 1.603 2.466
8.288000 1.648 2.572
8.299500 1.694 2.679
8.311000 1.747 2.788
8.322500 1.8 2.899
8.334000 1.854 3.013
8.345500 1.914 3.126
8.357000 1.973 3.244
8.368500 2.041 3.361
8.380000 2.111 3.48
8.391500 2.184 3.605
8.403000 2.262 3.727
8.414500 2.349 3.853
8.426000 2.434 3.98
8.437500 2.529 4.106
8.449000 2.629 4.236
8.460500 2.732 4.365
8.472000 2.842 4.495
8.483500 2.959 4.63
8.495000 3.079 4.758
8.506500 3.211 4.891
8.518000 3.343 5.022
8.529500 3.486 5.152
8.541000 3.64 5.277
8.552500 3.795 5.405
8.564000 3.958 5.529
8.575500 4.135 5.65
8.587000 4.314 5.761
8.598500 4.502 5.884
8.610000 4.704 5.979
8.621500 4.908 6.092
8.633000 5.116 6.186
8.644500 5.339 6.273
8.656000 5.558 6.352
8.667500 5.788 6.441
8.679000 6.018 6.499
8.690500 6.262 6.556
8.702000 6.517 6.611
8.713500 6.75 6.652
8.725000 7.006 6.67
8.736500 7.266 6.693
8.748000 7.508 6.711
8.759500 7.76 6.714
8.771000 8.007 6.688
8.782500 8.256 6.692
8.794000 8.515 6.659
8.805500 8.747 6.64
8.817000 8.986 6.595
8.828500 9.233 6.564
8.840000 9.475 6.517
8.851500 9.7 6.454
8.863000 9.903 6.409
8.874500 10.16 6.349
8.886000 10.39 6.291
8.897500 10.6 6.203
8.909000 10.82 6.158
8.920500 11.03 6.103
8.932000 11.27 6.027
8.943500 11.48 5.955
8.955000 11.7 5.914
8.966500 11.92 5.825
8.978000 12.15 5.764
8.989500 12.37 5.701
9.001000 12.61 5.634
9.012500 12.87 5.56
9.024000 13.1 5.484
9.035500 13.35 5.399
9.047000 13.62 5.338
9.058500 13.88 5.267
9.070000 14.14 5.151
9.081500 14.46 5.079
9.093000 14.75 4.978
9.104500 15.05 4.851
9.116000 15.39 4.759
9.127500 15.69 4.655
9.139000 16.05 4.49
9.150500 16.43 4.277
9.162000 16.78 4.153
9.173500 17.13 3.984
9.185000 17.53 3.75
9.196500 17.91 3.509
9.208000 18.34 3.22
9.219500 18.74 2.974
9.231000 19.15 2.664
9.242500 19.56 2.269
9.254000 20 1.895
9.265500 20.41 1.43
9.277000 20.83 0.991
9.288500 21.25 0.4306
9.300000 21.57 -0.1716
9.311500 21.89 -0.7278
9.323000 22.3 -1.457
9.334500 22.58 -2.054
9.346000 22.79 -2.879
9.357500 23.04 -3.608
9.369000 23.19 -4.454
9.380500 23.26 -5.299
9.392000 23.2 -6.162
9.403500 23.21 -7.053
9.415000 23.02 -7.912
9.426500 22.89 -8.777
9.438000 22.61 -9.653
9.449500 22.28 -10.52
9.461000 21.79 -11.31
9.472500 21.34 -12.06
9.484000 20.81 -12.82
9.495500 20.29 -13.49
9.507000 19.47 -14.04
9.518500 18.98 -14.71
9.530000 18.19 -15.18
9.541500 17.57 -15.61
9.553000 16.78 -15.93
9.564500 16.09 -16.26
9.576000 15.31 -16.5
9.587500 14.61 -16.7
9.599000 13.93 -16.76
9.610500 13.24 -16.93
9.622000 12.57 -16.93
9.633500 11.94 -16.96
9.645000 11.28 -16.92
9.656500 10.7 -16.86
9.668000 10.13 -16.78
9.679500 9.625 -16.71
9.691000 9.112 -16.64
9.702500 8.6 -16.43
9.714000 8.158 -16.21
9.725500 7.696 -16.05
9.737000 7.304 -15.88
9.748500 6.892 -15.66
9.760000 6.514 -15.47
9.771500 6.201 -15.24
9.783000 5.893 -15.05
9.794500 5.589 -14.84
9.806000 5.298 -14.64
9.817500 5.029 -14.41
9.829000 4.789 -14.23
9.840500 4.558 -14.03
9.852000 4.341 -13.82
9.863500 4.134 -13.6
9.875000 3.926 -13.42
9.886500 3.816 -13.16
9.898000 3.575 -13.03
9.909500 3.413 -12.82
9.921000 3.268 -12.63
9.932500 3.099 -12.46
9.944000 2.967 -12.27
9.955500 2.804 -12.11
9.967000 2.729 -11.92
9.978500 2.613 -11.75
9.990000 2.495 -11.56
10.001500 2.407 -11.41
10.013000 2.296 -11.25
10.024500 2.197 -11.08
10.036000 2.121 -10.93
10.047500 2.041 -10.78
10.059000 1.968 -10.64
10.070500 1.894 -10.48
10.082000 1.817 -10.34
10.093500 1.765 -10.21
10.105000 1.697 -10.07
10.116500 1.646 -9.938
10.128000 1.596 -9.798
10.139500 1.537 -9.677
10.151000 1.487 -9.54
10.162500 1.448 -9.426
10.174000 1.395 -9.296
10.185500 1.351 -9.185
10.197000 1.328 -9.074
10.208500 1.283 -8.96
10.220000 1.25 -8.842
10.231500 1.22 -8.746
10.243000 1.181 -8.631
10.254500 1.154 -8.532
10.266000 1.141 -8.418
10.277500 1.099 -8.326
10.289000 1.076 -8.239
10.300500 1.053 -8.142
10.312000 1.027 -8.04
10.323500 1.011 -7.946
10.335000 0.993 -7.858
10.346500 0.9716 -7.765
10.358000 0.9518 -7.685
10.369500 0.931 -7.596
10.381000 0.9186 -7.514
10.392500 0.9052 -7.428
10.404000 0.8902 -7.346
10.415500 0.8772 -7.268
10.427000 0.8644 -7.186
10.438500 0.852 -7.114
10.450000 0.8436 -7.035
10.461500 0.8264 -6.96
10.473000 0.8218 -6.889
10.484500 0.8102 -6.815
10.496000 0.7984 -6.744
10.507500 0.796 -6.675
10.519000 0.7878 -6.606
10.530500 0.777 -6.538
10.542000 0.7758 -6.474
10.553500 0.772 -6.405
10.565000 0.7656 -6.343
10.576500 0.7564 -6.278
10.588000 0.7488 -6.214
10.599500 0.7492 -6.155
10.611000 0.7494 -6.1
10.622500 0.7426 -6.036
10.634000 0.7378 -5.984
10.645500 0.7356 -5.919
10.657000 0.7308 -5.868
10.668500 0.7284 -5.809
10.680000 0.728 -5.756
10.691500 0.7272 -5.699
10.703000 0.7232 -5.65
10.714500 0.7196 -5.597
10.726000 0.7222 -5.543
10.737500 0.7152 -5.498
10.749000 0.7158 -5.44
10.760500 0.7164 -5.393
10.772000 0.7138 -5.344
10.783500 0.7134 -5.296
10.795000 0.7108 -5.246
10.806500 0.7118 -5.198
10.818000 0.7098 -5.15
10.829500 0.712 -5.103
10.841000 0.7078 -5.06
10.852500 0.7082 -5.014
10.864000 0.7058 -4.968
10.875500 0.7026 -4.924
10.887000 0.7026 -4.88
10.898500 0.698 -4.839
10.910000 0.6974 -4.794
10.921500 0.6978 -4.75
10.933000 0.6974 -4.708
10.944500 0.6944 -4.667
10.956000 0.6938 -4.626
10.967500 0.6938 -4.582
10.979000 0.6944 -4.545
10.990500 0.6924 -4.501
11.002000 0.692 -4.461
11.013500 0.6892 -4.423
11.025000 0.687 -4.381
11.036500 0.6878 -4.344
11.048000 0.6898 -4.302
11.059500 0.686 -4.265
11.071000 0.6842 -4.225
11.082500 0.6828 -4.189
11.094000 0.6828 -4.149
11.105500 0.6816 -4.112
11.117000 0.679 -4.073
11.128500 0.6778 -4.04
11.140000 0.6766 -4.002
11.151500 0.6726 -3.964
11.163000 0.6718 -3.928
11.174500 0.67 -3.888
11.186000 0.6672 -3.855
11.197500 0.665 -3.815
11.209000 0.6614 -3.779
11.220500 0.6596 -3.742
11.232000 0.6566 -3.706
11.243500 0.6538 -3.668
11.255000 0.652 -3.63
11.266500 0.648 -3.593
11.278000 0.6444 -3.556
11.289500 0.6414 -3.519
11.301000 0.6386 -3.482
11.312500 0.6346 -3.442
11.324000 0.6318 -3.405
11.335500 0.628 -3.368
11.347000 0.6238 -3.329
11.358500 0.6192 -3.291
11.370000 0.6166 -3.251
11.381500 0.614 -3.209
11.393000 0.6096 -3.172
11.404500 0.6052 -3.133
11.416000 0.6026 -3.091
11.427500 0.5982 -3.051
11.439000 0.5954 -3.012
11.450500 0.5914 -2.97
11.462000 0.5884 -2.929
11.473500 0.5854 -2.888
11.485000 0.5816 -2.846
11.496500 0.5792 -2.804
11.508000 0.5768 -2.761
11.519500 0.574 -2.719
11.531000 0.572 -2.676
11.542500 0.569 -2.632
11.554000 0.568 -2.587
11.565500 0.5658 -2.543
11.577000 0.5644 -2.498
11.588500 0.5626 -2.452
11.600000 0.5608 -2.407
11.611500 0.5598 -2.361
11.623000 0.56 -2.314
11.634500 0.5596 -2.268
11.646000 0.5586 -2.22
11.657500 0.5588 -2.173
11.669000 0.559 -2.125
11.680500 0.5594 -2.076
11.692000 0.56 -2.027
11.703500 0.562 -1.977
11.715000 0.563 -1.928
11.726500 0.565 -1.877
11.738000 0.5664 -1.825
11.749500 0.569 -1.774
11.761000 0.5712 -1.721
11.772500 0.5744 -1.67
11.784000 0.5776 -1.616
11.795500 0.5816 -1.562
11.807000 0.5854 -1.508
11.818500 0.5898 -1.453
11.830000 0.5944 -1.397
11.841500 0.5982 -1.34
11.853000 0.6046 -1.284
11.864500 0.6102 -1.225
11.876000 0.6162 -1.168
11.887500 0.6232 -1.108
11.899000 0.6298 -1.048
11.910500 0.6372 -0.987
11.922000 0.645 -0.9254
11.933500 0.6532 -0.863
11.945000 0.6614 -0.8004
11.956500 0.6706 -0.7356
11.968000 0.6804 -0.6704
11.979500 0.69 -0.6044
11.991000 0.7006 -0.537
12.002500 0.7114 -0.4692
12.014000 0.7226 -0.4004
12.025500 0.7344 -0.3304
12.037000 0.747 -0.2592
12.048500 0.7602 -0.1868
12.060000 0.774 -0.1136
12.071500 0.7886 -0.039
12.083000 0.8034 0.0366
12.094500 0.8192 0.1138
12.106000 0.836 0.192
12.117500 0.8536 0.2718
12.129000 0.8722 0.3528
12.140500 0.8916 0.4352
12.152000 0.9122 0.5192
12.163500 0.9344 0.6048
12.175000 0.9572 0.6916
12.186500 0.9814 0.781
12.198000 1.007 0.8714
12.209500 1.034 0.9648
12.221000 1.063 1.06
12.232500 1.092 1.156
12.244000 1.123 1.256
12.255500 1.157 1.357
12.267000 1.192 1.461
12.278500 1.229 1.568
12.290000 1.269 1.677
12.301500 1.309 1.79
12.313000 1.354 1.905
12.324500 1.4 2.023
12.336000 1.448 2.145
12.347500 1.5 2.268
12.359000 1.556 2.396
12.370500 1.614 2.528
12.382000 1.676 2.661
12.393500 1.742 2.802
12.405000 1.812 2.948
12.416500 1.886 3.097
12.428000 1.964 3.248
12.439500 2.05 3.406
12.451000 2.139 3.57
12.462500 2.237 3.739
12.474000 2.341 3.909
12.485500 2.449 4.091
12.497000 2.571 4.272
12.508500 2.692 4.47
12.520000 2.831 4.666
12.531500 2.979 4.873
12.543000 3.139 5.085
12.554500 3.312 5.3
12.566000 3.493 5.527
12.577500 3.696 5.762
12.589000 3.921 6.008
12.600500 4.142 6.249
12.612000 4.404 6.513
12.623500 4.685 6.772
12.635000 4.984 7.046
12.646500 5.313 7.329
12.658000 5.688 7.606
12.669500 6.068 7.897
12.681000 6.526 8.175
12.692500 7.01 8.474
12.704000 7.5 8.81
12.715500 8.185 9.025
12.727000 8.783 9.323
12.738500 9.506 9.593
12.750000 10.28 9.795
12.761500 11.17 9.976
12.773000 12.1 10.11
12.784500 13.13 10.2
12.796000 14.27 10.14
12.807500 15.48 10.04
12.819000 16.82 9.758
12.830500 18.18 9.336
12.842000 19.58 8.689
12.853500 21 7.824
12.865000 22.36 6.662
12.876500 23.57 5.278
12.888000 24.72 3.667
12.899500 25.65 1.799
12.911000 26.14 -0.2434
12.922500 26.39 -2.398
12.934000 26.28 -4.582
12.945500 25.87 -6.609
12.957000 24.94 -8.548
12.968500 23.94 -10.24
12.980000 22.77 -11.7
12.991500 21.38 -12.94
13.003000 19.95 -13.84
13.014500 18.59 -14.56
13.026000 17.28 -15.09
13.037500 15.91 -15.37
13.049000 14.71 -15.57
13.060500 13.55 -15.58
13.072000 12.45 -15.55
13.083500 11.53 -15.39
13.095000 10.59 -15.26
13.106500 9.838 -15.04
13.118000 9.105 -14.77
13.129500 8.444 -14.47
13.141000 7.866 -14.24
13.152500 7.328 -13.97
13.164000 6.823 -13.65
13.175500 6.387 -13.39
13.187000 6.018 -13.11
13.198500 5.624 -12.87
13.210000 5.287 -12.53
13.221500 4.987 -12.28
13.233000 4.69 -12.01
13.244500 4.454 -11.77
13.256000 4.206 -11.53
13.267500 3.976 -11.27
13.279000 3.789 -11.05
13.290500 3.61 -10.82
13.302000 3.428 -10.61
13.313500 3.276 -10.41
13.325000 3.118 -10.19
13.336500 2.984 -9.995
13.348000 2.856 -9.806
13.359500 2.748 -9.632
13.371000 2.632 -9.453
13.382500 2.541 -9.277
13.394000 2.441 -9.106
13.405500 2.363 -8.947
13.417000 2.269 -8.793
13.428500 2.191 -8.641
13.440000 2.112 -8.496
13.451500 2.055 -8.343
13.463000 1.993 -8.209
13.474500 1.93 -8.069
13.486000 1.881 -7.94
13.497500 1.824 -7.808
13.509000 1.775 -7.686
13.520500 1.727 -7.56
13.532000 1.681 -7.441
13.543500 1.643 -7.325
13.555000 1.603 -7.21
13.566500 1.561 -7.108
13.578000 1.532 -6.994
13.589500 1.495 -6.891
13.601000 1.463 -6.788
13.612500 1.44 -6.685
13.624000 1.411 -6.589
13.635500 1.387 -6.492
13.647000 1.362 -6.398
13.658500 1.344 -6.305
13.670000 1.323 -6.214
13.681500 1.304 -6.126
13.693000 1.286 -6.038
13.704500 1.267 -5.956
13.716000 1.251 -5.867
13.727500 1.235 -5.79
13.739000 1.221 -5.705
13.750500 1.205 -5.623
13.762000 1.195 -5.546
13.773500 1.187 -5.47
13.785000 1.174 -5.39
13.796500 1.166 -5.317
13.808000 1.155 -5.244
13.819500 1.15 -5.17
13.831000 1.143 -5.101
13.842500 1.133 -5.028
13.854000 1.125 -4.956
13.865500 1.121 -4.887
13.877000 1.114 -4.821
13.888500 1.114 -4.752
13.900000 1.109 -4.685
13.911500 1.104 -4.616
13.923000 1.099 -4.554
13.934500 1.101 -4.488
13.946000 1.099 -4.424
13.957500 1.096 -4.36
13.969000 1.095 -4.298
13.980500 1.098 -4.234
13.992000 1.097 -4.171
14.003500 1.099 -4.113
14.015000 1.101 -4.051
14.026500 1.104 -3.989
14.038000 1.105 -3.927
14.049500 1.109 -3.865
14.061000 1.113 -3.805
14.072500 1.116 -3.745
14.084000 1.12 -3.686
14.095500 1.126 -3.625
14.107000 1.133 -3.565
14.118500 1.137 -3.507
14.130000 1.143 -3.447
14.141500 1.152 -3.387
14.153000 1.158 -3.33
14.164500 1.166 -3.27
14.176000 1.173 -3.214
14.187500 1.182 -3.155
14.199000 1.192 -3.095
14.210500 1.201 -3.036
14.222000 1.213 -2.977
14.233500 1.224 -2.918
14.245000 1.235 -2.861
14.256500 1.247 -2.799
14.268000 1.26 -2.74
14.279500 1.274 -2.68
14.291000 1.288 -2.62
14.302500 1.302 -2.559
14.314000 1.318 -2.499
14.325500 1.333 -2.437
14.337000 1.35 -2.376
14.348500 1.368 -2.315
14.360000 1.387 -2.253
14.371500 1.406 -2.189
14.383000 1.427 -2.127
14.394500 1.448 -2.062
14.406000 1.471 -1.998
14.417500 1.495 -1.934
14.429000 1.519 -1.867
14.440500 1.544 -1.801
14.452000 1.57 -1.735
14.463500 1.598 -1.666
14.475000 1.628 -1.599
14.486500 1.659 -1.529
14.498000 1.69 -1.459
14.509500 1.724 -1.389
14.521000 1.759 -1.318
14.532500 1.795 -1.247
14.544000 1.834 -1.173
14.555500 1.873 -1.1
14.567000 1.914 -1.026
14.578500 1.959 -0.9496
14.590000 2.004 -0.8746
14.601500 2.053 -0.7976
14.613000 2.103 -0.7194
14.624500 2.156 -0.6404
14.636000 2.211 -0.5608
14.647500 2.269 -0.4814
14.659000 2.331 -0.3986
14.670500 2.395 -0.3154
14.682000 2.462 -0.2338
14.693500 2.533 -0.151
14.705000 2.606 -0.0668
14.716500 2.685 0.0194
14.728000 2.766 0.1032
14.739500 2.852 0.1894
14.751000 2.941 0.2756
14.762500 3.038 0.3622
14.774000 3.14 0.4486
14.785500 3.247 0.535
14.797000 3.359 0.6212
14.808500 3.477 0.707
14.820000 3.601 0.7876
14.831500 3.733 0.8786
14.843000 3.874 0.9612
14.854500 4.018 1.044
14.866000 4.171 1.125
14.877500 4.333 1.202
14.889000 4.507 1.279
14.900500 4.688 1.353
14.912000 4.875 1.425
14.923500 5.081 1.489
14.935000 5.291 1.543
14.946500 5.514 1.597
14.958000 5.749 1.635
14.969500 5.994 1.67
14.981000 6.252 1.697
14.992500 6.512 1.703
15.004000 6.789 1.695
15.015500 7.071 1.687
15.027000 7.378 1.651
15.038500 7.691 1.593
15.050000 8.009 1.525
15.061500 8.33 1.424
15.073000 8.661 1.314
15.084500 9.007 1.162
15.096000 9.34 0.984
15.107500 9.678 0.7746
15.119000 10.02 0.5494
15.130500 10.35 0.2788
15.142000 10.65 -0.021
15.153500 10.96 -0.3572
15.165000 11.23 -0.7322
15.176500 11.5 -1.128
15.188000 11.71 -1.551
15.199500 11.9 -1.994
15.211000 12.07 -2.484
15.222500 12.22 -2.982
15.234000 12.24 -3.479
15.245500 12.26 -3.981
15.257000 12.25 -4.464
15.268500 12.15 -4.985
15.280000 12.05 -5.475
15.291500 11.9 -5.954
15.303000 11.71 -6.418
15.314500 11.48 -6.834
15.326000 11.23 -7.234
15.337500 10.95 -7.617
15.349000 10.66 -7.943
15.360500 10.34 -8.233
15.372000 10.03 -8.511
15.383500 9.696 -8.757
15.395000 9.371 -8.955
15.406500 9.011 -9.131
15.418000 8.679 -9.302
15.429500 8.343 -9.391
15.441000 8.013 -9.495
15.452500 7.687 -9.581
15.464000 7.371 -9.635
15.475500 7.086 -9.685
15.487000 6.783 -9.697
15.498500 6.5 -9.706
15.510000 6.231 -9.696
15.521500 5.967 -9.677
15.533000 5.733 -9.658
15.544500 5.496 -9.625
15.556000 5.262 -9.58
15.567500 5.054 -9.513
15.579000 4.848 -9.45
15.590500 4.66 -9.395
15.602000 4.462 -9.33
15.613500 4.282 -9.259
15.625000 4.117 -9.206
15.636500 3.958 -9.125
15.648000 3.809 -9.04
15.659500 3.667 -8.972
15.671000 3.528 -8.888
15.682500 3.394 -8.812
15.694000 3.269 -8.737
15.705500 3.152 -8.657
15.717000 3.041 -8.574
15.728500 2.94 -8.495
15.740000 2.834 -8.43
15.751500 2.735 -8.345
15.763000 2.644 -8.26
15.774500 2.553 -8.187
15.786000 2.466 -8.113
15.797500 2.385 -8.035
15.809000 2.306 -7.952
15.820500 2.234 -7.883
15.832000 2.157 -7.81
15.843500 2.098 -7.732
15.855000 2.036 -7.666
15.866500 1.969 -7.594
15.878000 1.91 -7.527
15.889500 1.853 -7.449
15.901000 1.799 -7.386
15.912500 1.753 -7.318
15.924000 1.704 -7.247
15.935500 1.657 -7.187
15.947000 1.612 -7.121
15.958500 1.565 -7.058
15.970000 1.526 -6.996
15.981500 1.484 -6.937
15.993000 1.445 -6.873
16.004500 1.408 -6.816
16.016000 1.371 -6.759
16.027500 1.334 -6.7
16.039000 1.303 -6.643
16.050500 1.27 -6.582
16.062000 1.246 -6.53
16.073500 1.21 -6.472
16.085000 1.181 -6.416
16.096500 1.158 -6.366
16.108000 1.132 -6.313
16.119500 1.111 -6.26
16.131000 1.085 -6.209
16.142500 1.06 -6.157
16.154000 1.038 -6.108
16.165500 1.018 -6.059
16.177000 0.9922 -6.006
16.188500 0.9756 -5.961
16.200000 0.9558 -5.914
16.211500 0.9408 -5.864
16.223000 0.9216 -5.819
16.234500 0.8988 -5.777
16.246000 0.8876 -5.73
16.257500 0.8692 -5.685
16.269000 0.852 -5.641
16.280500 0.837 -5.598
16.292000 0.828 -5.552
16.303500 0.8082 -5.514
16.315000 0.7964 -5.469
16.326500 0.7828 -5.431
16.338000 0.772 -5.388
16.349500 0.7606 -5.346
16.361000 0.7476 -5.306
16.372500 0.7326 -5.268
16.384000 0.7244 -5.228
16.395500 0.7092 -5.19
16.407000 0.7006 -5.152
16.418500 0.689 -5.113
16.430000 0.6814 -5.074
16.441500 0.6706 -5.042
16.453000 0.6622 -5.001
16.464500 0.6524 -4.964
16.476000 0.6418 -4.931
16.487500 0.6352 -4.893
16.499000 0.626 -4.856
16.510500 0.6202 -4.822
16.522000 0.6116 -4.787
16.533500 0.6034 -4.752
16.545000 0.5918 -4.719
16.556500 0.587 -4.684
16.568000 0.5804 -4.651
16.579500 0.5744 -4.617
16.591000 0.5684 -4.585
16.602500 0.5594 -4.553
16.614000 0.554 -4.518
16.625500 0.5464 -4.486
16.637000 0.5404 -4.456
16.648500 0.5346 -4.423
16.660000 0.5294 -4.393
16.671500 0.5242 -4.359
16.683000 0.5192 -4.329
16.694500 0.5134 -4.295
16.706000 0.5078 -4.264
16.717500 0.503 -4.233
16.729000 0.4984 -4.205
16.740500 0.4946 -4.17
16.752000 0.4898 -4.141
16.763500 0.4858 -4.111
16.775000 0.4824 -4.082
16.786500 0.4784 -4.049
16.798000 0.474 -4.022
16.809500 0.4708 -3.991
16.821000 0.4688 -3.96
16.832500 0.4646 -3.931
16.844000 0.4642 -3.902
16.855500 0.4582 -3.871
16.867000 0.456 -3.844
16.878500 0.4536 -3.814
16.890000 0.4496 -3.785
16.901500 0.4486 -3.754
16.913000 0.446 -3.727
16.924500 0.4432 -3.699
16.936000 0.4416 -3.669
16.947500 0.44 -3.641
16.959000 0.437 -3.613
16.970500 0.4352 -3.584
16.982000 0.4328 -3.554
16.993500 0.4298 -3.527
17.005000 0.4298 -3.498
17.016500 0.428 -3.47
17.028000 0.4272 -3.441
17.039500 0.4258 -3.412
17.051000 0.4252 -3.384
17.062500 0.424 -3.355
17.074000 0.4224 -3.328
