! Touchstone file generated by AntScope2
# MHz Z RI R 50
! Format: Frequency Z-real Z-imaginary (normalized to 50 Ohm)
3.000000 3.533 -5.956
3.013500 3.543 -5.951
3.027000 3.559 -5.952
3.040500 3.569 -5.949
3.054000 3.59 -5.953
3.067500 3.61 -5.951
3.081000 3.635 -5.957
3.094500 3.66 -5.961
3.108000 3.685 -5.967
3.121500 3.714 -5.97
3.135000 3.744 -5.979
3.148500 3.771 -5.99
3.162000 3.8 -5.996
3.175500 3.833 -6.005
3.189000 3.864 -6.015
3.202500 3.895 -6.029
3.216000 3.922 -6.035
3.229500 3.948 -6.049
3.243000 3.972 -6.064
3.256500 3.993 -6.073
3.270000 4.014 -6.088
3.283500 4.034 -6.095
3.297000 4.05 -6.099
3.310500 4.058 -6.107
3.324000 4.063 -6.111
3.337500 4.07 -6.112
3.351000 4.067 -6.107
3.364500 4.064 -6.103
3.378000 4.06 -6.099
3.391500 4.047 -6.092
3.405000 4.029 -6.081
3.418500 4.014 -6.067
3.432000 3.993 -6.049
3.445500 3.962 -6.023
3.459000 3.932 -5.997
3.472500 3.896 -5.961
3.486000 3.852 -5.92
3.499500 3.813 -5.885
3.513000 3.725 -5.93
3.526500 3.628 -5.976
3.540000 3.536 -6.013
3.553500 3.434 -6.045
3.567000 3.333 -6.063
3.580500 3.232 -6.079
3.594000 3.129 -6.089
3.607500 3.019 -6.077
3.621000 2.916 -6.069
3.634500 2.81 -6.048
3.648000 2.707 -6.016
3.661500 2.612 -5.98
3.675000 2.515 -5.932
3.688500 2.423 -5.877
3.702000 2.334 -5.816
3.715500 2.249 -5.749
3.729000 2.171 -5.673
3.742500 2.098 -5.595
3.756000 2.028 -5.51
3.769500 1.966 -5.421
3.783000 1.906 -5.325
3.796500 1.856 -5.227
3.810000 1.823 -5.125
3.823500 1.823 -5.019
3.837000 1.971 -4.923
3.850500 2.699 -4.527
3.864000 2.745 -4.168
3.877500 2.664 -4.04
3.891000 2.589 -3.928
3.904500 2.518 -3.829
3.918000 2.454 -3.742
3.931500 2.392 -3.651
3.945000 2.331 -3.561
3.958500 2.274 -3.474
3.972000 2.219 -3.383
3.985500 2.167 -3.291
3.999000 2.112 -3.194
4.012500 2.045 -3.109
4.026000 1.981 -3.02
4.039500 1.916 -2.923
4.053000 1.856 -2.824
4.066500 1.797 -2.733
4.080000 1.744 -2.649
4.093500 1.695 -2.57
4.107000 1.65 -2.496
4.120500 1.607 -2.421
4.134000 1.567 -2.349
4.147500 1.527 -2.276
4.161000 1.489 -2.201
4.174500 1.452 -2.126
4.188000 1.416 -2.05
4.201500 1.381 -1.974
4.215000 1.347 -1.894
4.228500 1.315 -1.809
4.242000 1.287 -1.721
4.255500 1.259 -1.629
4.269000 1.235 -1.537
4.282500 1.214 -1.444
4.296000 1.195 -1.349
4.309500 1.177 -1.253
4.323000 1.162 -1.156
4.336500 1.149 -1.059
4.350000 1.138 -0.9632
4.363500 1.128 -0.8664
4.377000 1.12 -0.77
4.390500 1.114 -0.6744
4.404000 1.109 -0.5786
4.417500 1.105 -0.4832
4.431000 1.102 -0.3882
4.444500 1.1 -0.2944
4.458000 1.099 -0.2014
4.471500 1.098 -0.1096
4.485000 1.098 -0.018
4.498500 1.1 0.0718
4.512000 1.102 0.1626
4.525500 1.105 0.2524
4.539000 1.109 0.3434
4.552500 1.113 0.4338
4.566000 1.118 0.5238
4.579500 1.124 0.6142
4.593000 1.13 0.7044
4.606500 1.136 0.795
4.620000 1.143 0.8848
4.633500 1.151 0.9748
4.647000 1.158 1.065
4.660500 1.166 1.155
4.674000 1.175 1.245
4.687500 1.182 1.336
4.701000 1.192 1.424
4.714500 1.201 1.514
4.728000 1.21 1.603
4.741500 1.219 1.693
4.755000 1.228 1.782
4.768500 1.238 1.871
4.782000 1.248 1.959
4.795500 1.259 2.048
4.809000 1.27 2.136
4.822500 1.282 2.225
4.836000 1.295 2.313
4.849500 1.307 2.4
4.863000 1.321 2.487
4.876500 1.337 2.573
4.890000 1.352 2.659
4.903500 1.37 2.744
4.917000 1.388 2.828
4.930500 1.409 2.912
4.944000 1.431 2.995
4.957500 1.454 3.078
4.971000 1.479 3.157
4.984500 1.506 3.239
4.998000 1.537 3.318
5.011500 1.55 3.418
5.025000 1.561 3.522
5.038500 1.572 3.626
5.052000 1.582 3.729
5.065500 1.591 3.833
5.079000 1.599 3.936
5.092500 1.608 4.042
5.106000 1.618 4.148
5.119500 1.626 4.252
5.133000 1.636 4.358
5.146500 1.645 4.462
5.160000 1.654 4.566
5.173500 1.666 4.672
5.187000 1.676 4.775
5.200500 1.69 4.877
5.214000 1.701 4.981
5.227500 1.712 5.084
5.241000 1.727 5.189
5.254500 1.741 5.285
5.268000 1.759 5.386
5.281500 1.779 5.487
5.295000 1.798 5.583
5.308500 1.825 5.679
5.322000 1.845 5.776
5.335500 1.874 5.873
5.349000 1.902 5.966
5.362500 1.936 6.058
5.376000 1.976 6.146
5.389500 2.017 6.239
5.403000 2.06 6.324
5.416500 2.108 6.411
5.430000 2.158 6.495
5.443500 2.215 6.582
5.457000 2.274 6.657
5.470500 2.344 6.735
5.484000 2.416 6.811
5.497500 2.489 6.887
5.511000 2.508 7.019
5.524500 2.51 7.17
5.538000 2.515 7.319
5.551500 2.518 7.465
5.565000 2.521 7.614
5.578500 2.52 7.759
5.592000 2.52 7.912
5.605500 2.527 8.054
5.619000 2.527 8.204
5.632500 2.532 8.343
5.646000 2.528 8.484
5.659500 2.542 8.634
5.673000 2.546 8.774
5.686500 2.551 8.912
5.700000 2.568 9.051
5.713500 2.591 9.188
5.727000 2.6 9.318
5.740500 2.627 9.442
5.754000 2.655 9.577
5.767500 2.685 9.694
5.781000 2.718 9.826
5.794500 2.758 9.941
5.808000 2.809 10.06
5.821500 2.859 10.18
5.835000 2.917 10.29
5.848500 2.985 10.4
5.862000 3.063 10.5
5.875500 3.15 10.6
5.889000 3.229 10.7
5.902500 3.339 10.8
5.916000 3.444 10.88
5.929500 3.575 10.97
5.943000 3.707 11.03
5.956500 3.827 11.11
5.970000 3.991 11.18
5.983500 4.149 11.22
5.997000 4.322 11.28
6.010500 4.342 11.47
6.024000 4.351 11.73
6.037500 4.334 11.98
6.051000 4.343 12.22
6.064500 4.332 12.48
6.078000 4.323 12.73
6.091500 4.299 12.95
6.105000 4.312 13.19
6.118500 4.292 13.42
6.132000 4.292 13.66
6.145500 4.276 13.92
6.159000 4.279 14.12
6.172500 4.299 14.33
6.186000 4.306 14.56
6.199500 4.339 14.78
6.213000 4.363 15
6.226500 4.401 15.22
6.240000 4.421 15.4
6.253500 4.49 15.6
6.267000 4.578 15.78
6.280500 4.643 15.94
6.294000 4.739 16.18
6.307500 4.832 16.34
6.321000 4.988 16.46
6.334500 5.123 16.61
6.348000 5.276 16.78
6.361500 5.487 16.88
6.375000 5.616 16.98
6.388500 5.878 17.1
6.402000 6.078 17.18
6.415500 6.353 17.29
6.429000 6.631 17.31
6.442500 6.911 17.36
6.456000 7.219 17.38
6.469500 7.578 17.4
6.483000 7.908 17.41
6.496500 8.318 17.3
6.510000 8.393 17.63
6.523500 8.456 18.13
6.537000 8.429 18.6
6.550500 8.444 19.1
6.564000 8.474 19.55
6.577500 8.533 19.99
6.591000 8.511 20.52
6.604500 8.592 20.92
6.618000 8.643 21.33
6.631500 8.628 21.83
6.645000 8.688 22.31
6.658500 8.778 22.65
6.672000 8.778 23.09
6.685500 8.871 23.47
6.699000 9.004 23.86
6.712500 9.104 24.25
6.726000 9.256 24.64
6.739500 9.408 24.94
6.753000 9.686 25.22
6.766500 9.924 25.61
6.780000 10.12 25.92
6.793500 10.44 26.1
6.807000 10.77 26.34
6.820500 11.05 26.38
6.834000 11.51 26.48
6.847500 11.66 26.77
6.861000 12.43 26.64
6.874500 12.96 26.77
6.888000 13.44 26.63
6.901500 14.05 26.48
6.915000 14.67 26.33
6.928500 15.25 26.18
6.942000 15.98 25.81
6.955500 16.63 25.48
6.969000 17.29 24.93
6.982500 17.87 24.45
6.996000 18.49 23.96
7.009500 18.94 24.34
7.023000 19.48 25.25
7.036500 19.63 26.18
7.050000 19.99 27.07
7.063500 20.3 28.05
7.077000 20.62 28.94
7.090500 21.09 29.81
7.104000 21.29 30.53
7.117500 21.75 31.64
7.131000 22.13 32.29
7.144500 22.7 33.3
7.158000 23.08 34.01
7.171500 23.42 34.76
7.185000 23.79 35.42
7.198500 24.5 36.18
7.212000 24.88 36.44
7.225500 25.53 37.12
7.239000 26 37.42
7.252500 26.78 38.03
7.266000 27.37 38.08
7.279500 28.03 38.35
7.293000 28.96 38.22
7.306500 29.94 38.11
7.320000 30.58 37.71
7.333500 31.6 37.3
7.347000 32.51 36.82
7.360500 33.51 36.11
7.374000 34.15 35.08
7.387500 35.28 34.27
7.401000 35.95 33.41
7.414500 36.74 31.94
7.428000 37.01 30.26
7.441500 37.48 28.94
7.455000 37.79 27.16
7.468500 37.86 25.4
7.482000 38.01 23.79
7.495500 38.15 22.12
7.509000 38.72 22.01
7.522500 40.59 23.15
7.536000 42.22 24.1
7.549500 43.74 24.99
7.563000 45.78 26.46
7.576500 47.56 26.86
7.590000 49.3 27.89
7.603500 51 28.89
7.617000 52.85 29.57
7.630500 54.75 30.38
7.644000 57.08 30.79
7.657500 58.91 31.36
7.671000 60.79 32.04
7.684500 62.48 32.25
7.698000 64.13 31.92
7.711500 65.58 31.83
7.725000 67.41 31.14
7.738500 69.24 30.98
7.752000 70.12 29.82
7.765500 71.25 28.71
7.779000 71.77 26.7
7.792500 72.87 25.95
7.806000 72.57 24
7.819500 72.67 21.02
7.833000 72.48 19.61
7.846500 71.71 17.56
7.860000 70.42 15.08
7.873500 69.53 12.31
7.887000 68.38 10.35
7.900500 66.59 8.77
7.914000 64.25 6.128
7.927500 62.87 5.348
7.941000 60.28 2.843
7.954500 57.91 2.292
7.968000 56.07 0.4116
7.981500 53.86 -0.5674
7.995000 51.4 -1.65
8.008500 51.85 -2.751
8.022000 53.94 -4.126
8.035500 55.99 -5.338
8.049000 57.9 -6.714
8.062500 59.59 -8.64
8.076000 61.63 -10.39
8.089500 60.7 -13.86
8.103000 64.57 -14.25
8.116500 65.68 -16.39
8.130000 66.44 -18.77
8.143500 67.51 -20.1
8.157000 68.44 -21.83
8.170500 68.47 -24.37
8.184000 68.11 -25.45
8.197500 68.66 -27.38
8.211000 67.92 -28.38
8.224500 67.39 -29.33
8.238000 66.51 -30.11
8.251500 65.28 -31
8.265000 64.06 -31.4
8.278500 62.72 -31.56
8.292000 61.09 -31.85
8.305500 60.46 -31.62
8.319000 58.15 -31.44
8.332500 56.38 -30.62
8.346000 54.95 -30.21
8.359500 53.5 -29.56
8.373000 51.96 -28.77
8.386500 50.15 -28.16
8.400000 48.2 -26.87
8.413500 46.47 -25.93
8.427000 44.86 -25.2
8.440500 43.1 -24.01
8.454000 41.88 -23.05
8.467500 40.09 -21.98
8.481000 38.77 -21.12
8.494500 37.14 -20.26
8.508000 36.93 -20.69
8.521500 37.15 -22.18
8.535000 37.53 -23.62
8.548500 37.57 -24.78
8.562000 37.56 -26.46
8.575500 37.49 -27.29
8.589000 37.41 -28.77
8.602500 37.36 -29.89
8.616000 37.08 -31.03
8.629500 36.82 -31.87
8.643000 36.67 -32.86
8.656500 36.32 -33.92
8.670000 36.29 -34.17
8.683500 35.85 -34.72
8.697000 35.12 -35.18
8.710500 35.19 -35.63
8.724000 34.67 -35.54
8.737500 34.55 -35.48
8.751000 34.5 -35.73
8.764500 33.71 -35.31
8.778000 33.5 -35.25
8.791500 33.24 -34.82
8.805000 33.16 -34.61
8.818500 32.55 -33.96
8.832000 32.47 -32.94
8.845500 32.18 -32.76
8.859000 31.65 -31.88
8.872500 31.35 -31.09
8.886000 31 -30.42
8.899500 30.44 -29.44
8.913000 30.01 -28.73
8.926500 29.6 -27.76
8.940000 29.15 -27.06
8.953500 28.66 -26.06
8.967000 28.01 -25.28
8.980500 27.51 -24.32
8.994000 26.65 -23.35
9.007500 26.41 -23.66
9.021000 26.26 -25.01
9.034500 26.13 -26.26
9.048000 25.8 -27.31
9.061500 25.49 -28.66
9.075000 25.15 -29.75
9.088500 24.63 -30.77
9.102000 24.12 -31.72
9.115500 23.45 -32.69
9.129000 23.04 -33.48
9.142500 22.32 -34.05
9.156000 21.79 -34.95
9.169500 21.19 -35.41
9.183000 20.38 -35.6
9.196500 19.71 -36.09
9.210000 19.31 -36.3
9.223500 18.62 -36.42
9.237000 18.12 -36.33
9.250500 17.69 -36.12
9.264000 17.09 -36.07
9.277500 16.77 -35.71
9.291000 16.35 -35.41
9.304500 16.1 -34.87
9.318000 15.92 -34.63
9.331500 15.52 -33.91
9.345000 15.29 -33.23
9.358500 15.04 -32.74
9.372000 15.09 -32.05
9.385500 14.92 -31.24
9.399000 14.85 -30.55
9.412500 14.83 -29.8
9.426000 14.73 -28.98
9.439500 14.66 -28.14
9.453000 14.59 -27.4
9.466500 14.42 -26.63
9.480000 14.37 -25.75
9.493500 14.27 -24.88
9.507000 13.98 -24.75
9.520500 13.27 -25.15
9.534000 12.52 -25.63
9.547500 12.01 -25.91
9.561000 11.3 -26.18
9.574500 10.75 -26.37
9.588000 10.21 -26.6
9.601500 9.659 -26.66
9.615000 9.101 -26.75
9.628500 8.78 -26.82
9.642000 8.282 -26.75
9.655500 7.869 -26.73
9.669000 7.706 -26.55
9.682500 7.529 -26.3
9.696000 7.407 -26.15
9.709500 7.274 -25.95
9.723000 7.126 -25.72
9.736500 6.999 -25.51
9.750000 6.951 -25.43
9.763500 6.784 -25.13
9.777000 6.65 -24.89
9.790500 6.531 -24.66
9.804000 6.437 -24.45
9.817500 6.327 -24.21
9.831000 6.375 -23.91
9.844500 6.3 -23.68
9.858000 6.484 -23.27
9.871500 6.548 -22.86
9.885000 6.623 -22.81
9.898500 6.773 -22.07
9.912000 6.944 -21.64
9.925500 7.033 -21.22
9.939000 7.183 -20.78
9.952500 7.292 -20.36
9.966000 7.365 -19.85
9.979500 7.502 -19.43
9.993000 7.611 -18.96
10.006500 7.476 -18.76
10.020000 7.075 -18.91
10.033500 6.732 -18.95
10.047000 6.386 -19.03
10.060500 6.048 -19.1
10.074000 5.726 -19.12
10.087500 5.458 -19.16
10.101000 5.193 -19.13
10.114500 4.968 -19.09
10.128000 4.708 -19.06
10.141500 4.503 -19.02
10.155000 4.348 -18.95
10.168500 4.195 -18.9
10.182000 4.025 -18.82
10.195500 3.927 -18.72
10.209000 3.865 -18.59
10.222500 3.76 -18.52
10.236000 3.724 -18.41
10.249500 3.696 -18.26
10.263000 3.667 -18.12
10.276500 3.665 -18
10.290000 3.682 -17.83
10.303500 3.711 -17.7
10.317000 3.769 -17.53
10.330500 3.808 -17.36
10.344000 3.89 -17.18
10.357500 3.937 -16.95
10.371000 4.037 -16.78
10.384500 4.104 -16.57
10.398000 4.185 -16.33
10.411500 4.293 -16.09
10.425000 4.369 -15.87
10.438500 4.461 -15.61
10.452000 4.575 -15.37
10.465500 4.664 -15.1
10.479000 4.771 -14.82
10.492500 4.864 -14.57
10.506000 4.793 -14.42
10.519500 4.571 -14.46
10.533000 4.352 -14.47
10.546500 4.116 -14.47
10.560000 3.929 -14.48
10.573500 3.733 -14.48
10.587000 3.573 -14.45
10.600500 3.42 -14.43
10.614000 3.286 -14.4
10.627500 3.161 -14.34
10.641000 3.033 -14.28
10.654500 2.953 -14.23
10.668000 2.851 -14.17
10.681500 2.77 -14.12
10.695000 2.724 -14.05
10.708500 2.662 -13.99
10.722000 2.613 -13.89
10.735500 2.581 -13.81
10.749000 2.578 -13.73
10.762500 2.572 -13.64
10.776000 2.579 -13.54
10.789500 2.586 -13.45
10.803000 2.61 -13.34
10.816500 2.641 -13.24
10.830000 2.682 -13.13
10.843500 2.726 -13
10.857000 2.78 -12.88
10.870500 2.827 -12.75
10.884000 2.901 -12.62
10.897500 2.964 -12.47
10.911000 3.03 -12.32
10.924500 3.104 -12.17
10.938000 3.17 -12
10.951500 3.238 -11.85
10.965000 3.32 -11.67
10.978500 3.396 -11.5
10.992000 3.456 -11.32
11.005500 3.442 -11.21
11.019000 3.298 -11.2
11.032500 3.164 -11.18
11.046000 3.016 -11.16
11.059500 2.899 -11.14
11.073000 2.78 -11.11
11.086500 2.681 -11.07
11.100000 2.587 -11.04
11.113500 2.501 -11
11.127000 2.42 -10.95
11.140500 2.347 -10.9
11.154000 2.288 -10.85
11.167500 2.236 -10.8
11.181000 2.201 -10.75
11.194500 2.156 -10.69
11.208000 2.127 -10.63
11.221500 2.109 -10.57
11.235000 2.087 -10.51
11.248500 2.074 -10.44
11.262000 2.081 -10.37
11.275500 2.077 -10.3
11.289000 2.084 -10.22
11.302500 2.1 -10.15
11.316000 2.122 -10.07
11.329500 2.139 -9.99
11.343000 2.171 -9.909
11.356500 2.201 -9.82
11.370000 2.237 -9.73
11.383500 2.277 -9.64
11.397000 2.317 -9.543
11.410500 2.357 -9.443
11.424000 2.406 -9.336
11.437500 2.454 -9.234
11.451000 2.504 -9.121
11.464500 2.552 -9.017
11.478000 2.603 -8.898
11.491500 2.649 -8.778
11.505000 2.644 -8.696
11.518500 2.556 -8.67
11.532000 2.473 -8.644
11.545500 2.393 -8.615
11.559000 2.321 -8.581
11.572500 2.253 -8.55
11.586000 2.192 -8.511
11.599500 2.136 -8.477
11.613000 2.086 -8.437
11.626500 2.043 -8.397
11.640000 2.005 -8.353
11.653500 1.965 -8.313
11.667000 1.937 -8.265
11.680500 1.916 -8.219
11.694000 1.898 -8.172
11.707500 1.881 -8.121
11.721000 1.873 -8.073
11.734500 1.869 -8.013
11.748000 1.867 -7.954
11.761500 1.865 -7.901
11.775000 1.869 -7.843
11.788500 1.884 -7.78
11.802000 1.895 -7.72
11.815500 1.91 -7.658
11.829000 1.925 -7.594
11.842500 1.947 -7.514
11.856000 1.964 -7.459
11.869500 1.991 -7.385
11.883000 2.018 -7.315
11.896500 2.046 -7.24
11.910000 2.075 -7.164
11.923500 2.106 -7.083
11.937000 2.136 -7.004
11.950500 2.169 -6.921
11.964000 2.2 -6.838
11.977500 2.233 -6.751
11.991000 2.267 -6.665
12.004500 2.27 -6.595
12.018000 2.223 -6.563
12.031500 2.18 -6.531
12.045000 2.136 -6.499
12.058500 2.1 -6.465
12.072000 2.072 -6.432
12.085500 2.042 -6.395
12.099000 2.012 -6.363
12.112500 1.989 -6.322
12.126000 1.969 -6.278
12.139500 1.952 -6.239
12.153000 1.937 -6.2
12.166500 1.925 -6.157
12.180000 1.915 -6.113
12.193500 1.91 -6.063
12.207000 1.91 -6.021
12.220500 1.907 -5.979
12.234000 1.908 -5.932
12.247500 1.913 -5.882
12.261000 1.918 -5.833
12.274500 1.929 -5.784
12.288000 1.94 -5.729
12.301500 1.951 -5.68
12.315000 1.966 -5.627
12.328500 1.983 -5.568
12.342000 2 -5.512
12.355500 2.019 -5.455
12.369000 2.037 -5.395
12.382500 2.056 -5.332
12.396000 2.075 -5.271
12.409500 2.097 -5.204
12.423000 2.118 -5.137
12.436500 2.139 -5.07
12.450000 2.162 -5
12.463500 2.182 -4.93
12.477000 2.205 -4.863
12.490500 2.226 -4.79
12.504000 2.235 -4.728
12.517500 2.218 -4.695
12.531000 2.203 -4.661
12.544500 2.191 -4.625
12.558000 2.182 -4.592
12.571500 2.176 -4.556
12.585000 2.17 -4.519
12.598500 2.166 -4.477
12.612000 2.162 -4.443
12.625500 2.163 -4.403
12.639000 2.165 -4.364
12.652500 2.171 -4.323
12.666000 2.174 -4.283
12.679500 2.183 -4.24
12.693000 2.193 -4.199
12.706500 2.193 -4.163
12.720000 2.215 -4.115
12.733500 2.228 -4.072
12.747000 2.241 -4.029
12.760500 2.255 -3.983
12.774000 2.272 -3.936
12.787500 2.291 -3.891
12.801000 2.309 -3.843
12.814500 2.329 -3.8
12.828000 2.343 -3.747
12.841500 2.37 -3.698
12.855000 2.386 -3.649
12.868500 2.407 -3.6
12.882000 2.429 -3.551
12.895500 2.452 -3.499
12.909000 2.472 -3.453
12.922500 2.494 -3.401
12.936000 2.517 -3.354
12.949500 2.533 -3.301
12.963000 2.555 -3.255
12.976500 2.577 -3.201
12.990000 2.596 -3.153
13.003500 2.613 -3.111
13.017000 2.624 -3.093
13.030500 2.634 -3.077
13.044000 2.645 -3.058
13.057500 2.654 -3.045
13.071000 2.667 -3.029
13.084500 2.68 -3.013
13.098000 2.692 -3
13.111500 2.704 -2.985
13.125000 2.715 -2.972
13.138500 2.726 -2.958
13.152000 2.738 -2.946
13.165500 2.746 -2.931
13.179000 2.756 -2.918
13.192500 2.767 -2.905
13.206000 2.769 -2.892
13.219500 2.774 -2.877
13.233000 2.775 -2.866
13.246500 2.774 -2.853
13.260000 2.772 -2.838
13.273500 2.77 -2.824
13.287000 2.763 -2.807
13.300500 2.753 -2.789
13.314000 2.743 -2.771
13.327500 2.729 -2.748
13.341000 2.711 -2.728
13.354500 2.694 -2.702
13.368000 2.675 -2.675
13.381500 2.65 -2.644
13.395000 2.628 -2.612
13.408500 2.602 -2.574
13.422000 2.576 -2.537
13.435500 2.546 -2.496
13.449000 2.516 -2.452
13.462500 2.488 -2.403
13.476000 2.457 -2.353
13.489500 2.426 -2.304
13.503000 2.396 -2.254
13.516500 2.365 -2.215
13.530000 2.332 -2.174
13.543500 2.301 -2.13
13.557000 2.273 -2.085
13.570500 2.245 -2.033
13.584000 2.219 -1.98
13.597500 2.195 -1.924
13.611000 2.171 -1.868
13.624500 2.151 -1.806
13.638000 2.129 -1.745
13.651500 2.112 -1.681
13.665000 2.096 -1.616
13.678500 2.081 -1.549
13.692000 2.067 -1.48
13.705500 2.056 -1.409
13.719000 2.046 -1.34
13.732500 2.038 -1.267
13.746000 2.03 -1.194
13.759500 2.023 -1.122
13.773000 2.018 -1.047
13.786500 2.014 -0.9732
13.800000 2.011 -0.8978
13.813500 2.008 -0.8212
13.827000 2.007 -0.7464
13.840500 2.007 -0.6706
13.854000 2.008 -0.5932
13.867500 2.008 -0.5172
13.881000 2.009 -0.4412
13.894500 2.013 -0.3656
13.908000 2.015 -0.2896
13.921500 2.02 -0.2132
13.935000 2.024 -0.1386
13.948500 2.028 -0.0626
13.962000 2.033 0.0124
13.975500 2.04 0.0866
13.989000 2.046 0.1616
14.002500 2.054 0.2358
14.016000 2.067 0.311
14.029500 2.08 0.3868
14.043000 2.094 0.4632
14.056500 2.11 0.541
14.070000 2.125 0.6188
14.083500 2.14 0.6968
14.097000 2.155 0.7758
14.110500 2.173 0.8546
14.124000 2.188 0.934
14.137500 2.204 1.014
14.151000 2.221 1.095
14.164500 2.239 1.176
14.178000 2.256 1.256
14.191500 2.273 1.336
14.205000 2.291 1.416
14.218500 2.308 1.497
14.232000 2.326 1.578
14.245500 2.344 1.659
14.259000 2.364 1.74
14.272500 2.382 1.819
14.286000 2.402 1.9
14.299500 2.421 1.98
14.313000 2.439 2.058
14.326500 2.461 2.136
14.340000 2.481 2.213
14.353500 2.505 2.291
14.367000 2.527 2.368
14.380500 2.549 2.443
14.394000 2.575 2.518
14.407500 2.598 2.59
14.421000 2.622 2.662
14.434500 2.65 2.736
14.448000 2.68 2.806
14.461500 2.708 2.873
14.475000 2.739 2.942
14.488500 2.769 3.005
14.502000 2.806 3.075
14.515500 2.837 3.173
14.529000 2.868 3.272
14.542500 2.9 3.369
14.556000 2.929 3.466
14.569500 2.965 3.567
14.583000 2.992 3.667
14.596500 3.024 3.765
14.610000 3.061 3.864
14.623500 3.088 3.968
14.637000 3.124 4.069
14.650500 3.16 4.168
14.664000 3.191 4.266
14.677500 3.224 4.365
14.691000 3.257 4.463
14.704500 3.292 4.563
14.718000 3.329 4.659
14.731500 3.366 4.757
14.745000 3.404 4.848
14.758500 3.442 4.945
14.772000 3.483 5.038
14.785500 3.527 5.126
14.799000 3.564 5.222
14.812500 3.616 5.306
14.826000 3.66 5.395
14.839500 3.715 5.477
14.853000 3.763 5.558
14.866500 3.815 5.639
14.880000 3.868 5.714
14.893500 3.92 5.782
14.907000 3.987 5.855
14.920500 4.05 5.926
14.934000 4.112 5.988
14.947500 4.19 6.052
14.961000 4.262 6.102
14.974500 4.339 6.165
14.988000 4.405 6.208
15.001500 4.488 6.265
15.015000 4.546 6.408
15.028500 4.595 6.555
15.042000 4.651 6.706
15.055500 4.702 6.842
15.069000 4.758 6.986
15.082500 4.81 7.135
15.096000 4.861 7.267
15.109500 4.93 7.41
15.123000 4.992 7.549
15.136500 5.05 7.688
15.150000 5.118 7.823
15.163500 5.168 7.957
15.177000 5.239 8.098
15.190500 5.301 8.212
15.204000 5.361 8.351
15.217500 5.428 8.464
15.231000 5.506 8.575
15.244500 5.579 8.697
15.258000 5.662 8.829
15.271500 5.757 8.923
