! Touchstone file generated by AntScope2
# MHz Z RI R 50
! Format: Frequency Z-real Z-imaginary (normalized to 50 Ohm)
3.000000 0.791 8.834
3.013500 0.8294 9.101
3.027000 0.8752 9.408
3.040500 0.9224 9.704
3.054000 0.9772 10.03
3.067500 1.036 10.36
3.081000 1.102 10.72
3.094500 1.172 11.08
3.108000 1.251 11.47
3.121500 1.337 11.88
3.135000 1.427 12.29
3.148500 1.529 12.73
3.162000 1.638 13.19
3.175500 1.769 13.7
3.189000 1.908 14.22
3.202500 2.06 14.77
3.216000 2.227 15.35
3.229500 2.418 15.99
3.243000 2.612 16.61
3.256500 2.845 17.32
3.270000 3.109 18.09
3.283500 3.399 18.89
3.297000 3.726 19.75
3.310500 4.099 20.68
3.324000 4.528 21.7
3.337500 5.025 22.81
3.351000 5.605 24.02
3.364500 6.285 25.36
3.378000 7.009 26.69
3.391500 7.974 28.34
3.405000 9.094 30.1
3.418500 10.39 31.96
3.432000 11.98 34.05
3.445500 13.98 36.4
3.459000 16.56 39.08
3.472500 19.69 41.89
3.486000 23.44 44.74
3.499500 28.66 47.94
3.513000 35.29 50.95
3.526500 44.09 53.44
3.540000 56.03 54.42
3.553500 69.77 52.25
3.567000 84.98 45.08
3.580500 100.2 29.56
3.594000 108.5 7.006
3.607500 105.9 -17.92
3.621000 93.78 -37.66
3.634500 78.04 -49.08
3.648000 62.56 -53.85
3.661500 50.05 -54.28
3.675000 39.87 -52.46
3.688500 32.31 -49.74
3.702000 25.91 -46.36
3.715500 21.54 -43.37
3.729000 18.02 -40.46
3.742500 15.18 -37.7
3.756000 12.92 -35.2
3.769500 11.14 -32.98
3.783000 9.723 -31.03
3.796500 8.526 -29.23
3.810000 7.479 -27.5
3.823500 6.587 -25.91
3.837000 5.884 -24.54
3.850500 5.304 -23.34
3.864000 4.774 -22.17
3.877500 4.306 -21.08
3.891000 3.917 -20.12
3.904500 3.57 -19.22
3.918000 3.258 -18.36
3.931500 2.988 -17.57
3.945000 2.756 -16.83
3.958500 2.532 -16.16
3.972000 2.339 -15.51
3.985500 2.164 -14.9
3.999000 2.005 -14.33
4.012500 1.863 -13.79
4.026000 1.737 -13.29
4.039500 1.621 -12.81
4.053000 1.514 -12.35
4.066500 1.412 -11.89
4.080000 1.326 -11.49
4.093500 1.242 -11.09
4.107000 1.169 -10.72
4.120500 1.101 -10.36
4.134000 1.071 -10
4.147500 1.066 -9.658
4.161000 1.074 -9.323
4.174500 1.071 -9.002
4.188000 1.076 -8.693
4.201500 1.09 -8.399
4.215000 1.093 -8.112
4.228500 1.096 -7.832
4.242000 1.087 -7.565
4.255500 1.107 -7.304
4.269000 1.12 -7.043
4.282500 1.119 -6.796
4.296000 1.123 -6.564
4.309500 1.135 -6.326
4.323000 1.14 -6.1
4.336500 1.146 -5.878
4.350000 1.157 -5.656
4.363500 1.161 -5.441
4.377000 1.169 -5.232
4.390500 1.176 -5.028
4.404000 1.181 -4.826
4.417500 1.198 -4.632
4.431000 1.202 -4.437
4.444500 1.214 -4.248
4.458000 1.226 -4.06
4.471500 1.236 -3.874
4.485000 1.245 -3.692
4.498500 1.257 -3.51
4.512000 1.269 -3.332
4.525500 1.28 -3.156
4.539000 1.293 -2.981
4.552500 1.306 -2.807
4.566000 1.318 -2.636
4.579500 1.332 -2.465
4.593000 1.347 -2.292
4.606500 1.361 -2.125
4.620000 1.377 -1.956
4.633500 1.391 -1.789
4.647000 1.408 -1.623
4.660500 1.424 -1.455
4.674000 1.44 -1.289
4.687500 1.456 -1.122
4.701000 1.473 -0.9556
4.714500 1.492 -0.7892
4.728000 1.509 -0.623
4.741500 1.527 -0.4568
4.755000 1.545 -0.289
4.768500 1.565 -0.1226
4.782000 1.585 0.0452
4.795500 1.604 0.2134
4.809000 1.622 0.3792
4.822500 1.647 0.5516
4.836000 1.67 0.722
4.849500 1.695 0.894
4.863000 1.721 1.067
4.876500 1.748 1.242
4.890000 1.775 1.418
4.903500 1.804 1.595
4.917000 1.836 1.776
4.930500 1.87 1.958
4.944000 1.904 2.142
4.957500 1.943 2.33
4.971000 1.98 2.518
4.984500 2.022 2.71
4.998000 2.062 2.908
5.011500 2.108 3.107
5.025000 2.154 3.316
5.038500 2.203 3.519
5.052000 2.256 3.728
5.065500 2.308 3.943
5.079000 2.361 4.164
5.092500 2.426 4.392
5.106000 2.491 4.625
5.119500 2.558 4.864
5.133000 2.63 5.11
5.146500 2.704 5.362
5.160000 2.787 5.624
5.173500 2.869 5.881
5.187000 2.956 6.157
5.200500 3.052 6.439
5.214000 3.159 6.728
5.227500 3.26 7.033
5.241000 3.373 7.339
5.254500 3.504 7.663
5.268000 3.631 8.004
5.281500 3.766 8.351
5.295000 3.937 8.71
5.308500 4.097 9.094
5.322000 4.281 9.479
5.335500 4.469 9.895
5.349000 4.683 10.33
5.362500 4.926 10.77
5.376000 5.17 11.24
5.389500 5.429 11.71
5.403000 5.744 12.23
5.416500 6.052 12.76
5.430000 6.395 13.32
5.443500 6.816 13.91
5.457000 7.256 14.54
5.470500 7.743 15.2
5.484000 8.266 15.92
5.497500 8.856 16.65
5.511000 9.595 17.33
5.524500 10.38 18.23
5.538000 11.19 19.06
5.551500 12.21 19.89
5.565000 13.32 20.85
5.578500 14.59 21.82
5.592000 16.14 22.85
5.605500 17.84 23.77
5.619000 19.77 24.69
5.632500 22.17 25.71
5.646000 24.66 26.53
5.659500 27.89 27.28
5.673000 31.17 27.64
5.686500 35.23 27.43
5.700000 39.92 26.79
5.713500 44.74 25.29
5.727000 49.87 22.42
5.740500 54.87 18.23
5.754000 59.3 12.81
5.767500 62.8 5.775
5.781000 63.94 -1.876
5.794500 63.3 -9.855
5.808000 60.95 -17.01
5.821500 56.86 -24.01
5.835000 51.64 -28.22
5.848500 46.69 -31.92
5.862000 41.17 -34.4
5.875500 36.13 -35.16
5.889000 31.86 -35.16
5.902500 28.01 -35.07
5.916000 24.43 -34.23
5.929500 21.6 -33.35
5.943000 19.04 -32.2
5.956500 17.07 -31.12
5.970000 15.24 -30.01
5.983500 13.61 -28.82
5.997000 12.29 -27.74
6.010500 11.01 -26.65
6.024000 10.01 -25.64
6.037500 9.213 -24.73
6.051000 8.374 -23.78
6.064500 7.743 -22.96
6.078000 7.14 -22.12
6.091500 6.602 -21.34
6.105000 6.121 -20.66
6.118500 5.729 -19.95
6.132000 5.36 -19.31
6.145500 5.018 -18.67
6.159000 4.74 -18.04
6.172500 4.454 -17.51
6.186000 4.212 -17
6.199500 4.013 -16.51
6.213000 3.836 -16.04
6.226500 3.656 -15.56
6.240000 3.458 -15.13
6.253500 3.32 -14.73
6.267000 3.204 -14.34
6.280500 3.08 -13.98
6.294000 2.952 -13.61
6.307500 2.858 -13.27
6.321000 2.771 -12.95
6.334500 2.672 -12.64
6.348000 2.603 -12.33
6.361500 2.536 -12.02
6.375000 2.459 -11.74
6.388500 2.419 -11.45
6.402000 2.362 -11.18
6.415500 2.314 -10.91
6.429000 2.269 -10.65
6.442500 2.236 -10.42
6.456000 2.205 -10.18
6.469500 2.188 -9.953
6.483000 2.159 -9.724
6.496500 2.143 -9.509
6.510000 2.137 -9.289
6.523500 2.117 -9.085
6.537000 2.122 -8.883
6.550500 2.122 -8.676
6.564000 2.137 -8.488
6.577500 2.141 -8.312
6.591000 2.166 -8.127
6.604500 2.19 -7.958
6.618000 2.213 -7.787
6.631500 2.253 -7.617
6.645000 2.297 -7.469
6.658500 2.349 -7.315
6.672000 2.406 -7.172
6.685500 2.463 -7.049
6.699000 2.539 -6.92
6.712500 2.618 -6.815
6.726000 2.703 -6.723
6.739500 2.793 -6.645
6.753000 2.892 -6.583
6.766500 2.992 -6.544
6.780000 3.083 -6.538
6.793500 3.177 -6.548
6.807000 3.235 -6.589
6.820500 3.287 -6.648
6.834000 3.299 -6.724
6.847500 3.296 -6.807
6.861000 3.227 -6.892
6.874500 3.137 -6.972
6.888000 3.028 -7.03
6.901500 2.892 -7.06
6.915000 2.747 -7.065
6.928500 2.591 -7.045
6.942000 2.444 -6.998
6.955500 2.295 -6.939
6.969000 2.16 -6.853
6.982500 2.034 -6.764
6.996000 1.92 -6.653
7.009500 1.808 -6.545
7.023000 1.718 -6.428
7.036500 1.633 -6.311
7.050000 1.558 -6.187
7.063500 1.486 -6.068
7.077000 1.427 -5.944
7.090500 1.373 -5.827
7.104000 1.315 -5.707
7.117500 1.279 -5.588
7.131000 1.241 -5.472
7.144500 1.205 -5.357
7.158000 1.171 -5.246
7.171500 1.145 -5.137
7.185000 1.115 -5.025
7.198500 1.091 -4.923
7.212000 1.071 -4.812
7.225500 1.05 -4.706
7.239000 1.031 -4.606
7.252500 1.015 -4.506
7.266000 1 -4.406
7.279500 0.9868 -4.307
7.293000 0.975 -4.212
7.306500 0.9646 -4.117
7.320000 0.9534 -4.023
7.333500 0.9448 -3.928
7.347000 0.935 -3.838
7.360500 0.9264 -3.748
7.374000 0.9206 -3.656
7.387500 0.9122 -3.568
7.401000 0.9086 -3.482
7.414500 0.904 -3.394
7.428000 0.8968 -3.307
7.441500 0.8942 -3.222
7.455000 0.89 -3.136
7.468500 0.8864 -3.052
7.482000 0.884 -2.969
7.495500 0.881 -2.886
7.509000 0.8782 -2.804
7.522500 0.8764 -2.723
7.536000 0.8752 -2.642
7.549500 0.8742 -2.56
7.563000 0.873 -2.48
7.576500 0.8718 -2.4
7.590000 0.8706 -2.321
7.603500 0.8702 -2.241
7.617000 0.8704 -2.162
7.630500 0.8706 -2.083
7.644000 0.8708 -2.005
7.657500 0.8718 -1.926
7.671000 0.8726 -1.848
7.684500 0.873 -1.77
7.698000 0.875 -1.692
7.711500 0.876 -1.614
7.725000 0.8778 -1.536
7.738500 0.88 -1.459
7.752000 0.8818 -1.38
7.765500 0.884 -1.303
7.779000 0.8856 -1.225
7.792500 0.888 -1.147
7.806000 0.8904 -1.069
7.819500 0.8932 -0.9902
7.833000 0.8964 -0.9118
7.846500 0.8984 -0.8332
7.860000 0.9018 -0.755
7.873500 0.9044 -0.676
7.887000 0.9074 -0.5968
7.900500 0.9108 -0.518
7.914000 0.9142 -0.438
7.927500 0.9176 -0.3582
7.941000 0.9208 -0.278
7.954500 0.924 -0.1978
7.968000 0.9278 -0.1178
7.981500 0.9316 -0.0368
7.995000 0.9358 0.0444
8.008500 0.9396 0.1264
8.022000 0.944 0.208
8.035500 0.9482 0.2898
8.049000 0.953 0.3722
8.062500 0.9578 0.4554
8.076000 0.9632 0.5388
8.089500 0.9678 0.6222
8.103000 0.974 0.7074
8.116500 0.9796 0.7924
8.130000 0.9862 0.8782
8.143500 0.9924 0.9646
8.157000 0.9994 1.052
8.170500 1.006 1.14
8.184000 1.014 1.228
8.197500 1.022 1.317
8.211000 1.03 1.408
8.224500 1.038 1.499
8.238000 1.047 1.591
8.251500 1.056 1.684
8.265000 1.065 1.779
8.278500 1.075 1.874
8.292000 1.085 1.971
8.305500 1.096 2.068
8.319000 1.106 2.167
8.332500 1.118 2.267
8.346000 1.131 2.369
8.359500 1.143 2.472
8.373000 1.155 2.576
8.386500 1.168 2.682
8.400000 1.179 2.789
8.413500 1.194 2.898
8.427000 1.21 3.009
8.440500 1.227 3.12
8.454000 1.241 3.237
8.467500 1.258 3.352
8.481000 1.277 3.474
8.494500 1.293 3.592
8.508000 1.308 3.713
8.521500 1.333 3.84
8.535000 1.35 3.969
8.548500 1.371 4.099
8.562000 1.394 4.231
8.575500 1.416 4.366
8.589000 1.439 4.504
8.602500 1.464 4.646
8.616000 1.489 4.791
8.629500 1.517 4.938
8.643000 1.543 5.087
8.656500 1.573 5.241
8.670000 1.603 5.4
8.683500 1.637 5.558
8.697000 1.672 5.723
8.710500 1.704 5.894
8.724000 1.742 6.071
8.737500 1.78 6.249
8.751000 1.823 6.427
8.764500 1.868 6.623
8.778000 1.908 6.81
8.791500 1.954 7.017
8.805000 2.012 7.224
8.818500 2.064 7.433
8.832000 2.12 7.652
8.845500 2.176 7.874
8.859000 2.244 8.113
8.872500 2.308 8.353
8.886000 2.388 8.6
8.899500 2.463 8.876
8.913000 2.552 9.137
8.926500 2.633 9.402
8.940000 2.718 9.693
8.953500 2.836 9.982
8.967000 2.942 10.3
8.980500 3.053 10.64
8.994000 3.188 10.97
9.007500 3.332 11.32
9.021000 3.466 11.68
9.034500 3.633 12.07
9.048000 3.82 12.46
9.061500 3.992 12.87
9.075000 4.213 13.31
9.088500 4.446 13.77
9.102000 4.696 14.23
9.115500 4.938 14.74
9.129000 5.295 15.26
9.142500 5.629 15.77
9.156000 5.996 16.39
9.169500 6.399 16.97
9.183000 6.881 17.56
9.196500 7.372 18.27
9.210000 7.967 18.95
9.223500 8.618 19.66
9.237000 9.371 20.4
9.250500 10.17 21.19
9.264000 11.12 21.96
9.277500 12.24 22.73
9.291000 13.42 23.5
9.304500 14.73 24.37
9.318000 16.37 24.97
9.331500 18.11 25.64
9.345000 20.21 26.25
9.358500 22.25 26.65
9.372000 24.64 26.78
9.385500 27.4 26.76
9.399000 30.14 26.11
9.412500 33.36 25.41
9.426000 36.15 23.79
9.439500 39.2 21.8
9.453000 41.77 19.12
9.466500 44 15.94
9.480000 45.69 12.26
9.493500 46.37 8.523
9.507000 46.58 4.556
9.520500 45.97 0.7518
9.534000 44.84 -2.372
9.547500 43.48 -5.304
9.561000 41.75 -7.693
9.574500 39.67 -9.551
9.588000 37.69 -11.08
9.601500 35.66 -12.04
9.615000 33.98 -12.93
9.628500 32.11 -13.36
9.642000 30.47 -13.77
9.655500 29.09 -13.95
9.669000 27.93 -13.92
9.682500 26.65 -13.81
9.696000 25.75 -13.82
9.709500 24.74 -13.64
9.723000 24.04 -13.42
9.736500 23.35 -13.17
9.750000 22.83 -13
9.763500 22.32 -12.75
9.777000 22 -12.59
9.790500 21.72 -12.38
9.804000 21.49 -12.23
9.817500 21.25 -12.13
9.831000 21.21 -12.08
9.844500 21.13 -12.17
9.858000 21.02 -12.09
9.871500 21.09 -12.17
9.885000 20.81 -12.2
9.898500 21.15 -12.49
9.912000 21.23 -12.77
9.925500 21.2 -13.18
9.939000 21.21 -13.54
9.952500 21.07 -13.97
9.966000 21.06 -14.46
9.979500 20.97 -15.08
9.993000 20.72 -15.73
10.006500 20.39 -16.33
10.020000 20.09 -17.01
10.033500 19.65 -17.58
10.047000 18.99 -18.14
10.060500 18.37 -18.81
10.074000 17.65 -19.28
10.087500 16.85 -19.68
10.101000 16.1 -20.03
10.114500 15.26 -20.27
10.128000 14.38 -20.52
10.141500 13.52 -20.56
10.155000 12.71 -20.64
10.168500 11.93 -20.62
10.182000 11.12 -20.5
10.195500 10.38 -20.29
10.209000 9.67 -20.14
10.222500 8.978 -19.94
10.236000 8.397 -19.64
10.249500 7.794 -19.36
10.263000 7.224 -19.19
10.276500 6.743 -18.73
10.290000 6.317 -18.38
10.303500 5.869 -18.02
10.317000 5.469 -17.68
10.330500 5.129 -17.34
10.344000 4.819 -17
10.357500 4.474 -16.68
10.371000 4.201 -16.29
10.384500 3.976 -15.99
10.398000 3.705 -15.65
10.411500 3.512 -15.37
10.425000 3.311 -15.05
10.438500 3.105 -14.74
10.452000 2.941 -14.48
10.465500 2.78 -14.18
10.479000 2.632 -13.91
10.492500 2.504 -13.63
10.506000 2.379 -13.38
10.519500 2.261 -13.11
10.533000 2.146 -12.87
10.546500 2.031 -12.63
10.560000 1.942 -12.38
10.573500 1.861 -12.15
10.587000 1.769 -11.94
10.600500 1.684 -11.73
10.614000 1.629 -11.52
10.627500 1.576 -11.32
10.641000 1.5 -11.11
10.654500 1.449 -10.93
10.668000 1.393 -10.73
10.681500 1.334 -10.55
10.695000 1.279 -10.36
10.708500 1.243 -10.17
10.722000 1.2 -10.02
10.735500 1.167 -9.853
10.749000 1.128 -9.687
10.762500 1.102 -9.536
10.776000 1.065 -9.374
10.789500 1.028 -9.227
10.803000 1.002 -9.071
10.816500 0.9716 -8.931
10.830000 0.9602 -8.789
10.843500 0.9214 -8.648
10.857000 0.905 -8.504
10.870500 0.8734 -8.382
10.884000 0.853 -8.247
10.897500 0.8362 -8.117
10.911000 0.8202 -7.992
10.924500 0.8028 -7.869
10.938000 0.7826 -7.746
10.951500 0.7708 -7.627
10.965000 0.7554 -7.508
10.978500 0.7384 -7.387
10.992000 0.7312 -7.278
11.005500 0.7222 -7.162
11.019000 0.7098 -7.048
11.032500 0.6982 -6.943
11.046000 0.689 -6.84
11.059500 0.6774 -6.73
11.073000 0.6652 -6.632
11.086500 0.6552 -6.528
11.100000 0.6522 -6.419
11.113500 0.6406 -6.326
11.127000 0.637 -6.224
11.140500 0.6298 -6.128
11.154000 0.6234 -6.028
11.167500 0.6174 -5.937
11.181000 0.6098 -5.843
11.194500 0.6094 -5.751
11.208000 0.603 -5.657
11.221500 0.597 -5.57
11.235000 0.5924 -5.482
11.248500 0.591 -5.394
11.262000 0.5854 -5.305
11.275500 0.5798 -5.218
11.289000 0.58 -5.13
11.302500 0.5772 -5.043
11.316000 0.5748 -4.962
11.329500 0.5736 -4.875
11.343000 0.5722 -4.791
11.356500 0.572 -4.708
11.370000 0.5688 -4.624
11.383500 0.5688 -4.545
11.397000 0.5672 -4.465
11.410500 0.5652 -4.381
11.424000 0.5674 -4.303
11.437500 0.5652 -4.221
11.451000 0.5648 -4.143
11.464500 0.565 -4.066
11.478000 0.5654 -3.988
11.491500 0.5664 -3.91
11.505000 0.567 -3.835
11.518500 0.5672 -3.756
11.532000 0.5696 -3.68
11.545500 0.5676 -3.602
11.559000 0.571 -3.526
11.572500 0.5728 -3.452
11.586000 0.5742 -3.374
11.599500 0.5764 -3.298
11.613000 0.5792 -3.222
11.626500 0.581 -3.145
11.640000 0.5822 -3.07
11.653500 0.5848 -2.996
11.667000 0.588 -2.92
11.680500 0.591 -2.844
11.694000 0.592 -2.77
11.707500 0.5962 -2.694
11.721000 0.6002 -2.619
11.734500 0.6036 -2.543
11.748000 0.606 -2.468
11.761500 0.6114 -2.391
11.775000 0.6006 -2.298
11.788500 0.62 -2.239
11.802000 0.6238 -2.163
11.815500 0.6284 -2.087
11.829000 0.6346 -2.01
11.842500 0.6382 -1.931
11.856000 0.644 -1.856
11.869500 0.65 -1.778
11.883000 0.6558 -1.699
11.896500 0.6622 -1.62
11.910000 0.6686 -1.541
11.923500 0.675 -1.461
11.937000 0.6818 -1.38
11.950500 0.6894 -1.299
11.964000 0.6968 -1.218
11.977500 0.7044 -1.135
11.991000 0.7126 -1.052
12.004500 0.721 -0.9678
12.018000 0.7294 -0.883
12.031500 0.7386 -0.7976
12.045000 0.7476 -0.711
12.058500 0.7572 -0.6234
12.072000 0.7674 -0.5348
12.085500 0.7778 -0.4456
12.099000 0.7886 -0.355
12.112500 0.8 -0.2634
12.126000 0.8116 -0.1708
12.139500 0.8242 -0.077
12.153000 0.8368 0.0178
12.166500 0.8504 0.1142
12.180000 0.8648 0.2116
12.193500 0.88 0.3104
12.207000 0.896 0.4104
12.220500 0.9132 0.5122
12.234000 0.9314 0.6156
12.247500 0.9512 0.7202
12.261000 0.972 0.8268
12.274500 0.9946 0.936
12.288000 1.017 1.047
12.301500 1.042 1.16
12.315000 1.069 1.275
12.328500 1.098 1.393
12.342000 1.129 1.513
12.355500 1.162 1.636
12.369000 1.198 1.761
12.382500 1.236 1.89
12.396000 1.276 2.021
12.409500 1.319 2.154
12.423000 1.367 2.293
12.436500 1.417 2.432
12.450000 1.472 2.576
12.463500 1.531 2.725
12.477000 1.594 2.876
12.490500 1.663 3.03
12.504000 1.737 3.19
12.517500 1.816 3.353
12.531000 1.903 3.516
12.544500 2 3.686
12.558000 2.1 3.861
12.571500 2.213 4.036
12.585000 2.335 4.215
12.598500 2.467 4.399
12.612000 2.609 4.579
12.625500 2.767 4.766
12.639000 2.933 4.955
12.652500 3.122 5.139
12.666000 3.322 5.327
12.679500 3.537 5.5
12.693000 3.776 5.68
12.706500 4.028 5.848
12.720000 4.304 6.004
12.733500 4.593 6.152
12.747000 4.899 6.291
12.760500 5.224 6.395
12.774000 5.566 6.481
12.787500 5.93 6.553
12.801000 6.283 6.58
12.814500 6.649 6.575
12.828000 7.012 6.541
12.841500 7.395 6.495
12.855000 7.719 6.376
12.868500 8.049 6.265
12.882000 8.357 6.101
12.895500 8.619 5.946
12.909000 8.865 5.754
12.922500 9.08 5.557
12.936000 9.283 5.38
12.949500 9.441 5.204
12.963000 9.583 5.031
12.976500 9.69 4.882
12.990000 9.788 4.756
13.003500 9.876 4.614
13.017000 9.957 4.524
13.030500 10.03 4.441
13.044000 10.12 4.374
13.057500 10.2 4.35
13.071000 10.28 4.337
13.084500 10.41 4.331
13.098000 10.54 4.341
13.111500 10.68 4.37
13.125000 10.84 4.414
13.138500 11.04 4.453
13.152000 11.26 4.489
13.165500 11.5 4.548
13.179000 11.81 4.584
13.192500 12.05 4.604
13.206000 12.43 4.592
13.219500 12.8 4.618
13.233000 13.24 4.572
13.246500 13.65 4.544
13.260000 14.15 4.448
13.273500 14.65 4.321
13.287000 15.18 4.128
13.300500 15.71 3.898
13.314000 16.3 3.646
13.327500 16.93 3.243
13.341000 17.54 2.759
13.354500 18.11 2.198
13.368000 18.72 1.58
13.381500 19.23 0.8038
13.395000 19.67 -0.0048
13.408500 20.07 -0.9422
13.422000 20.39 -1.989
13.435500 20.5 -3.065
13.449000 20.5 -4.133
13.462500 20.41 -5.303
13.476000 20.07 -6.342
13.489500 19.69 -7.452
13.503000 19.17 -8.391
13.516500 18.48 -9.332
13.530000 17.76 -10.07
13.543500 16.94 -10.75
13.557000 16.13 -11.3
13.570500 15.26 -11.68
13.584000 14.4 -12.04
13.597500 13.55 -12.26
13.611000 12.7 -12.39
13.624500 11.94 -12.49
13.638000 11.19 -12.46
13.651500 10.5 -12.41
13.665000 9.814 -12.3
13.678500 9.199 -12.1
13.692000 8.643 -11.97
13.705500 8.145 -11.78
13.719000 7.673 -11.57
13.732500 7.216 -11.33
13.746000 6.818 -11.1
13.759500 6.447 -10.88
13.773000 6.104 -10.64
13.786500 5.782 -10.4
13.800000 5.492 -10.16
13.813500 5.227 -9.908
13.827000 4.997 -9.677
13.840500 4.755 -9.443
13.854000 4.565 -9.215
13.867500 4.367 -8.994
13.881000 4.193 -8.756
13.894500 4.029 -8.55
13.908000 3.886 -8.333
13.921500 3.743 -8.123
13.935000 3.608 -7.92
13.948500 3.489 -7.723
13.962000 3.38 -7.525
13.975500 3.278 -7.33
13.989000 3.183 -7.147
14.002500 3.098 -6.966
14.016000 3.018 -6.785
14.029500 2.938 -6.609
14.043000 2.87 -6.442
14.056500 2.801 -6.276
14.070000 2.743 -6.108
14.083500 2.682 -5.953
14.097000 2.633 -5.795
14.110500 2.586 -5.639
14.124000 2.54 -5.49
14.137500 2.501 -5.34
14.151000 2.458 -5.194
14.164500 2.426 -5.049
14.178000 2.39 -4.908
14.191500 2.359 -4.77
14.205000 2.335 -4.63
14.218500 2.31 -4.498
14.232000 2.283 -4.366
14.245500 2.262 -4.233
14.259000 2.245 -4.101
14.272500 2.228 -3.974
14.286000 2.212 -3.845
14.299500 2.198 -3.719
14.313000 2.184 -3.594
14.326500 2.177 -3.47
14.340000 2.167 -3.348
14.353500 2.161 -3.224
14.367000 2.156 -3.101
14.380500 2.153 -2.982
14.394000 2.15 -2.862
14.407500 2.148 -2.741
14.421000 2.149 -2.624
14.434500 2.153 -2.503
14.448000 2.155 -2.384
14.461500 2.16 -2.267
14.475000 2.164 -2.148
14.488500 2.172 -2.03
14.502000 2.18 -1.911
14.515500 2.19 -1.793
14.529000 2.202 -1.676
14.542500 2.214 -1.557
14.556000 2.228 -1.438
14.569500 2.243 -1.318
14.583000 2.259 -1.2
14.596500 2.278 -1.079
14.610000 2.296 -0.9598
14.623500 2.318 -0.839
14.637000 2.339 -0.7178
14.650500 2.362 -0.5948
14.664000 2.387 -0.4722
14.677500 2.415 -0.3482
14.691000 2.442 -0.2252
14.704500 2.472 -0.099
14.718000 2.506 0.0274
14.731500 2.539 0.1546
14.745000 2.576 0.2814
14.758500 2.614 0.4116
14.772000 2.656 0.5426
14.785500 2.698 0.6746
14.799000 2.744 0.8078
14.812500 2.792 0.9426
14.826000 2.844 1.078
14.839500 2.9 1.219
14.853000 2.957 1.357
14.866500 3.016 1.499
14.880000 3.081 1.644
14.893500 3.15 1.788
14.907000 3.222 1.939
14.920500 3.298 2.088
14.934000 3.379 2.24
14.947500 3.466 2.398
14.961000 3.555 2.556
14.974500 3.65 2.714
14.988000 3.753 2.881
15.001500 3.859 3.047
15.015000 3.989 3.229
15.028500 4.095 3.388
15.042000 4.219 3.566
15.055500 4.362 3.747
15.069000 4.507 3.926
15.082500 4.663 4.113
15.096000 4.824 4.307
15.109500 4.996 4.499
15.123000 5.184 4.691
15.136500 5.386 4.891
15.150000 5.592 5.091
15.163500 5.821 5.298
