! Touchstone file generated by AntScope2
# MHz Z RI R 50
! Format: Frequency Z-real Z-imaginary (normalized to 50 Ohm)
7.000000 20.05 15.99
7.011500 20.29 16.54
7.023000 20.62 16.94
7.034500 21.05 17.48
7.046000 21.4 17.83
7.057500 21.72 18.33
7.069000 22.13 18.9
7.080500 22.41 19.4
7.092000 22.74 19.78
7.103500 23.36 20.23
7.115000 23.58 20.78
7.126500 23.89 21.13
7.138000 24.25 21.51
7.149500 24.55 22.02
7.161000 25.3 22.69
7.172500 26.34 24.83
7.184000 28.32 31.86
7.195500 28.68 32.02
7.207000 29.02 32.69
7.218500 28.79 33.53
7.230000 29.2 34.24
7.241500 29.64 34.65
7.253000 29.79 34.76
7.264500 30.33 35.42
7.276000 30.6 35.48
7.287500 31.09 35.68
7.299000 31.71 35.54
7.310500 32.03 35.59
7.322000 32.79 35.28
7.333500 33.12 34.81
7.345000 33.81 34.59
7.356500 34.72 34.09
7.368000 35.23 33.29
7.379500 35.69 32.48
7.391000 36.09 31.57
7.402500 36.6 30.69
7.414000 37.18 29.47
7.425500 37.13 28.33
7.437000 37.69 27.07
7.448500 38.05 25.74
7.460000 38.01 24.24
7.471500 38.09 22.94
7.483000 37.99 21.69
7.494500 37.91 20.05
7.506000 38.26 19.61
7.517500 39.32 20.39
7.529000 41.21 21.01
7.540500 42.19 21.56
7.552000 43.78 22.11
7.563500 45.36 23.12
7.575000 46.72 23.58
7.586500 48.21 23.94
7.598000 49.77 24.48
7.609500 51.06 25.1
7.621000 52.58 25.59
7.632500 54.46 26.14
7.644000 55.54 26.07
7.655500 57.45 26.73
7.667000 58.47 26.49
7.678500 59.87 26.75
7.690000 61.56 26.92
7.701500 62.36 26.32
7.713000 63.63 26.08
7.724500 65.77 25.65
7.736000 66.21 24.95
7.747500 66.92 24.15
7.759000 67.95 23.11
7.770500 68.53 22.25
7.782000 68.58 20.96
7.793500 68.77 19.17
7.805000 69.86 18.42
7.816500 69.41 16.21
7.828000 68.22 14.57
7.839500 67.66 13.5
7.851000 67.65 12.54
7.862500 66.54 10.29
7.874000 64.99 8.705
7.885500 64.14 7.388
7.897000 62.81 6.305
7.908500 61.05 4.437
7.920000 59.6 3.377
7.931500 58.41 2.89
7.943000 56.65 1.531
7.954500 54.77 0.64
7.966000 52.57 -0.0536
7.977500 51.28 -1.083
7.989000 49.28 -2.254
8.000500 48.03 -2.709
8.012000 49.6 -3.868
8.023500 51.18 -4.575
8.035000 52.51 -5.66
8.046500 53.85 -7.154
8.058000 55.78 -8.192
8.069500 56.48 -9.725
8.081000 57.83 -10.84
8.092500 59.19 -11.62
8.104000 59.52 -14
8.115500 61.11 -15
8.127000 62.47 -17.14
8.138500 62.89 -17.89
8.150000 62.97 -19.79
8.161500 63.35 -20.92
8.173000 63.85 -22.65
8.184500 63.8 -23.69
8.196000 63.87 -24.92
8.207500 63.23 -25.19
8.219000 62.96 -26.75
8.230500 62.9 -27.43
8.242000 62.02 -27.61
8.253500 61.06 -28.04
8.265000 60.24 -28.63
8.276500 59.04 -28.54
8.288000 58.51 -28.69
8.299500 57.84 -28.98
8.311000 56.04 -28.34
8.322500 55.09 -28.55
8.334000 53.72 -27.87
8.345500 52.16 -26.86
8.357000 50.81 -26.96
8.368500 49.89 -26.74
8.380000 48.41 -25.73
8.391500 47.29 -25.3
8.403000 46.11 -24.4
8.414500 44.68 -23.43
8.426000 43.51 -23.2
8.437500 41.97 -22.16
8.449000 40.83 -21.71
8.460500 39.65 -21.14
8.472000 38.35 -19.93
8.483500 37.04 -19.42
8.495000 36.04 -18.66
8.506500 35.7 -18.88
8.518000 36.09 -20.02
8.529500 36.41 -21.31
8.541000 36.61 -22.23
8.552500 36.97 -23.29
8.564000 36.67 -24.27
8.575500 36.96 -25.46
8.587000 37.08 -26.31
8.598500 37.08 -27.2
8.610000 36.95 -28.06
8.621500 37.05 -29.04
8.633000 36.86 -29.73
8.644500 36.86 -30.5
8.656000 36.93 -30.76
8.667500 36.52 -31.53
8.679000 36.38 -31.96
8.690500 36.21 -32.14
8.702000 36.39 -32.73
8.713500 36.25 -32.96
8.725000 35.78 -33.16
8.736500 35.48 -33.09
8.748000 35.14 -33.22
8.759500 35.13 -33.53
8.771000 35.12 -33.23
8.782500 34.68 -32.88
8.794000 34.91 -32.88
8.805500 34.23 -32.63
8.817000 34.3 -32.23
8.828500 33.83 -31.72
8.840000 33.61 -31.3
8.851500 33.08 -30.74
8.863000 32.77 -30.31
8.874500 32.63 -29.78
8.886000 32.26 -29.15
8.897500 31.83 -28.77
8.909000 31.5 -27.95
8.920500 30.85 -27.46
8.932000 30.39 -26.74
8.943500 29.88 -26.02
8.955000 29.32 -25.49
8.966500 28.98 -24.76
8.978000 28.25 -24.04
8.989500 27.69 -23.37
9.001000 27.13 -22.77
9.012500 27.12 -23.96
9.024000 26.94 -25.23
9.035500 26.71 -26.34
9.047000 26.54 -27.36
9.058500 26.11 -28.38
9.070000 25.83 -29.39
9.081500 25.68 -30.31
9.093000 25.13 -31.21
9.104500 24.8 -32.17
9.116000 24.16 -32.72
9.127500 23.56 -33.57
9.139000 23.06 -34.36
9.150500 22.53 -34.81
9.162000 22.08 -35.58
9.173500 21.39 -35.85
9.185000 20.78 -36.06
9.196500 20.44 -36.42
9.208000 19.52 -36.68
9.219500 19.11 -36.59
9.231000 18.67 -36.64
9.242500 18.32 -36.8
9.254000 17.65 -36.69
9.265500 17.29 -36.42
9.277000 17.19 -36.11
9.288500 16.65 -35.91
9.300000 16.31 -35.42
9.311500 16.16 -35.09
9.323000 15.85 -34.62
9.334500 15.67 -34.17
9.346000 15.45 -33.58
9.357500 15.41 -33.09
9.369000 15.17 -32.42
9.380500 15.18 -31.91
9.392000 15.25 -31.17
9.403500 14.94 -30.61
9.415000 14.86 -29.98
9.426500 14.77 -29.08
9.438000 14.72 -28.38
9.449500 14.52 -27.78
9.461000 14.54 -27.02
9.472500 14.44 -26.35
9.484000 14.39 -25.63
9.495500 14.34 -24.92
9.507000 13.93 -24.93
9.518500 13.35 -25.25
9.530000 12.74 -25.63
9.541500 12.3 -26.01
9.553000 11.71 -26.24
9.564500 11.15 -26.5
9.576000 10.58 -26.65
9.587500 10.14 -26.78
9.599000 9.633 -26.8
9.610500 9.167 -26.84
9.622000 8.793 -26.95
9.633500 8.397 -26.89
9.645000 8.013 -26.85
9.656500 7.836 -26.74
9.668000 7.694 -26.58
9.679500 7.55 -26.38
9.691000 7.544 -26.4
9.702500 7.35 -26.12
9.714000 7.25 -25.96
9.725500 7.156 -25.81
9.737000 6.997 -25.54
9.748500 6.898 -25.39
9.760000 6.832 -25.25
9.771500 6.71 -25.04
9.783000 6.619 -24.86
9.794500 6.5 -24.63
9.806000 6.425 -24.47
9.817500 6.334 -24.27
9.829000 6.234 -24.05
9.840500 6.216 -23.8
9.852000 6.315 -23.51
9.863500 6.385 -23.2
9.875000 6.47 -22.84
9.886500 6.454 -22.55
9.898000 6.652 -22.17
9.909500 6.789 -21.84
9.921000 6.887 -21.48
9.932500 6.956 -21.09
9.944000 7.097 -20.71
9.955500 7.199 -20.34
9.967000 7.309 -19.93
9.978500 7.402 -19.55
9.990000 7.472 -19.13
10.001500 7.521 -18.81
10.013000 7.211 -18.92
10.024500 6.877 -19
10.036000 6.596 -19.07
10.047500 6.263 -19.12
10.059000 6 -19.2
10.070500 5.731 -19.2
10.082000 5.46 -19.23
10.093500 5.227 -19.26
10.105000 5.019 -19.22
10.116500 4.772 -19.2
10.128000 4.653 -19.18
10.139500 4.439 -19.12
10.151000 4.299 -19.08
10.162500 4.163 -18.99
10.174000 4.001 -18.95
10.185500 3.923 -18.88
10.197000 3.845 -18.77
10.208500 3.784 -18.69
10.220000 3.701 -18.62
10.231500 3.646 -18.54
10.243000 3.637 -18.39
10.254500 3.59 -18.33
10.266000 3.594 -18.21
10.277500 3.595 -18.06
10.289000 3.617 -17.9
10.300500 3.626 -17.81
10.312000 3.67 -17.63
10.323500 3.726 -17.5
10.335000 3.77 -17.36
10.346500 3.8 -17.19
10.358000 3.861 -17.01
10.369500 3.953 -16.83
10.381000 4.022 -16.67
10.392500 4.117 -16.47
10.404000 4.157 -16.27
10.415500 4.264 -16.07
10.427000 4.346 -15.88
10.438500 4.433 -15.65
10.450000 4.53 -15.41
10.461500 4.622 -15.2
10.473000 4.691 -14.98
10.484500 4.769 -14.74
10.496000 4.866 -14.5
10.507500 4.737 -14.46
10.519000 4.547 -14.47
10.530500 4.356 -14.48
10.542000 4.159 -14.47
10.553500 4 -14.49
10.565000 3.841 -14.47
10.576500 3.686 -14.46
10.588000 3.544 -14.45
10.599500 3.395 -14.43
10.611000 3.277 -14.38
10.622500 3.166 -14.36
10.634000 3.062 -14.31
10.645500 2.976 -14.25
10.657000 2.9 -14.2
10.668500 2.826 -14.16
10.680000 2.767 -14.1
10.691500 2.726 -14.02
10.703000 2.667 -13.95
10.714500 2.625 -13.89
10.726000 2.617 -13.82
10.737500 2.584 -13.74
10.749000 2.567 -13.69
10.760500 2.577 -13.6
10.772000 2.573 -13.52
10.783500 2.583 -13.43
10.795000 2.601 -13.35
10.806500 2.606 -13.27
10.818000 2.637 -13.17
10.829500 2.673 -13.08
10.841000 2.718 -12.97
10.852500 2.761 -12.86
10.864000 2.795 -12.74
10.875500 2.857 -12.63
10.887000 2.904 -12.52
10.898500 2.961 -12.38
10.910000 3.015 -12.26
10.921500 3.077 -12.12
10.933000 3.13 -11.99
10.944500 3.183 -11.84
10.956000 3.256 -11.71
10.967500 3.312 -11.58
10.979000 3.378 -11.41
10.990500 3.44 -11.26
11.002000 3.463 -11.13
11.013500 3.332 -11.13
11.025000 3.22 -11.12
11.036500 3.107 -11.11
11.048000 2.991 -11.09
11.059500 2.897 -11.07
11.071000 2.806 -11.05
11.082500 2.722 -11.02
11.094000 2.629 -10.99
11.105500 2.561 -10.95
11.117000 2.492 -10.91
11.128500 2.423 -10.87
11.140000 2.372 -10.83
11.151500 2.321 -10.79
11.163000 2.274 -10.74
11.174500 2.238 -10.71
11.186000 2.206 -10.65
11.197500 2.175 -10.61
11.209000 2.155 -10.54
11.220500 2.139 -10.48
11.232000 2.13 -10.44
11.243500 2.12 -10.38
11.255000 2.118 -10.32
11.266500 2.124 -10.26
11.278000 2.125 -10.21
11.289500 2.134 -10.14
11.301000 2.146 -10.07
11.312500 2.165 -9.996
11.324000 2.177 -9.929
11.335500 2.203 -9.856
11.347000 2.223 -9.779
11.358500 2.26 -9.701
11.370000 2.288 -9.627
11.381500 2.317 -9.547
11.393000 2.349 -9.459
11.404500 2.38 -9.375
11.416000 2.419 -9.286
11.427500 2.46 -9.197
11.439000 2.501 -9.107
11.450500 2.543 -9.011
11.462000 2.584 -8.907
11.473500 2.629 -8.81
11.485000 2.661 -8.707
11.496500 2.711 -8.597
11.508000 2.665 -8.553
11.519500 2.592 -8.533
11.531000 2.532 -8.507
11.542500 2.461 -8.48
11.554000 2.407 -8.456
11.565500 2.351 -8.423
11.577000 2.295 -8.394
11.588500 2.249 -8.364
11.600000 2.208 -8.331
11.611500 2.167 -8.296
11.623000 2.13 -8.264
11.634500 2.101 -8.226
11.646000 2.072 -8.191
11.657500 2.049 -8.155
11.669000 2.026 -8.114
11.680500 2.006 -8.074
11.692000 1.993 -8.036
11.703500 1.986 -7.994
11.715000 1.979 -7.954
11.726500 1.976 -7.903
11.738000 1.978 -7.856
11.749500 1.978 -7.812
11.761000 1.986 -7.764
11.772500 1.991 -7.713
11.784000 2.001 -7.66
11.795500 2.012 -7.618
11.807000 2.025 -7.562
11.818500 2.04 -7.513
11.830000 2.061 -7.455
11.841500 2.084 -7.397
11.853000 2.097 -7.343
11.864500 2.118 -7.279
11.876000 2.143 -7.216
11.887500 2.166 -7.154
11.899000 2.193 -7.09
11.910500 2.221 -7.024
11.922000 2.247 -6.955
11.933500 2.276 -6.882
11.945000 2.308 -6.813
11.956500 2.33 -6.741
11.968000 2.361 -6.664
11.979500 2.389 -6.588
11.991000 2.415 -6.513
12.002500 2.43 -6.445
12.014000 2.391 -6.418
12.025500 2.358 -6.391
12.037000 2.326 -6.363
12.048500 2.299 -6.331
12.060000 2.27 -6.306
12.071500 2.25 -6.273
12.083000 2.226 -6.246
12.094500 2.208 -6.211
12.106000 2.192 -6.181
12.117500 2.18 -6.149
12.129000 2.165 -6.113
12.140500 2.16 -6.08
12.152000 2.151 -6.046
12.163500 2.145 -6.01
12.175000 2.144 -5.972
12.186500 2.144 -5.941
12.198000 2.144 -5.901
12.209500 2.149 -5.86
12.221000 2.155 -5.824
12.232500 2.162 -5.785
12.244000 2.172 -5.742
12.255500 2.181 -5.703
12.267000 2.192 -5.66
12.278500 2.205 -5.617
12.290000 2.222 -5.575
12.301500 2.235 -5.53
12.313000 2.251 -5.483
12.324500 2.267 -5.435
12.336000 2.286 -5.388
12.347500 2.303 -5.338
12.359000 2.323 -5.286
12.370500 2.344 -5.234
12.382000 2.364 -5.18
12.393500 2.387 -5.13
12.405000 2.407 -5.073
12.416500 2.429 -5.017
12.428000 2.451 -4.96
12.439500 2.471 -4.901
12.451000 2.494 -4.836
12.462500 2.516 -4.778
12.474000 2.538 -4.718
12.485500 2.559 -4.657
12.497000 2.581 -4.595
12.508500 2.58 -4.563
12.520000 2.576 -4.542
12.531500 2.571 -4.515
12.543000 2.567 -4.49
12.554500 2.567 -4.465
12.566000 2.569 -4.442
12.577500 2.571 -4.416
12.589000 2.575 -4.387
12.600500 2.578 -4.366
12.612000 2.588 -4.337
12.623500 2.597 -4.312
12.635000 2.608 -4.285
12.646500 2.618 -4.257
12.658000 2.629 -4.23
12.669500 2.642 -4.205
12.681000 2.658 -4.175
12.692500 2.673 -4.15
12.704000 2.69 -4.135
12.715500 2.704 -4.093
12.727000 2.723 -4.065
12.738500 2.74 -4.037
12.750000 2.76 -4.011
12.761500 2.779 -3.979
12.773000 2.799 -3.953
12.784500 2.82 -3.926
12.796000 2.839 -3.896
12.807500 2.86 -3.868
12.819000 2.873 -3.84
12.830500 2.9 -3.811
12.842000 2.919 -3.782
12.853500 2.939 -3.754
12.865000 2.96 -3.726
12.876500 2.979 -3.695
12.888000 2.997 -3.666
12.899500 3.015 -3.635
12.911000 3.032 -3.608
12.922500 3.049 -3.575
12.934000 3.065 -3.551
12.945500 3.079 -3.523
12.957000 3.09 -3.494
12.968500 3.104 -3.463
12.980000 3.115 -3.434
12.991500 3.122 -3.405
13.003000 3.126 -3.387
13.014500 3.124 -3.391
13.026000 3.13 -3.402
13.037500 3.126 -3.408
13.049000 3.128 -3.415
13.060500 3.121 -3.42
13.072000 3.119 -3.427
13.083500 3.113 -3.433
13.095000 3.108 -3.441
13.106500 3.1 -3.447
13.118000 3.09 -3.449
13.129500 3.081 -3.455
13.141000 3.069 -3.455
13.152500 3.057 -3.459
13.164000 3.042 -3.459
13.175500 3.028 -3.458
13.187000 3.013 -3.457
13.198500 2.991 -3.453
13.210000 2.968 -3.444
13.221500 2.946 -3.436
13.233000 2.926 -3.425
13.244500 2.9 -3.412
13.256000 2.876 -3.396
13.267500 2.848 -3.376
13.279000 2.821 -3.354
13.290500 2.791 -3.332
13.302000 2.762 -3.305
13.313500 2.731 -3.275
13.325000 2.7 -3.244
13.336500 2.669 -3.209
13.348000 2.64 -3.171
13.359500 2.61 -3.133
13.371000 2.58 -3.091
13.382500 2.549 -3.045
13.394000 2.52 -3
13.405500 2.489 -2.951
13.417000 2.461 -2.899
13.428500 2.433 -2.846
13.440000 2.405 -2.791
13.451500 2.378 -2.736
13.463000 2.352 -2.679
13.474500 2.326 -2.619
13.486000 2.302 -2.562
13.497500 2.278 -2.501
13.509000 2.249 -2.451
13.520500 2.224 -2.405
13.532000 2.198 -2.359
13.543500 2.176 -2.308
13.555000 2.154 -2.258
13.566500 2.133 -2.204
13.578000 2.116 -2.152
13.589500 2.099 -2.097
13.601000 2.083 -2.041
13.612500 2.068 -1.985
13.624000 2.057 -1.926
13.635500 2.045 -1.864
13.647000 2.034 -1.807
13.658500 2.025 -1.745
13.670000 2.017 -1.684
13.681500 2.009 -1.621
13.693000 2.001 -1.559
13.704500 1.996 -1.495
13.716000 1.992 -1.43
13.727500 1.988 -1.367
13.739000 1.985 -1.302
13.750500 1.983 -1.236
13.762000 1.982 -1.172
13.773500 1.981 -1.106
13.785000 1.98 -1.041
13.796500 1.981 -0.973
13.808000 1.983 -0.9076
13.819500 1.984 -0.842
13.831000 1.987 -0.7758
13.842500 1.99 -0.7078
13.854000 1.992 -0.6414
13.865500 1.995 -0.5746
13.877000 1.999 -0.5076
13.888500 2.003 -0.4418
13.900000 2.008 -0.3752
13.911500 2.013 -0.3092
13.923000 2.018 -0.2428
13.934500 2.023 -0.1768
13.946000 2.029 -0.1112
13.957500 2.035 -0.0452
13.969000 2.042 0.019
13.980500 2.049 0.0838
13.992000 2.056 0.1486
14.003500 2.065 0.2116
14.015000 2.077 0.2778
14.026500 2.091 0.3434
14.038000 2.104 0.4104
14.049500 2.117 0.4768
14.061000 2.132 0.5436
14.072500 2.146 0.6104
14.084000 2.161 0.6796
14.095500 2.177 0.7474
14.107000 2.192 0.8154
14.118500 2.207 0.8846
14.130000 2.223 0.954
14.141500 2.237 1.023
14.153000 2.254 1.092
14.164500 2.27 1.162
14.176000 2.286 1.231
14.187500 2.302 1.302
14.199000 2.319 1.371
14.210500 2.335 1.441
14.222000 2.352 1.511
14.233500 2.37 1.58
14.245000 2.386 1.65
14.256500 2.404 1.719
14.268000 2.42 1.791
14.279500 2.44 1.857
14.291000 2.46 1.927
14.302500 2.477 1.995
14.314000 2.496 2.062
14.325500 2.515 2.13
14.337000 2.535 2.198
14.348500 2.556 2.264
14.360000 2.577 2.33
14.371500 2.598 2.395
14.383000 2.619 2.462
14.394500 2.642 2.524
14.406000 2.664 2.587
14.417500 2.686 2.652
14.429000 2.714 2.712
14.440500 2.739 2.771
14.452000 2.764 2.833
14.463500 2.792 2.889
14.475000 2.824 2.949
14.486500 2.851 3.004
14.498000 2.884 3.061
14.509500 2.914 3.137
14.521000 2.943 3.221
14.532500 2.973 3.303
14.544000 3.002 3.388
14.555500 3.035 3.474
14.567000 3.065 3.557
14.578500 3.097 3.644
14.590000 3.129 3.73
14.601500 3.158 3.815
14.613000 3.19 3.898
14.624500 3.225 3.984
14.636000 3.252 4.073
14.647500 3.284 4.159
14.659000 3.316 4.239
14.670500 3.348 4.328
14.682000 3.383 4.412
14.693500 3.413 4.497
14.705000 3.447 4.579
14.716500 3.483 4.66
14.728000 3.516 4.743
14.739500 3.555 4.821
14.751000 3.592 4.899
14.762500 3.625 4.983
14.774000 3.666 5.058
14.785500 3.705 5.133
14.797000 3.743 5.209
14.808500 3.783 5.278
14.820000 3.83 5.348
14.831500 3.877 5.428
14.843000 3.923 5.488
14.854500 3.968 5.548
14.866000 4.017 5.618
14.877500 4.074 5.676
14.889000 4.127 5.737
14.900500 4.181 5.789
14.912000 4.239 5.848
14.923500 4.302 5.898
14.935000 4.356 5.947
14.946500 4.419 5.996
14.958000 4.495 6.034
14.969500 4.554 6.07
14.981000 4.624 6.111
14.992500 4.692 6.145
15.004000 4.753 6.202
15.015500 4.809 6.316
15.027000 4.865 6.439
15.038500 4.912 6.559
15.050000 4.97 6.664
15.061500 5.03 6.787
15.073000 5.077 6.904
15.084500 5.138 7.029
15.096000 5.184 7.143
15.107500 5.235 7.261
15.119000 5.3 7.38
15.130500 5.346 7.495
15.142000 5.417 7.602
15.153500 5.479 7.713
15.165000 5.533 7.821
15.176500 5.587 7.929
15.188000 5.641 8.039
15.199500 5.708 8.146
15.211000 5.771 8.257
15.222500 5.893 8.34
15.234000 5.911 8.444
15.245500 5.968 8.528
15.257000 6.049 8.627
15.268500 6.117 8.694
15.280000 6.205 8.788
15.291500 6.277 8.875
15.303000 6.361 8.912
15.314500 6.465 8.99
15.326000 6.543 9.063
15.337500 6.635 9.118
15.349000 6.722 9.163
15.360500 6.789 9.212
15.372000 6.916 9.264
15.383500 6.99 9.29
15.395000 7.114 9.302
15.406500 7.194 9.335
15.418000 7.317 9.321
15.429500 7.43 9.347
15.441000 7.572 9.343
15.452500 7.671 9.355
15.464000 7.801 9.317
15.475500 7.925 9.287
15.487000 8.02 9.258
15.498500 8.137 9.201
15.510000 8.26 9.356
15.521500 8.345 9.509
15.533000 8.438 9.687
15.544500 8.546 9.87
15.556000 8.672 10.03
15.567500 8.714 10.2
15.579000 8.826 10.37
15.590500 8.976 10.54
15.602000 9.056 10.67
15.613500 9.152 10.85
15.625000 9.234 10.99
15.636500 9.369 11.13
15.648000 9.446 11.28
15.659500 9.576 11.42
15.671000 9.671 11.54
15.682500 9.772 11.69
15.694000 9.888 11.85
15.705500 10 11.93
15.717000 10.14 12.02
15.728500 10.25 12.1
15.740000 10.37 12.2
15.751500 10.52 12.3
15.763000 10.61 12.34
15.774500 10.76 12.43
15.786000 10.87 12.5
15.797500 11.02 12.5
15.809000 11.14 12.53
15.820500 11.28 12.54
15.832000 11.45 12.54
15.843500 11.6 12.55
15.855000 11.71 12.53
15.866500 11.87 12.5
15.878000 12.01 12.4
15.889500 12.14 12.33
15.901000 12.32 12.3
15.912500 12.45 12.16
15.924000 12.6 12.04
15.935500 12.69 11.95
15.947000 12.88 11.8
15.958500 13.01 11.65
15.970000 13.16 11.49
15.981500 13.3 11.33
15.993000 13.44 11.14
16.004500 13.59 11.08
16.016000 13.78 11.29
16.027500 14 11.55
16.039000 14.08 11.75
16.050500 14.36 11.92
16.062000 14.51 12.19
16.073500 14.74 12.35
16.085000 14.91 12.57
16.096500 15.13 12.83
16.108000 15.3 13.01
16.119500 15.5 13.13
16.131000 15.75 13.33
16.142500 15.89 13.51
16.154000 16.06 13.66
16.165500 16.29 13.84
16.177000 16.53 13.91
16.188500 16.71 14.15
16.200000 16.88 14.17
16.211500 17.11 14.25
16.223000 17.25 14.35
16.234500 17.39 14.39
16.246000 17.65 14.36
16.257500 17.77 14.51
16.269000 17.98 14.51
16.280500 18.15 14.42
16.292000 18.33 14.43
16.303500 18.45 14.4
16.315000 18.64 14.27
16.326500 18.75 14.11
16.338000 18.93 14.12
16.349500 19.05 13.88
16.361000 19.1 13.79
16.372500 19.27 13.53
16.384000 19.39 13.39
16.395500 19.49 13.15
16.407000 19.48 12.85
16.418500 19.69 12.6
16.430000 19.78 12.34
16.441500 19.82 12.08
16.453000 19.95 11.69
16.464500 19.96 11.44
16.476000 20.03 11.09
16.487500 20.03 10.66
16.499000 20.02 10.41
16.510500 20.43 10.6
16.522000 20.8 10.8
16.533500 21.11 11.05
16.545000 21.53 11.31
16.556500 21.97 11.6
16.568000 22.31 11.76
16.579500 22.68 12
16.591000 23.07 12.24
16.602500 23.41 12.53
16.614000 23.72 12.71
16.625500 24.14 12.95
16.637000 24.46 13.2
16.648500 24.88 13.35
16.660000 25.3 13.38
16.671500 25.56 13.65
16.683000 25.75 13.79
16.694500 26.18 13.83
16.706000 26.49 13.85
16.717500 26.74 13.94
16.729000 27.16 13.99
16.740500 27.33 13.99
16.752000 27.53 13.93
16.763500 27.74 13.78
16.775000 28.07 13.77
16.786500 28.33 13.58
16.798000 28.39 13.48
16.809500 28.65 13.24
16.821000 28.71 12.96
16.832500 28.83 12.8
16.844000 28.85 12.36
16.855500 29.02 12.03
16.867000 29.12 11.61
16.878500 29.07 11.34
16.890000 29.17 10.87
16.901500 28.99 10.39
16.913000 28.92 10.03
16.924500 28.84 9.619
16.936000 28.76 8.962
16.947500 28.67 8.497
16.959000 28.41 7.975
16.970500 28.15 7.485
16.982000 27.94 6.943
16.993500 27.67 6.415
17.005000 27.88 6.298
17.016500 28.62 6.32
17.028000 29.37 6.329
17.039500 30.15 6.343
17.051000 30.8 6.592
17.062500 31.53 6.555
17.074000 32.28 6.592
17.085500 33.08 6.789
17.097000 33.67 6.773
17.108500 34.47 6.693
17.120000 35.08 6.705
17.131500 35.8 6.684
17.143000 36.29 6.49
17.154500 37.02 6.449
17.166000 37.7 6.431
17.177500 38.06 6.527
17.189000 38.87 6.118
17.200500 39.28 6.036
17.212000 39.63 5.712
17.223500 40.1 5.623
17.235000 40.35 5.399
17.246500 40.64 5.231
17.258000 41.12 4.772
17.269500 41.07 4.467
17.281000 41.05 4.12
17.292500 41.32 3.609
17.304000 41.16 3.112
17.315500 40.8 2.734
17.327000 40.97 2.398
17.338500 40.52 1.946
