! Touchstone file generated by AntScope2
# MHz Z RI R 50
! Format: Frequency Z-real Z-imaginary (normalized to 50 Ohm)
7.000000 21.59 19.29
7.011500 21.92 19.9
7.023000 22.47 20.54
7.034500 22.93 21.05
7.046000 23.34 21.58
7.057500 23.87 22.12
7.069000 24.29 22.89
7.080500 24.75 23.42
7.092000 25.15 23.85
7.103500 25.64 24.4
7.115000 25.96 24.86
7.126500 26.54 25.39
7.138000 26.94 25.83
7.149500 27.48 26.47
7.161000 27.7 26.79
7.172500 28.21 27.17
7.184000 28.58 27.35
7.195500 29.16 27.67
7.207000 29.5 28
7.218500 29.8 28.16
7.230000 30.29 28.41
7.241500 30.82 28.37
7.253000 31.3 28.4
7.264500 31.55 28.29
7.276000 32.11 28.47
7.287500 32.64 28.11
7.299000 32.93 27.95
7.310500 33.29 27.4
7.322000 33.75 27.15
7.333500 33.84 26.58
7.345000 34.49 26.22
7.356500 34.7 25.68
7.368000 34.89 25.04
7.379500 35.36 24.24
7.391000 35.46 23.78
7.402500 35.51 22.56
7.414000 35.44 21.71
7.425500 35.58 20.76
7.437000 35.77 19.86
7.448500 35.57 19.03
7.460000 35.59 17.92
7.471500 35.25 16.87
7.483000 34.82 15.85
7.494500 34.46 14.81
7.506000 34.98 14.58
7.517500 35.87 15.17
7.529000 36.94 15.38
7.540500 38.11 15.39
7.552000 39.51 16.04
7.563500 40.43 16.31
7.575000 41.58 16.57
7.586500 42.83 16.95
7.598000 43.85 17.16
7.609500 44.73 17.31
7.621000 45.89 17.48
7.632500 47.29 17.83
7.644000 48.26 17.95
7.655500 49.28 17.95
7.667000 50.35 18.29
7.678500 51.05 18.15
7.690000 52.39 17.97
7.701500 52.82 17.16
7.713000 53.51 17.33
7.724500 54.1 17.14
7.736000 54.91 16.49
7.747500 55.16 15.92
7.759000 55.64 15.58
7.770500 56.2 14.45
7.782000 56.11 13.72
7.793500 56.6 13.76
7.805000 56.06 12.18
7.816500 55.72 11.26
7.828000 55.25 10.53
7.839500 55.31 9.374
7.851000 54.46 8.523
7.862500 53.88 7.488
7.874000 52.87 6.66
7.885500 52.41 5.995
7.897000 51.3 5.126
7.908500 50.49 4.152
7.920000 49.67 3.705
7.931500 48.43 2.527
7.943000 47.02 2.011
7.954500 45.96 1.294
7.966000 44.89 0.7114
7.977500 43.41 0.1388
7.989000 42.1 -0.2944
8.000500 41.22 -0.9564
8.012000 42.56 -1.621
8.023500 43.51 -2.227
8.035000 44.67 -2.755
8.046500 45.95 -3.654
8.058000 47.01 -4.069
8.069500 47.68 -4.716
8.081000 48.55 -5.539
8.092500 50.06 -6.185
8.104000 50.67 -7.343
8.115500 51.95 -8.336
8.127000 52.39 -8.798
8.138500 53.32 -10.05
8.150000 54.01 -10.71
8.161500 53.85 -10.7
8.173000 55.23 -12.06
8.184500 54.75 -12.4
8.196000 55.32 -13.43
8.207500 55.39 -14.05
8.219000 55.36 -14.58
8.230500 55.09 -15.11
8.242000 54.97 -15.4
8.253500 54.34 -16.06
8.265000 54.21 -15.87
8.276500 53.95 -16.42
8.288000 53.19 -16.18
8.299500 52.75 -16.64
8.311000 51.85 -16.62
8.322500 51.01 -16.65
8.334000 50.14 -16.3
8.345500 49.47 -16.47
8.357000 48.58 -15.75
8.368500 47.13 -16.06
8.380000 46.23 -15.66
8.391500 45.22 -15.42
8.403000 44.07 -15.1
8.414500 43.16 -14.82
8.426000 42.16 -14.51
8.437500 40.97 -14.14
8.449000 40.11 -13.84
8.460500 39.09 -13.75
8.472000 37.96 -13.2
8.483500 36.93 -13.24
8.495000 35.55 -12.53
8.506500 35.47 -12.93
8.518000 36 -13.7
8.529500 36.75 -14.47
8.541000 37.4 -15.55
8.552500 37.88 -16.52
8.564000 38.58 -17.48
8.575500 39.02 -18.25
8.587000 39.52 -19.1
8.598500 39.99 -19.87
8.610000 40.49 -20.87
8.621500 40.62 -21.97
8.633000 40.69 -22.73
8.644500 40.1 -24
8.656000 40.25 -24.74
8.667500 39.94 -25.59
8.679000 39.66 -26.44
8.690500 38.98 -27.33
8.702000 38.67 -28.38
8.713500 38.38 -29.26
8.725000 37.93 -29.49
8.736500 37.46 -30.25
8.748000 37.4 -30.5
8.759500 36.94 -30.75
8.771000 36.63 -31.08
8.782500 36.64 -30.95
8.794000 35.99 -31.23
8.805500 35.96 -30.76
8.817000 35.28 -30.55
8.828500 35.01 -30.41
8.840000 34.71 -30.04
8.851500 34.08 -29.84
8.863000 33.8 -29.39
8.874500 33.39 -29.08
8.886000 33.21 -28.17
8.897500 32.5 -28.07
8.909000 31.95 -27.27
8.920500 31.64 -26.55
8.932000 30.81 -26.3
8.943500 30.47 -25.59
8.955000 29.74 -24.95
8.966500 29.16 -24.18
8.978000 28.72 -23.48
8.989500 27.93 -23.11
9.001000 27.62 -22.48
9.012500 27.49 -23.64
9.024000 27.36 -24.66
9.035500 27.21 -25.86
9.047000 26.98 -26.86
9.058500 26.78 -27.96
9.070000 26.55 -28.93
9.081500 25.92 -29.88
9.093000 25.38 -30.85
9.104500 25 -31.82
9.116000 24.67 -32.67
9.127500 24.11 -33.28
9.139000 23.68 -33.96
9.150500 23.08 -34.74
9.162000 22.41 -35.12
9.173500 21.83 -35.49
9.185000 21.22 -35.87
9.196500 20.58 -36.01
9.208000 20.18 -36.44
9.219500 19.52 -36.14
9.231000 19.14 -36.44
9.242500 18.57 -36.42
9.254000 18.25 -36.21
9.265500 17.8 -36.31
9.277000 17.51 -35.75
9.288500 16.89 -35.67
9.300000 16.72 -35.16
9.311500 16.39 -34.91
9.323000 16.13 -34.26
9.334500 15.88 -33.77
9.346000 15.63 -33.37
9.357500 15.71 -32.67
9.369000 15.46 -32.13
9.380500 15.36 -31.58
9.392000 15.24 -31.06
9.403500 15.12 -30.22
9.415000 15.14 -29.5
9.426500 15.04 -28.84
9.438000 14.85 -28.14
9.449500 14.75 -27.41
9.461000 14.73 -26.68
9.472500 14.58 -26.04
9.484000 14.53 -25.33
9.495500 14.36 -24.59
9.507000 14.03 -24.58
9.518500 13.51 -25.01
9.530000 12.88 -25.31
9.541500 12.41 -25.64
9.553000 11.91 -25.92
9.564500 11.37 -26.16
9.576000 10.8 -26.29
9.587500 10.44 -26.49
9.599000 9.875 -26.53
9.610500 9.551 -26.64
9.622000 9.09 -26.59
9.633500 8.703 -26.62
9.645000 8.379 -26.58
9.656500 8.061 -26.5
9.668000 7.756 -26.47
9.679500 7.569 -26.32
9.691000 7.443 -26.14
9.702500 7.335 -26
9.714000 7.215 -25.79
9.725500 7.118 -25.66
9.737000 6.987 -25.43
9.748500 6.897 -25.29
9.760000 6.799 -25.13
9.771500 6.678 -24.89
9.783000 6.566 -24.68
9.794500 6.492 -24.52
9.806000 6.434 -24.4
9.817500 6.441 -24.15
9.829000 6.498 -23.76
9.840500 6.47 -23.52
9.852000 6.592 -23.2
9.863500 6.576 -22.88
9.875000 6.741 -22.6
9.886500 6.827 -22.23
9.898000 6.921 -21.89
9.909500 7.025 -21.5
9.921000 7.092 -21.16
9.932500 7.211 -20.79
9.944000 7.278 -20.41
9.955500 7.371 -20.05
9.967000 7.515 -19.64
9.978500 7.563 -19.24
9.990000 7.637 -18.86
10.001500 7.656 -18.54
10.013000 7.343 -18.63
10.024500 7.011 -18.72
10.036000 6.729 -18.85
10.047500 6.451 -18.87
10.059000 6.177 -18.93
10.070500 5.902 -18.93
10.082000 5.636 -18.96
10.093500 5.413 -18.98
10.105000 5.175 -18.93
10.116500 4.983 -18.94
10.128000 4.83 -18.92
10.139500 4.656 -18.85
10.151000 4.494 -18.81
10.162500 4.355 -18.76
10.174000 4.233 -18.73
10.185500 4.127 -18.64
10.197000 4.058 -18.55
10.208500 3.977 -18.47
10.220000 3.901 -18.36
10.231500 3.867 -18.25
10.243000 3.848 -18.16
10.254500 3.819 -18.05
10.266000 3.807 -17.96
10.277500 3.79 -17.82
10.289000 3.803 -17.69
10.300500 3.849 -17.54
10.312000 3.873 -17.42
10.323500 3.919 -17.25
10.335000 3.957 -17.12
10.346500 4.015 -16.92
10.358000 4.087 -16.78
10.369500 4.157 -16.61
10.381000 4.186 -16.43
10.392500 4.26 -16.23
10.404000 4.341 -16.03
10.415500 4.405 -15.85
10.427000 4.496 -15.63
10.438500 4.572 -15.43
10.450000 4.655 -15.21
10.461500 4.738 -14.99
10.473000 4.793 -14.74
10.484500 4.891 -14.51
10.496000 4.96 -14.28
10.507500 4.85 -14.22
10.519000 4.641 -14.23
10.530500 4.469 -14.26
10.542000 4.287 -14.28
10.553500 4.116 -14.28
10.565000 3.974 -14.26
10.576500 3.809 -14.25
10.588000 3.669 -14.25
10.599500 3.552 -14.21
10.611000 3.422 -14.18
10.622500 3.315 -14.15
10.634000 3.211 -14.11
10.645500 3.132 -14.05
10.657000 3.049 -14.01
10.668500 2.977 -13.96
10.680000 2.908 -13.91
10.691500 2.859 -13.85
10.703000 2.806 -13.79
10.714500 2.765 -13.73
10.726000 2.75 -13.65
10.737500 2.727 -13.58
10.749000 2.711 -13.51
10.760500 2.707 -13.43
10.772000 2.708 -13.35
10.783500 2.721 -13.26
10.795000 2.726 -13.19
10.806500 2.757 -13.1
10.818000 2.779 -12.99
10.829500 2.807 -12.88
10.841000 2.845 -12.79
10.852500 2.883 -12.68
10.864000 2.934 -12.56
10.875500 2.978 -12.46
10.887000 3.029 -12.33
10.898500 3.082 -12.21
10.910000 3.132 -12.07
10.921500 3.183 -11.94
10.933000 3.248 -11.8
10.944500 3.305 -11.68
10.956000 3.358 -11.54
10.967500 3.421 -11.39
10.979000 3.48 -11.24
10.990500 3.524 -11.1
11.002000 3.558 -10.97
11.013500 3.429 -10.97
11.025000 3.316 -10.96
11.036500 3.21 -10.95
11.048000 3.105 -10.93
11.059500 2.999 -10.91
11.071000 2.905 -10.89
11.082500 2.83 -10.87
11.094000 2.751 -10.84
11.105500 2.67 -10.81
11.117000 2.608 -10.77
11.128500 2.549 -10.73
11.140000 2.491 -10.7
11.151500 2.446 -10.66
11.163000 2.402 -10.62
11.174500 2.355 -10.57
11.186000 2.329 -10.53
11.197500 2.302 -10.48
11.209000 2.276 -10.43
11.220500 2.262 -10.38
11.232000 2.246 -10.32
11.243500 2.241 -10.27
11.255000 2.245 -10.21
11.266500 2.244 -10.15
11.278000 2.238 -10.09
11.289500 2.255 -10.03
11.301000 2.264 -9.962
11.312500 2.278 -9.899
11.324000 2.3 -9.822
11.335500 2.33 -9.752
11.347000 2.353 -9.687
11.358500 2.377 -9.598
11.370000 2.404 -9.52
11.381500 2.435 -9.439
11.393000 2.467 -9.364
11.404500 2.499 -9.267
11.416000 2.534 -9.177
11.427500 2.57 -9.089
11.439000 2.611 -8.988
11.450500 2.65 -8.899
11.462000 2.69 -8.804
11.473500 2.726 -8.704
11.485000 2.765 -8.601
11.496500 2.813 -8.495
11.508000 2.765 -8.448
11.519500 2.695 -8.429
11.531000 2.627 -8.41
11.542500 2.564 -8.381
11.554000 2.505 -8.349
11.565500 2.451 -8.327
11.577000 2.404 -8.296
11.588500 2.355 -8.27
11.600000 2.317 -8.235
11.611500 2.273 -8.206
11.623000 2.244 -8.172
11.634500 2.212 -8.138
11.646000 2.184 -8.102
11.657500 2.164 -8.067
11.669000 2.142 -8.027
11.680500 2.124 -7.991
11.692000 2.115 -7.95
11.703500 2.105 -7.91
11.715000 2.103 -7.869
11.726500 2.098 -7.823
11.738000 2.099 -7.778
11.749500 2.102 -7.732
11.761000 2.107 -7.683
11.772500 2.112 -7.642
11.784000 2.123 -7.588
11.795500 2.131 -7.535
11.807000 2.147 -7.482
11.818500 2.162 -7.432
11.830000 2.184 -7.379
11.841500 2.193 -7.33
11.853000 2.217 -7.257
11.864500 2.24 -7.198
11.876000 2.264 -7.137
11.887500 2.287 -7.074
11.899000 2.316 -7.009
11.910500 2.341 -6.944
11.922000 2.366 -6.877
11.933500 2.395 -6.809
11.945000 2.42 -6.732
11.956500 2.45 -6.662
11.968000 2.476 -6.589
11.979500 2.502 -6.516
11.991000 2.53 -6.437
12.002500 2.543 -6.374
12.014000 2.509 -6.351
12.025500 2.475 -6.325
12.037000 2.443 -6.301
12.048500 2.417 -6.276
12.060000 2.393 -6.25
12.071500 2.372 -6.222
12.083000 2.352 -6.192
12.094500 2.333 -6.165
12.106000 2.322 -6.138
12.117500 2.308 -6.102
12.129000 2.3 -6.071
12.140500 2.29 -6.041
12.152000 2.284 -6.011
12.163500 2.278 -5.976
12.175000 2.282 -5.943
12.186500 2.282 -5.905
12.198000 2.285 -5.868
12.209500 2.288 -5.834
12.221000 2.296 -5.792
12.232500 2.304 -5.756
12.244000 2.31 -5.718
12.255500 2.322 -5.675
12.267000 2.335 -5.633
12.278500 2.348 -5.59
12.290000 2.365 -5.544
12.301500 2.38 -5.502
12.313000 2.398 -5.453
12.324500 2.418 -5.407
12.336000 2.437 -5.358
12.347500 2.457 -5.31
12.359000 2.478 -5.257
12.370500 2.5 -5.207
12.382000 2.522 -5.154
12.393500 2.543 -5.103
12.405000 2.565 -5.049
12.416500 2.589 -4.995
12.428000 2.613 -4.937
12.439500 2.637 -4.883
12.451000 2.66 -4.827
12.462500 2.684 -4.766
12.474000 2.708 -4.709
12.485500 2.733 -4.653
12.497000 2.75 -4.593
12.508500 2.754 -4.563
12.520000 2.751 -4.546
12.531500 2.748 -4.527
12.543000 2.746 -4.509
12.554500 2.748 -4.493
12.566000 2.749 -4.471
12.577500 2.75 -4.449
12.589000 2.755 -4.432
12.600500 2.763 -4.41
12.612000 2.77 -4.391
12.623500 2.775 -4.372
12.635000 2.785 -4.35
12.646500 2.795 -4.331
12.658000 2.805 -4.309
12.669500 2.818 -4.289
12.681000 2.832 -4.269
12.692500 2.846 -4.247
12.704000 2.867 -4.219
12.715500 2.865 -4.206
12.727000 2.889 -4.186
12.738500 2.902 -4.165
12.750000 2.917 -4.146
12.761500 2.934 -4.124
12.773000 2.951 -4.104
12.784500 2.968 -4.081
12.796000 2.986 -4.06
12.807500 2.999 -4.04
12.819000 3.016 -4.022
12.830500 3.035 -3.993
12.842000 3.048 -3.97
12.853500 3.063 -3.945
12.865000 3.076 -3.924
12.876500 3.091 -3.901
12.888000 3.103 -3.875
12.899500 3.119 -3.849
12.911000 3.133 -3.824
12.922500 3.142 -3.802
12.934000 3.151 -3.773
12.945500 3.159 -3.749
12.957000 3.168 -3.724
12.968500 3.173 -3.697
12.980000 3.181 -3.668
12.991500 3.182 -3.646
13.003000 3.182 -3.626
13.014500 3.173 -3.637
13.026000 3.161 -3.647
13.037500 3.152 -3.654
13.049000 3.141 -3.666
13.060500 3.126 -3.671
13.072000 3.113 -3.68
13.083500 3.095 -3.685
13.095000 3.077 -3.69
13.106500 3.06 -3.691
13.118000 3.043 -3.696
13.129500 3.02 -3.694
13.141000 3 -3.692
13.152500 2.973 -3.686
13.164000 2.951 -3.683
13.175500 2.927 -3.672
13.187000 2.902 -3.66
13.198500 2.873 -3.645
13.210000 2.845 -3.631
13.221500 2.817 -3.611
13.233000 2.79 -3.591
13.244500 2.763 -3.564
13.256000 2.73 -3.538
13.267500 2.703 -3.509
13.279000 2.673 -3.477
13.290500 2.644 -3.445
13.302000 2.615 -3.409
13.313500 2.585 -3.369
13.325000 2.556 -3.328
13.336500 2.53 -3.289
13.348000 2.501 -3.243
13.359500 2.476 -3.197
13.371000 2.449 -3.145
13.382500 2.422 -3.096
13.394000 2.397 -3.044
13.405500 2.374 -2.99
13.417000 2.35 -2.936
13.428500 2.325 -2.877
13.440000 2.301 -2.821
13.451500 2.278 -2.761
13.463000 2.256 -2.702
13.474500 2.236 -2.641
13.486000 2.216 -2.579
13.497500 2.196 -2.517
13.509000 2.173 -2.466
13.520500 2.149 -2.421
13.532000 2.129 -2.369
13.543500 2.108 -2.319
13.555000 2.09 -2.267
13.566500 2.072 -2.216
13.578000 2.058 -2.159
13.589500 2.044 -2.105
13.601000 2.031 -2.047
13.612500 2.02 -1.99
13.624000 2.009 -1.932
13.635500 1.999 -1.873
13.647000 1.99 -1.814
13.658500 1.982 -1.753
13.670000 1.976 -1.69
13.681500 1.971 -1.629
13.693000 1.966 -1.567
13.704500 1.963 -1.504
13.716000 1.961 -1.439
13.727500 1.96 -1.377
13.739000 1.959 -1.312
13.750500 1.958 -1.247
13.762000 1.957 -1.183
13.773500 1.959 -1.117
13.785000 1.96 -1.051
13.796500 1.961 -0.9862
13.808000 1.964 -0.919
13.819500 1.967 -0.853
13.831000 1.971 -0.7876
13.842500 1.975 -0.7214
13.854000 1.979 -0.6548
13.865500 1.984 -0.5884
13.877000 1.988 -0.5222
13.888500 1.995 -0.4562
13.900000 1.999 -0.3896
13.911500 2.006 -0.3242
13.923000 2.012 -0.259
13.934500 2.019 -0.1932
13.946000 2.025 -0.1282
13.957500 2.032 -0.0624
13.969000 2.041 0.001
13.980500 2.048 0.0658
13.992000 2.056 0.1288
14.003500 2.066 0.1938
14.015000 2.08 0.2584
14.026500 2.095 0.324
14.038000 2.11 0.3896
14.049500 2.124 0.4558
14.061000 2.138 0.522
14.072500 2.154 0.5894
14.084000 2.17 0.6566
14.095500 2.187 0.725
14.107000 2.203 0.7932
14.118500 2.219 0.8612
14.130000 2.235 0.9294
14.141500 2.252 0.9994
14.153000 2.268 1.069
14.164500 2.286 1.138
14.176000 2.303 1.207
14.187500 2.321 1.276
14.199000 2.338 1.345
14.210500 2.357 1.415
14.222000 2.374 1.484
14.233500 2.392 1.554
14.245000 2.411 1.624
14.256500 2.43 1.694
14.268000 2.449 1.762
14.279500 2.468 1.83
14.291000 2.489 1.899
14.302500 2.508 1.967
14.314000 2.528 2.036
14.325500 2.548 2.102
14.337000 2.569 2.168
14.348500 2.59 2.234
14.360000 2.612 2.299
14.371500 2.636 2.365
14.383000 2.658 2.43
14.394500 2.683 2.493
14.406000 2.707 2.556
14.417500 2.731 2.617
14.429000 2.756 2.677
14.440500 2.783 2.738
14.452000 2.812 2.798
14.463500 2.84 2.855
14.475000 2.868 2.913
14.486500 2.899 2.967
14.498000 2.933 3.021
14.509500 2.962 3.098
14.521000 2.992 3.181
14.532500 3.027 3.264
14.544000 3.058 3.347
14.555500 3.091 3.43
14.567000 3.125 3.516
14.578500 3.156 3.598
14.590000 3.186 3.688
14.601500 3.218 3.77
14.613000 3.252 3.853
14.624500 3.286 3.937
14.636000 3.319 4.024
14.647500 3.353 4.107
14.659000 3.388 4.194
14.670500 3.418 4.275
14.682000 3.454 4.355
14.693500 3.488 4.442
14.705000 3.522 4.525
14.716500 3.561 4.605
14.728000 3.594 4.683
14.739500 3.631 4.765
14.751000 3.669 4.846
14.762500 3.709 4.916
14.774000 3.748 4.995
14.785500 3.79 5.073
14.797000 3.83 5.145
14.808500 3.872 5.21
14.820000 3.922 5.288
14.831500 3.967 5.36
14.843000 4.01 5.419
14.854500 4.061 5.486
14.866000 4.107 5.545
14.877500 4.164 5.608
14.889000 4.214 5.664
14.900500 4.278 5.723
14.912000 4.325 5.773
14.923500 4.394 5.824
14.935000 4.449 5.871
14.946500 4.508 5.918
14.958000 4.581 5.96
14.969500 4.646 5.996
14.981000 4.713 6.032
14.992500 4.782 6.064
15.004000 4.847 6.123
15.015500 4.906 6.235
15.027000 4.955 6.354
15.038500 5.016 6.474
15.050000 5.077 6.589
15.061500 5.13 6.705
15.073000 5.186 6.811
15.084500 5.238 6.928
15.096000 5.29 7.036
15.107500 5.344 7.151
15.119000 5.407 7.263
15.130500 5.463 7.362
15.142000 5.525 7.475
15.153500 5.597 7.579
15.165000 5.648 7.682
15.176500 5.711 7.782
15.188000 5.765 7.893
15.199500 5.85 7.99
15.211000 5.9 8.081
15.222500 6.001 8.191
15.234000 6.032 8.271
15.245500 6.108 8.356
15.257000 6.167 8.446
15.268500 6.236 8.513
15.280000 6.305 8.597
15.291500 6.381 8.663
15.303000 6.456 8.721
15.314500 6.565 8.791
15.326000 6.646 8.847
15.337500 6.725 8.884
15.349000 6.808 8.951
15.360500 6.921 8.983
15.372000 7.002 8.997
15.383500 7.098 9.045
15.395000 7.205 9.086
15.406500 7.294 9.082
15.418000 7.42 9.09
15.429500 7.511 9.094
15.441000 7.604 9.091
15.452500 7.722 9.074
15.464000 7.835 9.052
15.475500 7.941 9.035
15.487000 8.079 9.003
15.498500 8.195 8.959
15.510000 8.295 9.081
15.521500 8.373 9.244
15.533000 8.5 9.42
15.544500 8.607 9.573
15.556000 8.686 9.763
15.567500 8.803 9.91
15.579000 8.918 10.05
15.590500 8.99 10.21
15.602000 9.129 10.38
15.613500 9.21 10.52
15.625000 9.322 10.67
15.636500 9.419 10.82
15.648000 9.546 10.93
15.659500 9.613 11.06
15.671000 9.778 11.2
15.682500 9.87 11.32
15.694000 9.956 11.42
15.705500 10.11 11.51
15.717000 10.18 11.63
15.728500 10.31 11.69
15.740000 10.44 11.75
15.751500 10.55 11.84
15.763000 10.65 11.89
15.774500 10.74 11.97
15.786000 10.86 11.97
15.797500 11.02 11.99
15.809000 11.14 11.98
15.820500 11.26 11.99
15.832000 11.38 12
15.843500 11.52 12.01
15.855000 11.62 12.01
15.866500 11.76 11.95
15.878000 11.87 11.91
15.889500 12.01 11.83
15.901000 12.16 11.77
15.912500 12.31 11.7
15.924000 12.43 11.58
15.935500 12.57 11.46
15.947000 12.65 11.33
15.958500 12.81 11.23
15.970000 12.9 11.05
15.981500 13.02 10.88
15.993000 13.19 10.7
16.004500 13.31 10.73
16.016000 13.46 10.94
16.027500 13.7 11.16
16.039000 13.89 11.4
16.050500 14.04 11.6
16.062000 14.28 11.8
16.073500 14.45 11.99
16.085000 14.64 12.25
16.096500 14.85 12.48
16.108000 14.95 12.57
16.119500 15.07 12.78
16.131000 15.31 13
16.142500 15.47 13.11
16.154000 15.7 13.28
16.165500 15.82 13.45
16.177000 15.99 13.56
16.188500 16.18 13.67
16.200000 16.39 13.74
16.211500 16.42 13.91
16.223000 16.65 13.92
16.234500 16.77 14.03
16.246000 16.94 14.08
16.257500 17.15 14.03
16.269000 17.26 14.09
16.280500 17.37 14.08
16.292000 17.63 14.13
16.303500 17.81 14.03
16.315000 17.93 13.96
16.326500 18.08 13.85
16.338000 18.21 13.78
16.349500 18.36 13.62
16.361000 18.44 13.52
16.372500 18.57 13.38
16.384000 18.77 13.13
16.395500 18.94 12.99
16.407000 19.04 12.72
16.418500 19.08 12.47
16.430000 19.19 12.29
16.441500 19.29 11.92
16.453000 19.35 11.65
16.464500 19.41 11.27
16.476000 19.51 11.04
16.487500 19.51 10.66
16.499000 19.55 10.33
16.510500 19.95 10.56
16.522000 20.26 10.76
16.533500 20.63 11.02
16.545000 20.97 11.26
16.556500 21.36 11.43
16.568000 21.71 11.81
16.579500 22.14 11.98
16.591000 22.36 12.24
16.602500 22.73 12.46
16.614000 23.16 12.73
16.625500 23.46 12.87
16.637000 23.82 13.12
16.648500 24.14 13.27
16.660000 24.56 13.46
16.671500 24.81 13.7
16.683000 25.11 13.64
16.694500 25.35 13.72
16.706000 25.77 13.86
16.717500 26 13.9
16.729000 26.22 13.96
16.740500 26.51 14.04
16.752000 26.63 13.96
16.763500 26.97 13.86
16.775000 27.19 13.88
16.786500 27.33 13.73
16.798000 27.61 13.4
16.809500 27.68 13.33
16.821000 27.93 12.94
16.832500 27.91 12.92
16.844000 28.12 12.5
16.855500 28.05 12.25
16.867000 28.12 11.8
16.878500 28.21 11.42
16.890000 28.24 11.2
16.901500 28.16 10.73
16.913000 28.11 10.32
16.924500 27.96 9.825
16.936000 27.97 9.286
16.947500 27.83 8.958
16.959000 27.66 8.42
16.970500 27.48 7.869
16.982000 27.27 7.418
16.993500 27.03 6.897
17.005000 27.24 6.686
17.016500 27.98 6.802
17.028000 28.5 6.883
17.039500 29.24 7.081
17.051000 30.07 7.138
17.062500 30.71 7.184
17.074000 31.39 7.345
17.085500 32.15 7.344
17.097000 32.75 7.468
17.108500 33.51 7.461
17.120000 34.2 7.519
17.131500 34.64 7.258
17.143000 35.33 7.487
17.154500 35.88 7.318
17.166000 36.66 7.404
17.177500 37.23 7.107
17.189000 37.56 7.198
17.200500 38.37 6.898
17.212000 38.49 6.529
17.223500 39.07 6.292
17.235000 39.38 6.268
17.246500 39.5 5.932
17.258000 39.83 5.646
17.269500 40.12 5.406
17.281000 40.08 5.05
17.292500 40.33 4.569
17.304000 40.27 4.074
17.315500 40.24 3.729
17.327000 39.88 3.396
