! Touchstone file generated by AntScope2
# MHz Z RI R 50
! Format: Frequency Z-real Z-imaginary (normalized to 50 Ohm)
7.000000 55.8 -54.98
7.011500 55.11 -55.23
7.023000 54.61 -55.58
7.034500 54.14 -55.82
7.046000 53.77 -56.03
7.057500 53.32 -56.32
7.069000 53.72 -56.48
7.080500 52.74 -56.64
7.092000 51.96 -56.71
7.103500 52.74 -56.94
7.115000 52.44 -57.07
7.126500 51.96 -57.13
7.138000 51.42 -57.24
7.149500 52.92 -57.49
7.161000 52.03 -57.5
7.172500 52.29 -57.57
7.184000 53.07 -57.75
7.195500 52.84 -57.77
7.207000 52.99 -57.81
7.218500 52.64 -57.82
7.230000 52.62 -57.9
7.241500 52.76 -57.87
7.253000 53.1 -57.93
7.264500 53.49 -57.96
7.276000 53.24 -57.92
7.287500 54.3 -57.97
7.299000 54.48 -57.95
7.310500 53.88 -57.83
7.322000 54.32 -57.81
7.333500 54.02 -57.7
7.345000 54.99 -57.7
7.356500 54.84 -57.6
7.368000 56.13 -57.49
7.379500 55.14 -57.42
7.391000 55.59 -57.25
7.402500 56.2 -57.08
7.414000 55.49 -56.9
7.425500 56.97 -56.71
7.437000 56.67 -56.53
7.448500 56.23 -56.27
7.460000 56.01 -55.98
7.471500 55.28 -55.77
7.483000 55.56 -55.43
7.494500 55.24 -55.23
7.506000 54.76 -55.22
7.517500 53.81 -55.44
7.529000 53.57 -55.71
7.540500 53.23 -55.97
7.552000 52.17 -56.12
7.563500 52.67 -56.36
7.575000 51.81 -56.48
7.586500 52.6 -56.76
7.598000 52.04 -56.87
7.609500 51.97 -56.98
7.621000 52.21 -57.17
7.632500 52.24 -57.3
7.644000 51.63 -57.37
7.655500 52.33 -57.49
7.667000 52.76 -57.65
7.678500 52.49 -57.68
7.690000 53.06 -57.82
7.701500 53.55 -57.87
7.713000 53.72 -57.93
7.724500 52.59 -57.82
7.736000 54.57 -57.99
7.747500 53.92 -58
7.759000 54.5 -58.02
7.770500 54.59 -58.01
7.782000 54.23 -57.91
7.793500 54 -57.91
7.805000 54.05 -57.83
7.816500 54.63 -57.8
7.828000 54.89 -57.78
7.839500 53.75 -57.63
7.851000 54.53 -57.56
7.862500 53.88 -57.5
7.874000 53.88 -57.35
7.885500 54.16 -57.17
7.897000 54.69 -57.1
7.908500 54 -56.88
7.920000 53.9 -56.74
7.931500 53.64 -56.49
7.943000 53.07 -56.21
7.954500 53.19 -56.04
7.966000 52.59 -55.76
7.977500 52.16 -55.49
7.989000 52.2 -55.24
8.000500 51.35 -54.88
8.012000 51.04 -55.15
8.023500 50.72 -55.44
8.035000 51.16 -55.74
8.046500 50.67 -55.88
8.058000 50.29 -56.03
8.069500 50.16 -56.24
8.081000 50.61 -56.47
8.092500 50.49 -56.65
8.104000 50.87 -56.84
8.115500 50.63 -56.94
8.127000 50.8 -57.08
8.138500 50.4 -57.12
8.150000 50.8 -57.26
8.161500 51.72 -57.53
8.173000 51.2 -57.49
8.184500 51.13 -57.55
8.196000 51.89 -57.67
8.207500 51.93 -57.75
8.219000 52.22 -57.79
8.230500 51.84 -57.77
8.242000 52.45 -57.86
8.253500 52.85 -57.85
8.265000 53.01 -57.86
8.276500 53.08 -57.86
8.288000 53.22 -57.79
8.299500 53.29 -57.79
8.311000 53.5 -57.76
8.322500 53.74 -57.73
8.334000 54.17 -57.63
8.345500 53.35 -57.49
8.357000 53.71 -57.41
8.368500 54.41 -57.38
8.380000 53.05 -57.17
8.391500 53.42 -57.02
8.403000 52.41 -56.81
8.414500 52.13 -56.56
8.426000 52.1 -56.42
8.437500 52.39 -56.29
8.449000 51.5 -55.99
8.460500 51.22 -55.69
8.472000 50.3 -55.33
8.483500 49.53 -55.05
8.495000 48.54 -54.61
8.506500 48.54 -54.68
8.518000 48.32 -54.92
8.529500 48.61 -55.17
8.541000 48.53 -55.41
8.552500 48.02 -55.58
8.564000 48.34 -55.84
8.575500 48.43 -56.06
8.587000 48.49 -56.22
8.598500 48.18 -56.34
8.610000 48.75 -56.55
8.621500 48.73 -56.67
8.633000 48.79 -56.79
8.644500 49.38 -57.01
8.656000 49.2 -57.08
8.667500 49.71 -57.22
8.679000 49.68 -57.24
8.690500 50.24 -57.39
8.702000 50.36 -57.47
8.713500 50.64 -57.55
8.725000 50.77 -57.56
8.736500 50.89 -57.57
8.748000 50.39 -57.49
8.759500 51.73 -57.68
8.771000 51.75 -57.69
8.782500 51.4 -57.59
8.794000 51.73 -57.58
8.805500 51.31 -57.55
8.817000 51.44 -57.45
8.828500 50.91 -57.31
8.840000 51.21 -57.23
8.851500 51.25 -57.18
8.863000 50.57 -56.97
8.874500 50.29 -56.84
8.886000 51.17 -56.85
8.897500 49.9 -56.51
8.909000 49.44 -56.3
8.920500 49.49 -56.14
8.932000 49.53 -55.97
8.943500 47.98 -55.54
8.955000 48.42 -55.4
8.966500 46.43 -54.9
8.978000 45.82 -54.52
8.989500 45.03 -54.08
9.001000 44.44 -53.74
9.012500 44.69 -54.1
9.024000 44.41 -54.32
9.035500 44.57 -54.58
9.047000 44.23 -54.75
9.058500 44.24 -54.99
9.070000 44.24 -55.16
9.081500 44.25 -55.35
9.093000 44.44 -55.56
9.104500 44.54 -55.72
9.116000 45.22 -55.98
9.127500 45.49 -56.15
9.139000 45.74 -56.32
9.150500 46.15 -56.51
9.162000 46.67 -56.65
9.173500 46.83 -56.76
9.185000 46.9 -56.83
9.196500 47.24 -56.97
9.208000 47.05 -56.97
9.219500 48.26 -57.21
9.231000 47.62 -57.1
9.242500 48.06 -57.19
9.254000 48.48 -57.27
9.265500 48.31 -57.23
9.277000 48.44 -57.2
9.288500 47.99 -57.12
9.300000 48.31 -57.12
9.311500 48.76 -57.14
9.323000 48.43 -57.04
9.334500 48.35 -56.95
9.346000 48.65 -56.91
9.357500 48.31 -56.74
9.369000 48.26 -56.61
9.380500 47.67 -56.39
9.392000 47.17 -56.15
9.403500 46.91 -55.95
9.415000 46.62 -55.73
9.426500 45.52 -55.37
9.438000 45.28 -55.11
9.449500 44.3 -54.71
9.461000 43.95 -54.42
9.472500 43.4 -54.07
9.484000 42.15 -53.5
9.495500 41.74 -53.12
9.507000 41.29 -53.11
9.518500 41.62 -53.47
9.530000 40.87 -53.53
9.541500 40.95 -53.77
9.553000 41.51 -54.11
9.564500 41.32 -54.28
9.576000 41.72 -54.59
9.587500 41.66 -54.75
9.599000 41.79 -54.9
9.610500 42.49 -55.24
9.622000 42.54 -55.39
9.633500 42.86 -55.59
9.645000 42.85 -55.69
9.656500 43.49 -55.94
9.668000 43.58 -56.06
9.679500 43.76 -56.16
9.691000 43.84 -56.22
9.702500 43.85 -56.27
9.714000 44.4 -56.45
9.725500 44.66 -56.52
9.737000 44.86 -56.56
9.748500 45.28 -56.67
9.760000 44.95 -56.6
9.771500 45.06 -56.61
9.783000 45.38 -56.65
9.794500 45.29 -56.57
9.806000 45.36 -56.53
9.817500 45.67 -56.53
9.829000 45.76 -56.51
9.840500 45.13 -56.3
9.852000 45.01 -56.16
9.863500 44.74 -55.98
9.875000 44.33 -55.75
9.886500 44.3 -55.63
9.898000 43.91 -55.38
9.909500 43.21 -55.06
9.921000 42.83 -54.79
9.932500 42.11 -54.42
9.944000 41.46 -54.05
9.955500 40.67 -53.61
9.967000 40.15 -53.23
9.978500 39.2 -52.73
9.990000 38.64 -52.26
10.001500 38 -51.89
10.013000 37.72 -52.08
10.024500 37.47 -52.27
10.036000 37.57 -52.56
10.047500 37.65 -52.8
10.059000 37.63 -53
10.070500 37.6 -53.16
10.082000 37.68 -53.37
10.093500 37.86 -53.57
10.105000 37.91 -53.73
10.116500 37.98 -53.91
10.128000 38.19 -54.1
10.139500 38.61 -54.33
10.151000 38.8 -54.5
10.162500 39.24 -54.71
10.174000 39.22 -54.81
10.185500 39.32 -54.87
10.197000 39.64 -55.04
10.208500 40.12 -55.23
10.220000 40.24 -55.29
10.231500 40.47 -55.39
10.243000 40.26 -55.33
10.254500 40.32 -55.34
10.266000 40.63 -55.44
10.277500 40.45 -55.33
10.289000 40.81 -55.42
10.300500 40.87 -55.38
10.312000 40.75 -55.31
10.323500 40.76 -55.26
10.335000 40.72 -55.16
10.346500 40.7 -55.06
10.358000 40.95 -55.03
10.369500 40.32 -54.73
10.381000 40.28 -54.58
10.392500 39.63 -54.24
10.404000 39.67 -54.11
10.415500 38.79 -53.67
10.427000 38.51 -53.39
10.438500 38.2 -53.08
10.450000 37.36 -52.6
10.461500 37.14 -52.29
10.473000 36.38 -51.8
10.484500 35.57 -51.27
10.496000 34.62 -50.65
10.507500 34.23 -50.57
10.519000 34.08 -50.78
10.530500 33.87 -50.95
10.542000 33.65 -51.07
10.553500 33.73 -51.33
10.565000 33.67 -51.47
10.576500 33.57 -51.62
10.588000 33.58 -51.78
10.599500 33.57 -51.93
10.611000 33.68 -52.1
10.622500 33.42 -52.14
10.634000 33.74 -52.35
10.645500 34.12 -52.63
10.657000 34.35 -52.83
10.668500 34.31 -52.85
10.680000 34.58 -53.05
10.691500 34.68 -53.14
10.703000 35 -53.33
10.714500 35.43 -53.52
10.726000 35.69 -53.68
10.737500 35.54 -53.62
10.749000 36.05 -53.84
10.760500 35.85 -53.74
10.772000 36.06 -53.81
10.783500 36.13 -53.82
10.795000 36.54 -53.96
10.806500 36.58 -53.92
10.818000 36.22 -53.72
10.829500 36.6 -53.81
10.841000 36.47 -53.7
10.852500 36.36 -53.56
10.864000 36.14 -53.38
10.875500 35.99 -53.19
10.887000 35.8 -53
10.898500 35.46 -52.71
10.910000 35.16 -52.46
10.921500 35.26 -52.32
10.933000 34.64 -51.88
10.944500 34.2 -51.49
10.956000 33.8 -51.14
10.967500 33.45 -50.77
10.979000 32.85 -50.28
10.990500 32.29 -49.78
11.002000 31.82 -49.4
11.013500 31.45 -49.52
11.025000 31.17 -49.61
11.036500 30.86 -49.67
11.048000 30.8 -49.86
11.059500 30.39 -49.84
11.071000 30.46 -50.07
11.082500 30.32 -50.15
11.094000 30.2 -50.24
11.105500 29.94 -50.23
11.117000 30.02 -50.38
11.128500 30.11 -50.54
11.140000 30.08 -50.62
11.151500 30.33 -50.83
11.163000 30.29 -50.89
11.174500 30.49 -51.07
11.186000 30.57 -51.14
11.197500 30.7 -51.26
11.209000 30.85 -51.37
11.220500 31.08 -51.52
11.232000 31.18 -51.59
11.243500 31.36 -51.69
11.255000 31.67 -51.85
11.266500 31.89 -51.95
11.278000 31.95 -51.97
11.289500 32.02 -51.97
11.301000 31.95 -51.89
11.312500 32.22 -51.99
11.324000 32.19 -51.91
11.335500 32.33 -51.92
11.347000 32.24 -51.79
11.358500 32.12 -51.64
11.370000 31.91 -51.43
11.381500 31.96 -51.35
11.393000 31.85 -51.17
11.404500 31.86 -51.05
11.416000 31.54 -50.74
11.427500 31.51 -50.57
11.439000 31.05 -50.16
11.450500 30.65 -49.76
11.462000 30.32 -49.38
11.473500 30.02 -49.02
11.485000 29.68 -48.6
11.496500 29.16 -48.08
11.508000 28.78 -47.97
11.519500 28.39 -48.02
11.531000 27.69 -47.84
11.542500 27.45 -47.92
11.554000 27.37 -48.06
11.565500 26.86 -47.93
11.577000 26.81 -48.04
11.588500 26.6 -48.06
11.600000 26.47 -48.11
11.611500 26.46 -48.22
11.623000 26.2 -48.17
11.634500 26.33 -48.34
11.646000 26.41 -48.47
11.657500 26.4 -48.54
11.669000 26.33 -48.56
11.680500 26.5 -48.72
11.692000 26.58 -48.81
11.703500 26.65 -48.9
11.715000 26.71 -48.97
11.726500 27.01 -49.17
11.738000 27.05 -49.22
11.749500 27.21 -49.31
11.761000 27.33 -49.4
11.772500 27.49 -49.48
11.784000 27.73 -49.6
11.795500 27.84 -49.64
11.807000 28.02 -49.71
11.818500 28.09 -49.72
11.830000 28.21 -49.74
11.841500 28.29 -49.72
11.853000 28.52 -49.79
11.864500 28.65 -49.77
11.876000 28.49 -49.59
11.887500 28.81 -49.66
11.899000 28.67 -49.45
11.910500 28.61 -49.28
11.922000 28.65 -49.15
11.933500 28.41 -48.85
11.945000 28.33 -48.62
11.956500 28.27 -48.4
11.968000 28.11 -48.1
11.979500 27.85 -47.73
11.991000 27.6 -47.35
12.002500 27.4 -47.08
12.014000 26.82 -47
12.025500 26.27 -46.91
12.037000 25.84 -46.82
12.048500 25.53 -46.83
12.060000 25.07 -46.69
12.071500 24.89 -46.74
12.083000 24.71 -46.75
12.094500 24.4 -46.67
12.106000 24.12 -46.59
12.117500 23.97 -46.59
12.129000 23.88 -46.62
12.140500 23.84 -46.66
12.152000 23.77 -46.68
12.163500 23.84 -46.81
12.175000 23.78 -46.81
12.186500 23.73 -46.83
12.198000 23.84 -46.94
12.209500 23.96 -47.05
12.221000 23.93 -47.07
12.232500 23.99 -47.13
12.244000 24.1 -47.2
12.255500 24.25 -47.32
12.267000 24.42 -47.44
12.278500 24.52 -47.49
12.290000 24.67 -47.59
12.301500 24.77 -47.63
12.313000 24.76 -47.57
12.324500 25.09 -47.75
12.336000 25.31 -47.86
12.347500 25.36 -47.81
12.359000 25.45 -47.81
12.370500 25.57 -47.81
12.382000 25.73 -47.83
12.393500 25.8 -47.76
12.405000 26.05 -47.8
12.416500 26.09 -47.7
12.428000 26.13 -47.57
12.439500 26.35 -47.55
12.451000 26.25 -47.31
12.462500 26.19 -47.08
12.474000 26.16 -46.86
12.485500 26.19 -46.66
12.497000 26.05 -46.33
12.508500 25.51 -46.1
12.520000 25.03 -46.02
12.531500 24.65 -45.95
12.543000 24.14 -45.79
12.554500 23.68 -45.64
12.566000 23.24 -45.48
12.577500 23.09 -45.5
12.589000 22.7 -45.33
12.600500 22.56 -45.35
12.612000 22.4 -45.33
12.623500 22.24 -45.3
12.635000 22 -45.2
12.646500 21.86 -45.17
12.658000 21.84 -45.21
12.669500 21.99 -45.39
12.681000 21.9 -45.37
12.692500 21.96 -45.45
12.704000 21.93 -45.46
12.715500 22.17 -45.68
12.727000 22.11 -45.65
12.738500 22.22 -45.76
12.750000 22.11 -45.67
12.761500 22.34 -45.86
12.773000 22.47 -45.94
12.784500 22.57 -45.99
12.796000 22.68 -46.07
12.807500 22.83 -46.16
12.819000 23.01 -46.26
12.830500 23.01 -46.21
12.842000 23.21 -46.31
12.853500 23.36 -46.35
12.865000 23.56 -46.42
12.876500 23.58 -46.36
12.888000 23.77 -46.39
12.899500 23.77 -46.29
12.911000 23.96 -46.33
12.922500 24.05 -46.25
12.934000 24.28 -46.27
12.945500 24.22 -46.07
12.957000 24.29 -45.95
12.968500 24.43 -45.87
12.980000 24.44 -45.67
12.991500 24.3 -45.35
13.003000 24.22 -45.21
13.014500 23.9 -45.19
13.026000 23.32 -44.96
13.037500 22.88 -44.81
13.049000 22.46 -44.68
13.060500 22.19 -44.64
13.072000 21.73 -44.4
13.083500 21.49 -44.33
13.095000 21.29 -44.29
13.106500 21.16 -44.29
13.118000 20.85 -44.12
13.129500 20.62 -44.03
13.141000 20.64 -44.11
13.152500 20.55 -44.09
13.164000 20.35 -44
13.175500 20.4 -44.07
13.187000 20.42 -44.15
13.198500 20.25 -44.03
13.210000 20.32 -44.12
13.221500 20.48 -44.27
13.233000 20.48 -44.29
13.244500 20.56 -44.36
13.256000 20.61 -44.42
13.267500 20.66 -44.45
13.279000 20.75 -44.52
13.290500 20.85 -44.57
13.302000 20.96 -44.64
13.313500 21.14 -44.77
13.325000 21.26 -44.84
13.336500 21.43 -44.93
13.348000 21.62 -45.01
13.359500 21.61 -44.94
13.371000 21.73 -44.98
13.382500 21.89 -45.03
13.394000 21.97 -45.01
13.405500 22.14 -45.05
13.417000 22.36 -45.09
13.428500 22.53 -45.09
13.440000 22.55 -44.98
13.451500 22.64 -44.91
13.463000 22.69 -44.8
13.474500 22.68 -44.61
13.486000 22.82 -44.52
13.497500 22.83 -44.33
13.509000 22.6 -44.25
13.520500 22.09 -44.05
13.532000 21.67 -43.92
13.543500 21.17 -43.65
13.555000 20.98 -43.66
13.566500 20.62 -43.49
13.578000 20.44 -43.46
13.589500 20.17 -43.34
13.601000 19.93 -43.25
13.612500 19.77 -43.2
13.624000 19.62 -43.14
13.635500 19.52 -43.1
13.647000 19.32 -43.02
13.658500 19.31 -43.05
13.670000 19.23 -43.02
13.681500 19.22 -43.06
13.693000 19.17 -43.05
13.704500 19.16 -43.07
13.716000 19.21 -43.14
13.727500 19.29 -43.23
13.739000 19.23 -43.19
13.750500 19.38 -43.32
13.762000 19.37 -43.32
13.773500 19.5 -43.43
13.785000 19.55 -43.46
13.796500 19.98 -43.83
13.808000 19.94 -43.77
13.819500 20.15 -43.93
13.831000 20.28 -44.02
13.842500 20.43 -44.07
13.854000 20.43 -44.04
13.865500 20.68 -44.18
13.877000 20.65 -44.09
13.888500 20.88 -44.21
13.900000 20.95 -44.18
13.911500 21.12 -44.21
13.923000 21.27 -44.23
13.934500 21.4 -44.2
13.946000 21.6 -44.23
13.957500 21.76 -44.23
13.969000 21.76 -44.08
13.980500 21.74 -43.9
13.992000 21.84 -43.81
14.003500 21.84 -43.71
14.015000 21.22 -43.43
14.026500 20.91 -43.34
14.038000 20.59 -43.22
14.049500 20.19 -43
14.061000 20.03 -43
14.072500 19.87 -42.98
14.084000 19.84 -43.07
14.095500 19.56 -42.91
14.107000 19.39 -42.85
14.118500 19.29 -42.84
14.130000 19.06 -42.71
14.141500 19.1 -42.78
14.153000 19.13 -42.89
14.164500 19.07 -42.86
14.176000 18.96 -42.82
14.187500 18.92 -42.81
14.199000 18.96 -42.89
14.210500 18.98 -42.93
14.222000 18.85 -42.82
14.233500 19.07 -43.03
14.245000 19.04 -43.01
14.256500 19.14 -43.1
14.268000 19.1 -43.08
14.279500 19.4 -43.32
14.291000 19.26 -43.2
14.302500 19.45 -43.34
14.314000 19.8 -43.63
14.325500 19.65 -43.43
14.337000 19.86 -43.61
14.348500 19.93 -43.62
14.360000 20.13 -43.74
14.371500 20.1 -43.65
14.383000 20.49 -43.91
14.394500 20.55 -43.88
14.406000 20.83 -44.01
14.417500 20.74 -43.85
14.429000 20.94 -43.91
14.440500 20.86 -43.72
14.452000 21.16 -43.84
14.463500 21.14 -43.7
14.475000 21.01 -43.45
14.486500 21.09 -43.36
14.498000 21.59 -43.54
14.509500 21.16 -43.34
14.521000 20.61 -43.06
14.532500 20.41 -43.02
14.544000 20.18 -42.97
14.555500 20.11 -43.05
14.567000 19.67 -42.77
14.578500 19.37 -42.62
14.590000 19.4 -42.75
14.601500 19.22 -42.69
14.613000 19.1 -42.63
14.624500 18.98 -42.61
14.636000 19 -42.7
14.647500 18.89 -42.65
14.659000 18.91 -42.71
14.670500 18.75 -42.63
14.682000 18.82 -42.71
14.693500 18.85 -42.78
14.705000 18.69 -42.63
14.716500 18.84 -42.81
14.728000 18.81 -42.78
14.739500 18.84 -42.83
14.751000 18.95 -42.94
14.762500 19.19 -43.15
14.774000 19.34 -43.28
14.785500 19.22 -43.15
14.797000 19.43 -43.33
14.808500 19.5 -43.37
14.820000 19.46 -43.32
14.831500 19.77 -43.55
14.843000 19.75 -43.47
14.854500 19.81 -43.49
14.866000 19.99 -43.62
14.877500 20.04 -43.6
14.889000 19.98 -43.46
14.900500 20.42 -43.76
14.912000 20.53 -43.77
14.923500 20.45 -43.61
14.935000 20.47 -43.54
14.946500 20.54 -43.45
14.958000 20.49 -43.31
14.969500 20.7 -43.37
14.981000 20.65 -43.16
14.992500 20.69 -43.05
15.004000 20.63 -42.95
15.015500 20.48 -42.99
15.027000 20.14 -42.84
15.038500 19.76 -42.65
15.050000 19.82 -42.8
15.061500 19.66 -42.8
15.073000 19.36 -42.64
15.084500 19.22 -42.63
15.096000 19.22 -42.7
15.107500 19.07 -42.65
15.119000 18.96 -42.61
15.130500 18.98 -42.7
15.142000 18.71 -42.52
15.153500 18.9 -42.72
15.165000 18.95 -42.82
15.176500 19.01 -42.9
15.188000 18.88 -42.82
15.199500 18.94 -42.89
15.211000 18.92 -42.91
15.222500 19.03 -43.04
15.234000 19.25 -43.24
15.245500 19.15 -43.16
15.257000 19.29 -43.26
15.268500 19.35 -43.33
15.280000 19.35 -43.3
15.291500 19.56 -43.5
15.303000 19.71 -43.6
15.314500 19.88 -43.72
15.326000 20.13 -43.89
15.337500 19.91 -43.66
15.349000 20.15 -43.84
15.360500 20.1 -43.75
15.372000 20.17 -43.76
15.383500 20.21 -43.72
15.395000 20.37 -43.79
15.406500 20.26 -43.59
15.418000 20.29 -43.55
15.429500 20.24 -43.43
15.441000 20.56 -43.6
15.452500 20.62 -43.52
15.464000 20.47 -43.27
15.475500 20.76 -43.35
15.487000 20.49 -43.03
15.498500 20.48 -42.88
15.510000 20.5 -42.99
15.521500 20.39 -43.03
15.533000 20.06 -42.89
15.544500 19.96 -42.95
15.556000 19.77 -42.88
15.567500 19.79 -43.02
15.579000 19.56 -42.91
15.590500 19.46 -42.91
15.602000 19.46 -42.98
15.613500 19.52 -43.1
15.625000 19.35 -43.02
15.636500 19.32 -43.06
15.648000 19.33 -43.12
15.659500 19.28 -43.11
15.671000 19.37 -43.22
15.682500 19.36 -43.26
15.694000 19.36 -43.29
15.705500 19.46 -43.39
15.717000 19.53 -43.46
15.728500 19.53 -43.49
15.740000 19.51 -43.48
15.751500 19.66 -43.6
15.763000 19.9 -43.81
15.774500 19.87 -43.78
15.786000 19.89 -43.78
15.797500 19.94 -43.82
15.809000 20.15 -44
15.820500 20.08 -43.88
15.832000 20.03 -43.8
15.843500 20.09 -43.79
15.855000 20.18 -43.86
15.866500 20.34 -43.92
15.878000 20.28 -43.81
15.889500 20.31 -43.78
15.901000 20.06 -43.47
15.912500 20.09 -43.44
15.924000 20.03 -43.27
15.935500 20.08 -43.22
15.947000 20.06 -43.12
15.958500 20.05 -42.97
15.970000 19.79 -42.63
15.981500 19.65 -42.39
15.993000 19.75 -42.32
16.004500 19.59 -42.16
16.016000 19.3 -42.06
16.027500 19.4 -42.27
16.039000 19.33 -42.34
16.050500 19.18 -42.33
16.062000 19.14 -42.41
16.073500 18.94 -42.32
16.085000 18.96 -42.43
16.096500 19.05 -42.58
16.108000 18.85 -42.48
16.119500 19.13 -42.8
16.131000 19.08 -42.79
16.142500 19 -42.8
16.154000 19.24 -43.05
16.165500 19.25 -43.1
16.177000 19.16 -43.06
16.188500 19.03 -42.96
16.200000 19.06 -43.02
16.211500 19.32 -43.27
16.223000 19.29 -43.24
16.234500 19.45 -43.4
16.246000 19.62 -43.55
16.257500 19.38 -43.35
16.269000 19.61 -43.54
16.280500 19.55 -43.47
16.292000 19.6 -43.5
16.303500 19.64 -43.52
16.315000 19.69 -43.53
16.326500 19.73 -43.53
16.338000 19.77 -43.5
16.349500 19.73 -43.43
16.361000 19.78 -43.42
16.372500 19.6 -43.23
16.384000 19.61 -43.17
16.395500 19.7 -43.16
16.407000 19.68 -43.07
16.418500 19.43 -42.76
16.430000 19.62 -42.85
16.441500 19.66 -42.75
16.453000 19.5 -42.51
16.464500 19.2 -42.16
16.476000 19.26 -42.06
16.487500 18.86 -41.57
16.499000 18.83 -41.41
16.510500 19.1 -41.76
16.522000 18.76 -41.6
16.533500 18.65 -41.66
16.545000 18.65 -41.74
16.556500 18.25 -41.52
16.568000 18.42 -41.76
16.579500 18.62 -42.04
16.591000 18.57 -42.11
16.602500 18.38 -41.98
16.614000 18.37 -42.04
16.625500 18.39 -42.13
16.637000 18.52 -42.3
16.648500 18.65 -42.46
16.660000 18.43 -42.33
16.671500 18.58 -42.49
16.683000 18.6 -42.54
16.694500 18.55 -42.51
16.706000 18.91 -42.88
16.717500 18.86 -42.84
16.729000 19.02 -42.98
16.740500 18.91 -42.91
16.752000 19.36 -43.3
16.763500 19.22 -43.19
16.775000 19.4 -43.33
16.786500 19.06 -43.03
16.798000 19.27 -43.17
16.809500 19.12 -43
16.821000 19.24 -43.08
16.832500 19.49 -43.27
16.844000 19.43 -43.18
16.855500 19.38 -43.08
16.867000 19.25 -42.91
16.878500 19.25 -42.85
16.890000 19.09 -42.63
16.901500 19.02 -42.5
16.913000 18.95 -42.37
16.924500 18.9 -42.23
16.936000 18.68 -41.93
16.947500 18.59 -41.73
16.959000 18.57 -41.6
16.970500 18.29 -41.23
16.982000 18.41 -41.21
16.993500 18.21 -40.88
17.005000 18.04 -40.73
17.016500 17.82 -40.64
17.028000 17.89 -40.86
17.039500 17.85 -40.96
17.051000 17.82 -41.04
17.062500 17.86 -41.17
17.074000 17.8 -41.21
17.085500 17.87 -41.37
17.097000 17.98 -41.57
17.108500 17.86 -41.54
17.120000 17.92 -41.64
17.131500 17.91 -41.7
17.143000 17.94 -41.77
17.154500 18.14 -42.03
