! Touchstone file generated by AntScope2
# MHz Z RI R 50
! Format: Frequency Z-real Z-imaginary (normalized to 50 Ohm)
7.000000 0.9594 0.0016
7.011500 0.9588 0.0016
7.023000 0.9588 0.0018
7.034500 0.9586 0.0018
7.046000 0.958 0.0018
7.057500 0.958 0.002
7.069000 0.9578 0.0022
7.080500 0.9578 0.0022
7.092000 0.958 0.002
7.103500 0.9572 0.0022
7.115000 0.9574 0.0024
7.126500 0.9574 0.0024
7.138000 0.9572 0.0026
7.149500 0.9572 0.0024
7.161000 0.9566 0.0022
7.172500 0.9568 0.0022
7.184000 0.9564 0.0022
7.195500 0.9562 0.0022
7.207000 0.9566 0.0022
7.218500 0.9566 0.0022
7.230000 0.9564 0.0022
7.241500 0.9566 0.0022
7.253000 0.956 0.0018
7.264500 0.9564 0.002
7.276000 0.9564 0.0022
7.287500 0.9568 0.0018
7.299000 0.9564 0.002
7.310500 0.9564 0.0022
7.322000 0.9566 0.0018
7.333500 0.9566 0.0018
7.345000 0.9566 0.0014
7.356500 0.9566 0.002
7.368000 0.957 0.0016
7.379500 0.9572 0.0022
7.391000 0.957 0.0018
7.402500 0.9572 0.0016
7.414000 0.9576 0.0016
7.425500 0.9578 0.0016
7.437000 0.9576 0.0018
7.448500 0.9578 0.0014
7.460000 0.9582 0.0016
7.471500 0.9582 0.0016
7.483000 0.9586 0.0012
7.494500 0.959 0.0014
7.506000 0.9586 0.0014
7.517500 0.9584 0.0014
7.529000 0.9582 0.0014
7.540500 0.9582 0.0018
7.552000 0.9578 0.0018
7.563500 0.9578 0.0018
7.575000 0.9578 0.0016
7.586500 0.9574 0.002
7.598000 0.9576 0.0016
7.609500 0.9574 0.002
7.621000 0.9574 0.0018
7.632500 0.9572 0.002
7.644000 0.9568 0.002
7.655500 0.957 0.0018
7.667000 0.9568 0.002
7.678500 0.9566 0.0018
7.690000 0.9564 0.0018
7.701500 0.9568 0.002
7.713000 0.9566 0.002
7.724500 0.9566 0.002
7.736000 0.9564 0.002
7.747500 0.9566 0.0022
7.759000 0.9562 0.002
7.770500 0.9564 0.002
7.782000 0.9564 0.002
7.793500 0.9562 0.0022
7.805000 0.9566 0.0018
7.816500 0.9568 0.002
7.828000 0.9568 0.0018
7.839500 0.9566 0.0018
7.851000 0.9568 0.0018
7.862500 0.957 0.0016
7.874000 0.9568 0.0016
7.885500 0.9572 0.0018
7.897000 0.957 0.0016
7.908500 0.9576 0.0016
7.920000 0.9576 0.0018
7.931500 0.9578 0.0012
7.943000 0.958 0.0016
7.954500 0.9582 0.001
7.966000 0.9582 0.0014
7.977500 0.9588 0.0012
7.989000 0.959 0.0014
8.000500 0.959 0.0014
8.012000 0.9588 0.0014
8.023500 0.9586 0.0012
8.035000 0.9586 0.0014
8.046500 0.958 0.0018
8.058000 0.9578 0.0014
8.069500 0.9586 0.0032
8.081000 0.9576 0.002
8.092500 0.9574 0.0016
8.104000 0.9578 0.0022
8.115500 0.9572 0.002
8.127000 0.9572 0.002
8.138500 0.9572 0.0022
8.150000 0.9568 0.0024
8.161500 0.9568 0.0022
8.173000 0.9566 0.0026
8.184500 0.9566 0.0024
8.196000 0.9568 0.0022
8.207500 0.9564 0.0026
8.219000 0.9564 0.0024
8.230500 0.9566 0.0022
8.242000 0.9564 0.0026
8.253500 0.9566 0.0028
8.265000 0.9566 0.0028
8.276500 0.9566 0.0024
8.288000 0.9564 0.0022
8.299500 0.9562 0.0024
8.311000 0.9566 0.0024
8.322500 0.9564 0.0024
8.334000 0.9564 0.0026
8.345500 0.9568 0.0026
8.357000 0.957 0.0024
8.368500 0.9566 0.0024
8.380000 0.9568 0.0028
8.391500 0.9572 0.0024
8.403000 0.9574 0.0024
8.414500 0.9572 0.0024
8.426000 0.9574 0.0026
8.437500 0.9576 0.0026
8.449000 0.958 0.0024
8.460500 0.9582 0.0026
8.472000 0.9586 0.0022
8.483500 0.9582 0.0024
8.495000 0.9584 0.0024
8.506500 0.9586 0.0024
8.518000 0.9582 0.0026
8.529500 0.958 0.0026
8.541000 0.9578 0.0022
8.552500 0.9576 0.0028
8.564000 0.9576 0.003
8.575500 0.9576 0.003
8.587000 0.9572 0.0028
8.598500 0.957 0.0032
8.610000 0.9568 0.0028
8.621500 0.9568 0.003
8.633000 0.9566 0.003
8.644500 0.9564 0.003
8.656000 0.956 0.0032
8.667500 0.9564 0.0028
8.679000 0.9562 0.0028
8.690500 0.9564 0.0028
8.702000 0.9562 0.003
8.713500 0.9558 0.0032
8.725000 0.956 0.0028
8.736500 0.9558 0.003
8.748000 0.9562 0.0028
8.759500 0.9562 0.0028
8.771000 0.956 0.0028
8.782500 0.956 0.003
8.794000 0.9562 0.0028
8.805500 0.9562 0.0028
8.817000 0.956 0.0024
8.828500 0.9564 0.0028
8.840000 0.9562 0.003
8.851500 0.9562 0.0028
8.863000 0.9568 0.0028
8.874500 0.9564 0.0026
8.886000 0.9566 0.0022
8.897500 0.957 0.0028
8.909000 0.9568 0.0026
8.920500 0.9572 0.0024
8.932000 0.9572 0.0026
8.943500 0.9574 0.0024
8.955000 0.9576 0.0022
8.966500 0.9576 0.0022
8.978000 0.9578 0.002
8.989500 0.9582 0.0022
9.001000 0.9582 0.0022
9.012500 0.9582 0.0022
9.024000 0.9578 0.002
9.035500 0.9576 0.0024
9.047000 0.9574 0.0026
9.058500 0.9576 0.0024
9.070000 0.9572 0.0026
9.081500 0.9572 0.0028
9.093000 0.9572 0.0026
9.104500 0.9568 0.0028
9.116000 0.9568 0.0028
9.127500 0.9564 0.003
9.139000 0.9564 0.003
9.150500 0.9562 0.0028
9.162000 0.9564 0.003
9.173500 0.9562 0.003
9.185000 0.9558 0.0028
9.196500 0.956 0.0028
9.208000 0.9558 0.0026
9.219500 0.956 0.0028
9.231000 0.9562 0.0028
9.242500 0.9554 0.0028
9.254000 0.9558 0.0026
9.265500 0.9554 0.0024
9.277000 0.9558 0.0026
9.288500 0.956 0.0026
9.300000 0.9556 0.0026
9.311500 0.9558 0.0028
9.323000 0.9558 0.0028
9.334500 0.9558 0.0024
9.346000 0.9558 0.0024
9.357500 0.956 0.0024
9.369000 0.9564 0.0026
9.380500 0.9566 0.0022
9.392000 0.9564 0.0022
9.403500 0.9566 0.0026
9.415000 0.9568 0.0022
9.426500 0.9568 0.0022
9.438000 0.957 0.002
9.449500 0.9572 0.0024
9.461000 0.9574 0.0022
9.472500 0.9578 0.0022
9.484000 0.9576 0.002
9.495500 0.958 0.0024
9.507000 0.958 0.002
9.518500 0.9578 0.002
9.530000 0.9574 0.0024
9.541500 0.9574 0.0024
9.553000 0.9574 0.0022
9.564500 0.957 0.0024
9.576000 0.957 0.0026
9.587500 0.9566 0.0022
9.599000 0.9562 0.0024
9.610500 0.9562 0.0026
9.622000 0.9562 0.0028
9.633500 0.956 0.0028
9.645000 0.9558 0.0026
9.656500 0.956 0.0026
9.668000 0.9558 0.0024
9.679500 0.9556 0.0026
9.691000 0.9556 0.0028
9.702500 0.9552 0.0028
9.714000 0.9556 0.0024
9.725500 0.9554 0.0028
9.737000 0.9552 0.0026
9.748500 0.9554 0.0026
9.760000 0.9552 0.0028
9.771500 0.955 0.0026
9.783000 0.9552 0.0026
9.794500 0.9556 0.0022
9.806000 0.9554 0.0024
9.817500 0.9554 0.0028
9.829000 0.9554 0.0022
9.840500 0.9556 0.0022
9.852000 0.9554 0.0024
9.863500 0.9556 0.0024
9.875000 0.9558 0.0022
9.886500 0.9556 0.0024
9.898000 0.9558 0.0024
9.909500 0.9558 0.0024
9.921000 0.9564 0.002
9.932500 0.9564 0.0024
9.944000 0.9568 0.002
9.955500 0.9568 0.0018
9.967000 0.957 0.002
9.978500 0.9568 0.002
9.990000 0.9576 0.0022
10.001500 0.9572 0.002
10.013000 0.957 0.002
10.024500 0.957 0.0022
10.036000 0.9568 0.0022
10.047500 0.9566 0.0022
10.059000 0.9564 0.0024
10.070500 0.9568 0.002
10.082000 0.9562 0.0024
10.093500 0.956 0.0024
10.105000 0.9558 0.0022
10.116500 0.9556 0.0022
10.128000 0.9558 0.0022
10.139500 0.9556 0.0024
10.151000 0.9552 0.0026
10.162500 0.9554 0.0022
10.174000 0.9552 0.0024
10.185500 0.9552 0.0026
10.197000 0.9552 0.0024
10.208500 0.955 0.0022
10.220000 0.9552 0.0024
10.231500 0.955 0.0022
10.243000 0.955 0.0024
10.254500 0.9554 0.0026
10.266000 0.9552 0.0024
10.277500 0.955 0.0022
10.289000 0.9548 0.0022
10.300500 0.955 0.002
10.312000 0.9552 0.002
10.323500 0.9552 0.002
10.335000 0.9554 0.002
10.346500 0.955 0.002
10.358000 0.9556 0.0018
10.369500 0.9556 0.0022
10.381000 0.9556 0.0022
10.392500 0.956 0.0022
10.404000 0.956 0.0018
10.415500 0.9562 0.002
10.427000 0.9562 0.002
10.438500 0.9566 0.0018
10.450000 0.9568 0.0018
10.461500 0.9568 0.0016
10.473000 0.9568 0.0016
10.484500 0.9572 0.0016
10.496000 0.9576 0.0016
10.507500 0.9574 0.0018
10.519000 0.957 0.0018
10.530500 0.957 0.002
10.542000 0.9568 0.0022
10.553500 0.9568 0.002
10.565000 0.9566 0.002
10.576500 0.9562 0.0018
10.588000 0.956 0.0022
10.599500 0.9558 0.0018
10.611000 0.9558 0.0018
10.622500 0.9556 0.002
10.634000 0.9552 0.0018
10.645500 0.9556 0.002
10.657000 0.9552 0.0018
10.668500 0.9552 0.0022
10.680000 0.955 0.002
10.691500 0.9552 0.0022
10.703000 0.9548 0.002
10.714500 0.955 0.0018
10.726000 0.9546 0.002
10.737500 0.9548 0.0016
10.749000 0.955 0.0016
10.760500 0.9546 0.002
10.772000 0.955 0.0016
10.783500 0.955 0.002
10.795000 0.955 0.0016
10.806500 0.9552 0.0016
10.818000 0.955 0.0018
10.829500 0.9548 0.0018
10.841000 0.9552 0.002
10.852500 0.955 0.0016
10.864000 0.955 0.0016
10.875500 0.955 0.0016
10.887000 0.9556 0.0014
10.898500 0.9556 0.0016
10.910000 0.9558 0.0014
10.921500 0.9556 0.0016
10.933000 0.956 0.0012
10.944500 0.9564 0.0014
10.956000 0.9562 0.0012
10.967500 0.9568 0.001
10.979000 0.9568 0.0012
10.990500 0.957 0.0012
11.002000 0.9574 0.001
11.013500 0.9568 0.0014
11.025000 0.9568 0.0018
11.036500 0.9566 0.0014
11.048000 0.9564 0.0018
11.059500 0.9562 0.0012
11.071000 0.956 0.0012
11.082500 0.9552 0.0014
11.094000 0.9554 0.0014
11.105500 0.9554 0.0012
11.117000 0.9552 0.0016
11.128500 0.9552 0.0016
11.140000 0.9548 0.0012
11.151500 0.9548 0.0016
11.163000 0.9548 0.0014
11.174500 0.9548 0.0014
11.186000 0.9546 0.0014
11.197500 0.9548 0.0014
11.209000 0.9546 0.0014
11.220500 0.9544 0.0014
11.232000 0.9544 0.0014
11.243500 0.9544 0.001
11.255000 0.9546 0.0012
11.266500 0.9544 0.0012
11.278000 0.9546 0.0012
11.289500 0.955 0.0014
11.301000 0.9546 0.0014
11.312500 0.9544 0.001
11.324000 0.9546 0.0012
11.335500 0.955 0.001
11.347000 0.9548 0.0012
11.358500 0.955 0.0012
11.370000 0.9548 0.0012
11.381500 0.9556 0.0008
11.393000 0.9552 0.0008
11.404500 0.9554 0.0014
11.416000 0.9556 0.001
11.427500 0.9554 0.0006
11.439000 0.9556 0.0004
11.450500 0.9558 0.0008
11.462000 0.956 0.0004
11.473500 0.9566 0.0006
11.485000 0.9564 0.0008
11.496500 0.957 0.0002
11.508000 0.9568 0.0006
11.519500 0.9568 0.0002
11.531000 0.9564 0.0006
11.542500 0.9562 0.0008
11.554000 0.9558 0.0008
11.565500 0.9556 0.0006
11.577000 0.9558 0.0008
11.588500 0.9556 0.001
11.600000 0.9556 0.0008
11.611500 0.9554 0.0012
11.623000 0.9554 0.0008
11.634500 0.955 0.0006
11.646000 0.9552 0.001
11.657500 0.9548 0.0006
11.669000 0.9548 0.0008
11.680500 0.9546 0.0006
11.692000 0.9544 0.0008
11.703500 0.955 0.0008
11.715000 0.9546 0.0008
11.726500 0.9544 0.0008
11.738000 0.9548 0.0008
11.749500 0.9546 0.0004
11.761000 0.9548 0.0006
11.772500 0.9552 0.0008
11.784000 0.955 0.0006
11.795500 0.9548 0.0004
11.807000 0.9548 0.0004
11.818500 0.9552 0.0006
11.830000 0.9552 0.0002
11.841500 0.9552 0.0004
11.853000 0.9554 0.0002
11.864500 0.9556 0.0002
11.876000 0.9558 0.0002
11.887500 0.9556 0
11.899000 0.9562 -0.0002
11.910500 0.956 0.0002
11.922000 0.9566 0
11.933500 0.9566 -0.0002
11.945000 0.9568 -0.0006
11.956500 0.9568 0.0002
11.968000 0.9572 -0.0002
11.979500 0.9572 0.0002
11.991000 0.958 -0.0002
12.002500 0.9582 0
12.014000 0.9578 -0.0004
12.025500 0.9576 -0.0002
12.037000 0.9572 -0.0002
12.048500 0.957 -0.0002
12.060000 0.9572 0.0002
12.071500 0.957 0
12.083000 0.957 0.0002
12.094500 0.9566 0.0004
12.106000 0.9566 0
12.117500 0.956 0.0002
12.129000 0.956 0
12.140500 0.9558 -0.0002
12.152000 0.9558 0.0002
12.163500 0.9558 0
12.175000 0.956 0.0002
12.186500 0.9554 0.0002
12.198000 0.9558 0.0004
12.209500 0.9558 0
12.221000 0.9556 -0.0002
12.232500 0.956 0
12.244000 0.9556 -0.0002
12.255500 0.9556 0
12.267000 0.9556 0
12.278500 0.9558 0
12.290000 0.9558 -0.0004
12.301500 0.9558 0
12.313000 0.9558 -0.0006
12.324500 0.9558 -0.0002
12.336000 0.9558 -0.0002
12.347500 0.9558 0
12.359000 0.9562 -0.0002
12.370500 0.956 -0.0002
12.382000 0.9564 -0.0002
12.393500 0.9564 -0.0004
12.405000 0.9566 -0.0004
12.416500 0.9566 -0.0008
12.428000 0.9568 -0.0006
12.439500 0.957 -0.0006
12.451000 0.9574 -0.0004
12.462500 0.9576 -0.0006
12.474000 0.9578 -0.0008
12.485500 0.9578 -0.0006
12.497000 0.9582 -0.001
12.508500 0.9578 -0.0008
12.520000 0.9576 -0.0006
12.531500 0.9576 -0.0006
12.543000 0.9574 -0.0004
12.554500 0.9572 -0.0002
12.566000 0.9572 -0.0006
12.577500 0.9568 -0.0008
12.589000 0.9568 -0.0006
12.600500 0.957 -0.0004
12.612000 0.9568 -0.0006
12.623500 0.9566 -0.0008
12.635000 0.9564 -0.0006
12.646500 0.9564 -0.0008
12.658000 0.956 -0.0004
12.669500 0.956 -0.0006
12.681000 0.956 -0.0004
12.692500 0.956 -0.0002
12.704000 0.956 -0.0008
12.715500 0.956 -0.0006
12.727000 0.9558 -0.0006
12.738500 0.956 -0.0006
12.750000 0.9556 -0.0006
12.761500 0.956 -0.0004
12.773000 0.956 -0.0004
12.784500 0.9562 -0.0006
12.796000 0.9562 -0.001
12.807500 0.9562 -0.0008
12.819000 0.9562 -0.0008
12.830500 0.956 -0.001
12.842000 0.9564 -0.001
12.853500 0.9564 -0.001
12.865000 0.9564 -0.0008
12.876500 0.9566 -0.0006
12.888000 0.9578 -0.0024
12.899500 0.9572 -0.0012
12.911000 0.957 -0.001
12.922500 0.9576 -0.001
12.934000 0.9574 -0.0008
12.945500 0.9578 -0.0012
12.957000 0.9578 -0.0014
12.968500 0.958 -0.0012
12.980000 0.9582 -0.001
12.991500 0.9586 -0.001
13.003000 0.9588 -0.0012
13.014500 0.9584 -0.0014
13.026000 0.9582 -0.001
13.037500 0.958 -0.0008
13.049000 0.958 -0.0006
13.060500 0.9578 -0.001
13.072000 0.9578 -0.0012
13.083500 0.9576 -0.0008
13.095000 0.9574 -0.001
13.106500 0.957 -0.0006
13.118000 0.957 -0.0012
13.129500 0.957 -0.0006
13.141000 0.957 -0.0008
13.152500 0.9568 -0.0008
13.164000 0.9568 -0.0014
13.175500 0.957 -0.0008
13.187000 0.9566 -0.001
13.198500 0.9566 -0.0006
13.210000 0.9566 -0.001
13.221500 0.9566 -0.0006
13.233000 0.9564 -0.001
13.244500 0.9568 -0.001
13.256000 0.9564 -0.0008
13.267500 0.9568 -0.0008
13.279000 0.9564 -0.001
13.290500 0.9566 -0.0006
13.302000 0.9568 -0.001
13.313500 0.9572 -0.001
13.325000 0.9572 -0.001
13.336500 0.9574 -0.0012
13.348000 0.9572 -0.0014
13.359500 0.9574 -0.0008
13.371000 0.9574 -0.0012
13.382500 0.9572 -0.0012
13.394000 0.9574 -0.0012
13.405500 0.9576 -0.0014
13.417000 0.9582 -0.0012
13.428500 0.9582 -0.0012
13.440000 0.9582 -0.0012
13.451500 0.9586 -0.0012
13.463000 0.9586 -0.001
13.474500 0.9592 -0.0014
13.486000 0.9592 -0.0016
13.497500 0.9598 -0.0014
13.509000 0.9596 -0.0012
13.520500 0.9592 -0.0012
13.532000 0.959 -0.0016
13.543500 0.9588 -0.0012
13.555000 0.9588 -0.001
13.566500 0.9582 -0.001
13.578000 0.9584 -0.001
13.589500 0.958 -0.001
13.601000 0.958 -0.0008
13.612500 0.958 -0.0008
13.624000 0.958 -0.0008
13.635500 0.9576 -0.0006
13.647000 0.9578 -0.0008
13.658500 0.9578 -0.0008
13.670000 0.9576 -0.0006
13.681500 0.9576 -0.0006
13.693000 0.9572 -0.0006
13.704500 0.9576 -0.0008
13.716000 0.9572 -0.001
13.727500 0.9574 -0.0008
13.739000 0.9572 -0.0004
13.750500 0.9576 -0.0008
13.762000 0.9574 -0.0008
13.773500 0.9572 -0.0008
13.785000 0.9576 -0.0008
13.796500 0.9574 -0.0006
13.808000 0.9572 -0.001
13.819500 0.9576 -0.0006
13.831000 0.9574 -0.0008
13.842500 0.9578 -0.0006
13.854000 0.9578 -0.0008
13.865500 0.9582 -0.001
13.877000 0.958 -0.0012
13.888500 0.958 -0.0008
13.900000 0.9584 -0.001
13.911500 0.9586 -0.001
13.923000 0.9586 -0.0008
13.934500 0.9586 -0.001
13.946000 0.959 -0.0012
13.957500 0.959 -0.0008
13.969000 0.9594 -0.0012
13.980500 0.9598 -0.0014
13.992000 0.9596 -0.001
14.003500 0.96 -0.001
14.015000 0.9598 -0.0012
14.026500 0.9598 -0.0006
14.038000 0.9596 -0.0008
14.049500 0.9594 -0.0006
14.061000 0.9594 -0.0006
14.072500 0.9588 -0.0008
14.084000 0.9586 -0.0008
14.095500 0.959 -0.0006
14.107000 0.9586 -0.0002
14.118500 0.9584 -0.0008
14.130000 0.9582 -0.0004
14.141500 0.9582 -0.0004
14.153000 0.9584 -0.0002
14.164500 0.9578 -0.0006
14.176000 0.958 -0.0004
14.187500 0.958 -0.0004
14.199000 0.9584 -0.0006
14.210500 0.958 -0.0002
14.222000 0.958 -0.0004
14.233500 0.958 -0.0008
14.245000 0.9578 -0.0008
14.256500 0.958 -0.0006
14.268000 0.958 -0.0004
14.279500 0.9582 -0.0004
14.291000 0.9582 -0.0006
14.302500 0.9582 -0.001
14.314000 0.9584 -0.0008
14.325500 0.9584 -0.0008
14.337000 0.9584 -0.0004
14.348500 0.9586 -0.0006
14.360000 0.9588 -0.0006
14.371500 0.959 -0.0006
14.383000 0.9588 -0.0008
14.394500 0.959 -0.0004
14.406000 0.959 -0.0006
14.417500 0.9592 -0.0008
14.429000 0.9596 -0.0008
14.440500 0.9598 -0.0006
14.452000 0.9598 -0.0008
14.463500 0.9602 -0.001
14.475000 0.9604 -0.0006
14.486500 0.9604 -0.0008
14.498000 0.9614 -0.001
14.509500 0.9606 -0.0008
14.521000 0.9602 -0.0008
14.532500 0.9604 -0.0008
14.544000 0.9602 -0.0004
14.555500 0.9598 -0.0004
14.567000 0.96 -0.0004
14.578500 0.9594 -0.0002
14.590000 0.9596 -0.0004
14.601500 0.9592 -0.0004
14.613000 0.9592 -0.0002
14.624500 0.9592 -0.0004
14.636000 0.959 -0.0002
14.647500 0.959 -0.0002
14.659000 0.9586 -0.0002
14.670500 0.9586 0
14.682000 0.959 -0.0002
14.693500 0.9586 -0.0004
14.705000 0.9586 0.0002
14.716500 0.9584 0
14.728000 0.9588 -0.0002
14.739500 0.9584 0
14.751000 0.9584 -0.0002
14.762500 0.9584 -0.0002
14.774000 0.9586 -0.0002
14.785500 0.9586 -0.0002
14.797000 0.9584 -0.0002
14.808500 0.9586 0
14.820000 0.9588 -0.0004
14.831500 0.9588 0
14.843000 0.9588 -0.0004
14.854500 0.9586 -0.0002
14.866000 0.9592 -0.0002
14.877500 0.9594 -0.0004
14.889000 0.9592 -0.0004
14.900500 0.9594 -0.0002
14.912000 0.9598 0
14.923500 0.9594 -0.0002
14.935000 0.9602 0
14.946500 0.9602 -0.0004
14.958000 0.9604 -0.0004
14.969500 0.9604 -0.0002
14.981000 0.961 0
14.992500 0.9614 -0.0004
15.004000 0.9612 -0.0004
15.015500 0.9608 -0.0002
15.027000 0.9608 -0.0002
15.038500 0.9606 -0.0002
15.050000 0.9606 0
15.061500 0.9604 0
15.073000 0.96 0.0002
15.084500 0.9598 0
15.096000 0.9598 0.0002
15.107500 0.96 0.0002
15.119000 0.9596 0.0004
15.130500 0.9594 0.0002
15.142000 0.9596 0.0002
15.153500 0.959 0.0002
15.165000 0.9592 0.0002
15.176500 0.9592 0.0002
15.188000 0.9592 0.0004
15.199500 0.959 0.0004
15.211000 0.959 0.0006
15.222500 0.9588 0.0002
15.234000 0.959 0.0002
15.245500 0.9592 0.0004
15.257000 0.9586 0.0004
15.268500 0.959 0.0002
15.280000 0.9592 0.0002
15.291500 0.9592 0
15.303000 0.9594 0
15.314500 0.959 0
15.326000 0.9594 0
15.337500 0.9594 0.0002
15.349000 0.9598 0.0004
15.360500 0.9596 0
15.372000 0.9596 0
15.383500 0.9602 0.0002
15.395000 0.9602 0.0002
15.406500 0.96 0
15.418000 0.9604 0.0002
15.429500 0.9604 -0.0002
15.441000 0.9606 0
15.452500 0.9608 0.0002
15.464000 0.9612 -0.0002
15.475500 0.9612 0
15.487000 0.9616 0
15.498500 0.9616 0.0002
15.510000 0.9616 0.0002
15.521500 0.9618 0.0002
15.533000 0.9614 0.0002
15.544500 0.9608 0
15.556000 0.9606 0.0004
15.567500 0.9606 0.0006
15.579000 0.9602 0.0004
15.590500 0.9604 0.0004
15.602000 0.9602 0.0006
15.613500 0.96 0.0006
15.625000 0.9598 0.001
15.636500 0.9594 0.0004
15.648000 0.9598 0.0004
15.659500 0.9596 0.0008
15.671000 0.9596 0.0008
15.682500 0.9594 0.0008
15.694000 0.9594 0.001
15.705500 0.9594 0.001
15.717000 0.9594 0.0008
15.728500 0.9594 0.0004
15.740000 0.9592 0.001
15.751500 0.9594 0.001
15.763000 0.959 0.001
15.774500 0.9592 0.001
15.786000 0.9594 0.0012
15.797500 0.9594 0.001
15.809000 0.9594 0.0008
15.820500 0.9594 0.0008
15.832000 0.9594 0.001
15.843500 0.9596 0.0008
15.855000 0.9596 0.0008
15.866500 0.96 0.0008
15.878000 0.9598 0.0008
15.889500 0.96 0.001
15.901000 0.96 0.0006
15.912500 0.9604 0.0006
15.924000 0.9602 0.0008
15.935500 0.9606 0.0014
15.947000 0.9604 0.001
15.958500 0.9608 0.001
15.970000 0.9606 0.001
15.981500 0.9612 0.001
15.993000 0.9616 0.001
16.004500 0.9616 0.0014
16.016000 0.9614 0.001
16.027500 0.9608 0.0012
16.039000 0.961 0.0012
16.050500 0.9608 0.0014
16.062000 0.9604 0.0016
16.073500 0.9604 0.0012
16.085000 0.96 0.0014
16.096500 0.9598 0.0014
16.108000 0.9598 0.0012
16.119500 0.96 0.0014
16.131000 0.9596 0.0016
16.142500 0.9594 0.0016
16.154000 0.9594 0.0014
16.165500 0.9592 0.0014
16.177000 0.9592 0.0018
16.188500 0.9588 0.0018
16.200000 0.959 0.0018
16.211500 0.959 0.0018
16.223000 0.9588 0.0018
16.234500 0.959 0.0018
16.246000 0.9588 0.0018
16.257500 0.9586 0.0014
16.269000 0.9586 0.002
16.280500 0.9588 0.0016
16.292000 0.9588 0.0014
16.303500 0.9588 0.0018
16.315000 0.9586 0.0016
16.326500 0.9588 0.0018
16.338000 0.959 0.0018
16.349500 0.959 0.002
16.361000 0.959 0.002
16.372500 0.9592 0.0016
16.384000 0.959 0.0014
16.395500 0.9594 0.0018
16.407000 0.9596 0.0016
16.418500 0.9596 0.0016
16.430000 0.9598 0.0018
16.441500 0.9598 0.0014
16.453000 0.9602 0.0018
16.464500 0.96 0.0014
16.476000 0.9604 0.0016
16.487500 0.9604 0.0016
16.499000 0.9606 0.0014
16.510500 0.9604 0.0016
16.522000 0.96 0.0016
16.533500 0.9602 0.0018
16.545000 0.96 0.002
16.556500 0.9594 0.0018
16.568000 0.9598 0.0022
16.579500 0.9594 0.0018
16.591000 0.959 0.0022
16.602500 0.959 0.0016
16.614000 0.959 0.002
16.625500 0.9588 0.002
16.637000 0.9586 0.0022
16.648500 0.9588 0.0024
16.660000 0.9586 0.0024
16.671500 0.9582 0.002
16.683000 0.9584 0.0022
16.694500 0.958 0.0024
16.706000 0.9578 0.0022
16.717500 0.9582 0.0024
16.729000 0.9578 0.002
16.740500 0.958 0.0024
16.752000 0.9578 0.002
