! Touchstone file generated by AntScope2
# MHz Z RI R 50
! Format: Frequency Z-real Z-imaginary (normalized to 50 Ohm)
7.000000 1.413 -0.0054
7.011500 1.414 -0.0056
7.023000 1.414 -0.0058
7.034500 1.414 -0.0058
7.046000 1.415 -0.006
7.057500 1.416 -0.006
7.069000 1.416 -0.0062
7.080500 1.416 -0.006
7.092000 1.417 -0.006
7.103500 1.417 -0.0058
7.115000 1.418 -0.0062
7.126500 1.418 -0.0058
7.138000 1.419 -0.0062
7.149500 1.418 -0.0058
7.161000 1.419 -0.006
7.172500 1.419 -0.006
7.184000 1.42 -0.0056
7.195500 1.42 -0.0056
7.207000 1.419 -0.0056
7.218500 1.419 -0.006
7.230000 1.42 -0.0056
7.241500 1.419 -0.0054
7.253000 1.42 -0.0058
7.264500 1.42 -0.0054
7.276000 1.42 -0.0058
7.287500 1.42 -0.0054
7.299000 1.42 -0.0054
7.310500 1.42 -0.005
7.322000 1.419 -0.0058
7.333500 1.419 -0.0058
7.345000 1.419 -0.0054
7.356500 1.418 -0.0054
7.368000 1.418 -0.0054
7.379500 1.418 -0.006
7.391000 1.417 -0.0058
7.402500 1.417 -0.0054
7.414000 1.417 -0.0058
7.425500 1.417 -0.0062
7.437000 1.416 -0.006
7.448500 1.415 -0.0058
7.460000 1.415 -0.0064
7.471500 1.414 -0.0062
7.483000 1.413 -0.006
7.494500 1.413 -0.0066
7.506000 1.414 -0.0062
7.517500 1.413 -0.0066
7.529000 1.415 -0.0068
7.540500 1.415 -0.0064
7.552000 1.416 -0.0068
7.563500 1.416 -0.0066
7.575000 1.416 -0.0064
7.586500 1.417 -0.0068
7.598000 1.418 -0.0064
7.609500 1.418 -0.006
7.621000 1.418 -0.0062
7.632500 1.418 -0.0064
7.644000 1.418 -0.0062
7.655500 1.419 -0.0064
7.667000 1.419 -0.0064
7.678500 1.42 -0.0062
7.690000 1.419 -0.006
7.701500 1.42 -0.0062
7.713000 1.42 -0.0064
7.724500 1.42 -0.006
7.736000 1.42 -0.0058
7.747500 1.42 -0.0056
7.759000 1.42 -0.006
7.770500 1.419 -0.006
7.782000 1.42 -0.0064
7.793500 1.42 -0.006
7.805000 1.42 -0.006
7.816500 1.42 -0.0054
7.828000 1.419 -0.006
7.839500 1.419 -0.0058
7.851000 1.419 -0.0056
7.862500 1.419 -0.006
7.874000 1.418 -0.0058
7.885500 1.418 -0.0054
7.897000 1.417 -0.0064
7.908500 1.418 -0.0056
7.920000 1.417 -0.0058
7.931500 1.416 -0.006
7.943000 1.416 -0.0062
7.954500 1.415 -0.0062
7.966000 1.415 -0.0066
7.977500 1.414 -0.0062
7.989000 1.414 -0.0066
8.000500 1.413 -0.0064
8.012000 1.413 -0.0064
8.023500 1.415 -0.0068
8.035000 1.415 -0.0066
8.046500 1.416 -0.0064
8.058000 1.416 -0.0066
8.069500 1.416 -0.0076
8.081000 1.417 -0.0064
8.092500 1.417 -0.0068
8.104000 1.418 -0.0066
8.115500 1.418 -0.0062
8.127000 1.418 -0.0066
8.138500 1.419 -0.0062
8.150000 1.419 -0.0062
8.161500 1.419 -0.006
8.173000 1.42 -0.0062
8.184500 1.42 -0.0062
8.196000 1.419 -0.0058
8.207500 1.42 -0.0064
8.219000 1.42 -0.0062
8.230500 1.42 -0.006
8.242000 1.42 -0.0058
8.253500 1.42 -0.0054
8.265000 1.42 -0.0054
8.276500 1.42 -0.005
8.288000 1.42 -0.005
8.299500 1.419 -0.0054
8.311000 1.419 -0.0062
8.322500 1.419 -0.0054
8.334000 1.419 -0.0048
8.345500 1.418 -0.0056
8.357000 1.419 -0.0048
8.368500 1.418 -0.005
8.380000 1.418 -0.0052
8.391500 1.417 -0.0056
8.403000 1.417 -0.005
8.414500 1.416 -0.0052
8.426000 1.416 -0.0052
8.437500 1.415 -0.005
8.449000 1.416 -0.005
8.460500 1.414 -0.0052
8.472000 1.414 -0.0054
8.483500 1.413 -0.0052
8.495000 1.413 -0.0056
8.506500 1.412 -0.006
8.518000 1.414 -0.0052
8.529500 1.413 -0.0056
8.541000 1.415 -0.0058
8.552500 1.414 -0.006
8.564000 1.416 -0.0056
8.575500 1.415 -0.0058
8.587000 1.416 -0.0056
8.598500 1.417 -0.0066
8.610000 1.417 -0.0058
8.621500 1.417 -0.006
8.633000 1.417 -0.0064
8.644500 1.418 -0.0056
8.656000 1.418 -0.0054
8.667500 1.418 -0.0058
8.679000 1.419 -0.006
8.690500 1.419 -0.0056
8.702000 1.419 -0.0056
8.713500 1.42 -0.0054
8.725000 1.419 -0.0052
8.736500 1.419 -0.0056
8.748000 1.419 -0.0052
8.759500 1.419 -0.0056
8.771000 1.419 -0.0054
8.782500 1.419 -0.0056
8.794000 1.419 -0.0052
8.805500 1.419 -0.005
8.817000 1.419 -0.0056
8.828500 1.419 -0.0056
8.840000 1.418 -0.0052
8.851500 1.418 -0.0054
8.863000 1.418 -0.0054
8.874500 1.417 -0.005
8.886000 1.417 -0.0046
8.897500 1.416 -0.0052
8.909000 1.416 -0.0058
8.920500 1.416 -0.006
8.932000 1.415 -0.0056
8.943500 1.415 -0.0058
8.955000 1.414 -0.0054
8.966500 1.413 -0.0054
8.978000 1.413 -0.0054
8.989500 1.413 -0.0054
9.001000 1.412 -0.006
9.012500 1.412 -0.006
9.024000 1.413 -0.006
9.035500 1.414 -0.0054
9.047000 1.415 -0.0062
9.058500 1.415 -0.0062
9.070000 1.416 -0.0064
9.081500 1.416 -0.006
9.093000 1.417 -0.006
9.104500 1.416 -0.0058
9.116000 1.417 -0.0058
9.127500 1.417 -0.0056
9.139000 1.418 -0.0056
9.150500 1.418 -0.006
9.162000 1.418 -0.0058
9.173500 1.418 -0.0056
9.185000 1.418 -0.0058
9.196500 1.418 -0.0056
9.208000 1.419 -0.0056
9.219500 1.419 -0.0056
9.231000 1.419 -0.0056
9.242500 1.419 -0.0054
9.254000 1.419 -0.0054
9.265500 1.419 -0.0054
9.277000 1.419 -0.0054
9.288500 1.419 -0.0056
9.300000 1.419 -0.0054
9.311500 1.419 -0.0056
9.323000 1.418 -0.0056
9.334500 1.418 -0.0056
9.346000 1.418 -0.0052
9.357500 1.417 -0.0054
9.369000 1.417 -0.0054
9.380500 1.417 -0.005
9.392000 1.417 -0.0056
9.403500 1.416 -0.0054
9.415000 1.416 -0.0054
9.426500 1.415 -0.0054
9.438000 1.415 -0.0058
9.449500 1.414 -0.0054
9.461000 1.414 -0.0058
9.472500 1.413 -0.0058
9.484000 1.413 -0.0058
9.495500 1.412 -0.0062
9.507000 1.412 -0.0062
9.518500 1.413 -0.006
9.530000 1.413 -0.0062
9.541500 1.414 -0.0064
9.553000 1.414 -0.0062
9.564500 1.415 -0.0066
9.576000 1.415 -0.006
9.587500 1.415 -0.0062
9.599000 1.416 -0.0058
9.610500 1.416 -0.0058
9.622000 1.417 -0.006
9.633500 1.417 -0.0058
9.645000 1.417 -0.0064
9.656500 1.418 -0.0062
9.668000 1.417 -0.0056
9.679500 1.418 -0.0026
9.691000 1.418 -0.006
9.702500 1.418 -0.0058
9.714000 1.417 -0.0056
9.725500 1.418 -0.0054
9.737000 1.418 -0.0058
9.748500 1.418 -0.0054
9.760000 1.418 -0.0054
9.771500 1.418 -0.0058
9.783000 1.418 -0.005
9.794500 1.418 -0.0054
9.806000 1.417 -0.0054
9.817500 1.417 -0.0056
9.829000 1.417 -0.0056
9.840500 1.417 -0.0052
9.852000 1.416 -0.0052
9.863500 1.416 -0.0052
9.875000 1.416 -0.0054
9.886500 1.415 -0.0056
9.898000 1.415 -0.0058
9.909500 1.414 -0.0058
9.921000 1.414 -0.006
9.932500 1.414 -0.006
9.944000 1.412 -0.0054
9.955500 1.413 -0.006
9.967000 1.412 -0.006
9.978500 1.411 -0.0066
9.990000 1.411 -0.0062
10.001500 1.41 -0.0066
10.013000 1.411 -0.0066
10.024500 1.411 -0.0068
10.036000 1.412 -0.0068
10.047500 1.412 -0.0072
10.059000 1.413 -0.007
10.070500 1.413 -0.0068
10.082000 1.414 -0.007
10.093500 1.414 -0.0072
10.105000 1.414 -0.0068
10.116500 1.415 -0.007
10.128000 1.416 -0.007
10.139500 1.416 -0.007
10.151000 1.416 -0.007
10.162500 1.416 -0.007
10.174000 1.417 -0.0066
10.185500 1.416 -0.0066
10.197000 1.416 -0.0072
10.208500 1.417 -0.007
10.220000 1.417 -0.0066
10.231500 1.417 -0.0068
10.243000 1.417 -0.0068
10.254500 1.417 -0.0068
10.266000 1.417 -0.0068
10.277500 1.417 -0.0062
10.289000 1.416 -0.007
10.300500 1.416 -0.0068
10.312000 1.417 -0.0064
10.323500 1.416 -0.0068
10.335000 1.416 -0.0068
10.346500 1.416 -0.007
10.358000 1.416 -0.0064
10.369500 1.415 -0.007
10.381000 1.415 -0.0066
10.392500 1.415 -0.0066
10.404000 1.414 -0.007
10.415500 1.414 -0.0072
10.427000 1.412 -0.0072
10.438500 1.413 -0.007
10.450000 1.412 -0.0072
10.461500 1.412 -0.0076
10.473000 1.411 -0.0072
10.484500 1.411 -0.0074
10.496000 1.41 -0.008
10.507500 1.41 -0.0082
10.519000 1.411 -0.008
10.530500 1.411 -0.0078
10.542000 1.412 -0.0082
10.553500 1.412 -0.0078
10.565000 1.413 -0.0082
10.576500 1.413 -0.0082
10.588000 1.414 -0.0084
10.599500 1.414 -0.0088
10.611000 1.414 -0.0088
10.622500 1.415 -0.0082
10.634000 1.414 -0.0086
10.645500 1.415 -0.0084
10.657000 1.416 -0.0088
10.668500 1.416 -0.0082
10.680000 1.416 -0.0082
10.691500 1.416 -0.0086
10.703000 1.416 -0.0084
10.714500 1.416 -0.0084
10.726000 1.416 -0.0084
10.737500 1.417 -0.0088
10.749000 1.417 -0.0088
10.760500 1.416 -0.0082
10.772000 1.416 -0.0084
10.783500 1.416 -0.0082
10.795000 1.416 -0.0088
10.806500 1.416 -0.008
10.818000 1.416 -0.008
10.829500 1.415 -0.0082
10.841000 1.415 -0.0084
10.852500 1.415 -0.0086
10.864000 1.415 -0.0088
10.875500 1.414 -0.0088
10.887000 1.414 -0.0082
10.898500 1.414 -0.009
10.910000 1.413 -0.0088
10.921500 1.412 -0.0092
10.933000 1.412 -0.0086
10.944500 1.412 -0.009
10.956000 1.411 -0.009
10.967500 1.41 -0.0092
10.979000 1.41 -0.0096
10.990500 1.41 -0.0098
11.002000 1.409 -0.01
11.013500 1.409 -0.0102
11.025000 1.41 -0.0098
11.036500 1.411 -0.0098
11.048000 1.411 -0.0098
11.059500 1.412 -0.01
11.071000 1.412 -0.0102
11.082500 1.412 -0.0098
11.094000 1.412 -0.01
11.105500 1.413 -0.0102
11.117000 1.414 -0.0106
11.128500 1.414 -0.0102
11.140000 1.414 -0.0102
11.151500 1.415 -0.0102
11.163000 1.415 -0.0104
11.174500 1.415 -0.0102
11.186000 1.415 -0.01
11.197500 1.415 -0.01
11.209000 1.415 -0.01
11.220500 1.415 -0.0098
11.232000 1.416 -0.0104
11.243500 1.416 -0.0098
11.255000 1.415 -0.01
11.266500 1.416 -0.01
11.278000 1.416 -0.0106
11.289500 1.416 -0.0102
11.301000 1.415 -0.0098
11.312500 1.415 -0.0104
11.324000 1.415 -0.0106
11.335500 1.415 -0.0102
11.347000 1.415 -0.0098
11.358500 1.414 -0.01
11.370000 1.414 -0.0098
11.381500 1.414 -0.0104
11.393000 1.413 -0.0106
11.404500 1.412 -0.0106
11.416000 1.412 -0.0102
11.427500 1.412 -0.0102
11.439000 1.411 -0.0106
11.450500 1.41 -0.0106
11.462000 1.41 -0.0106
11.473500 1.41 -0.011
11.485000 1.409 -0.0108
11.496500 1.408 -0.0112
11.508000 1.409 -0.0118
11.519500 1.409 -0.0112
11.531000 1.41 -0.0112
11.542500 1.411 -0.0114
11.554000 1.411 -0.0118
11.565500 1.412 -0.0118
11.577000 1.412 -0.0116
11.588500 1.413 -0.0126
11.600000 1.413 -0.0116
11.611500 1.414 -0.0116
11.623000 1.413 -0.0124
11.634500 1.414 -0.012
11.646000 1.415 -0.0124
11.657500 1.415 -0.0124
11.669000 1.415 -0.012
11.680500 1.416 -0.012
11.692000 1.416 -0.0118
11.703500 1.416 -0.0116
11.715000 1.416 -0.0122
11.726500 1.416 -0.012
11.738000 1.417 -0.012
11.749500 1.416 -0.012
11.761000 1.416 -0.0118
11.772500 1.416 -0.0116
11.784000 1.416 -0.0118
11.795500 1.417 -0.0118
11.807000 1.416 -0.0112
11.818500 1.416 -0.0118
11.830000 1.416 -0.012
11.841500 1.416 -0.0118
11.853000 1.416 -0.0116
11.864500 1.415 -0.0122
11.876000 1.415 -0.0122
11.887500 1.414 -0.012
11.899000 1.414 -0.012
11.910500 1.414 -0.012
11.922000 1.413 -0.012
11.933500 1.413 -0.012
11.945000 1.412 -0.0118
11.956500 1.412 -0.012
11.968000 1.411 -0.0124
11.979500 1.411 -0.0126
11.991000 1.41 -0.0124
12.002500 1.41 -0.0124
12.014000 1.41 -0.0126
12.025500 1.411 -0.0126
12.037000 1.411 -0.0126
12.048500 1.412 -0.013
12.060000 1.413 -0.013
12.071500 1.414 -0.0126
12.083000 1.414 -0.0134
12.094500 1.414 -0.0132
12.106000 1.415 -0.0136
12.117500 1.415 -0.013
12.129000 1.416 -0.0132
12.140500 1.416 -0.0134
12.152000 1.416 -0.013
12.163500 1.416 -0.0132
12.175000 1.416 -0.0128
12.186500 1.417 -0.013
12.198000 1.417 -0.0128
12.209500 1.417 -0.0136
12.221000 1.417 -0.0132
12.232500 1.417 -0.0134
12.244000 1.417 -0.0132
12.255500 1.417 -0.0132
12.267000 1.417 -0.0136
12.278500 1.417 -0.0134
12.290000 1.417 -0.0134
12.301500 1.417 -0.0132
12.313000 1.417 -0.0132
12.324500 1.417 -0.0132
12.336000 1.416 -0.0132
12.347500 1.416 -0.0132
12.359000 1.415 -0.0132
12.370500 1.416 -0.013
12.382000 1.415 -0.013
12.393500 1.415 -0.0136
12.405000 1.414 -0.0132
12.416500 1.414 -0.013
12.428000 1.413 -0.0134
12.439500 1.413 -0.0136
12.451000 1.413 -0.0134
12.462500 1.412 -0.013
12.474000 1.411 -0.0138
12.485500 1.411 -0.0136
12.497000 1.41 -0.0138
12.508500 1.41 -0.014
12.520000 1.411 -0.0136
12.531500 1.412 -0.0138
12.543000 1.412 -0.0142
12.554500 1.413 -0.014
12.566000 1.413 -0.0138
12.577500 1.414 -0.0142
12.589000 1.414 -0.0144
12.600500 1.415 -0.0144
12.612000 1.415 -0.0144
12.623500 1.416 -0.0142
12.635000 1.416 -0.0142
12.646500 1.416 -0.014
12.658000 1.417 -0.0142
12.669500 1.417 -0.0146
12.681000 1.417 -0.0146
12.692500 1.418 -0.014
12.704000 1.417 -0.0146
12.715500 1.418 -0.0146
12.727000 1.418 -0.014
12.738500 1.418 -0.0144
12.750000 1.418 -0.0144
12.761500 1.418 -0.0148
12.773000 1.418 -0.0146
12.784500 1.418 -0.0138
12.796000 1.418 -0.0144
12.807500 1.418 -0.0146
12.819000 1.418 -0.0144
12.830500 1.417 -0.0144
12.842000 1.417 -0.0142
12.853500 1.417 -0.0142
12.865000 1.417 -0.0142
12.876500 1.416 -0.0142
12.888000 1.415 -0.0144
12.899500 1.416 -0.0138
12.911000 1.415 -0.0142
12.922500 1.415 -0.0142
12.934000 1.414 -0.0142
12.945500 1.413 -0.0146
12.957000 1.413 -0.0148
12.968500 1.413 -0.0146
12.980000 1.412 -0.0146
12.991500 1.411 -0.015
13.003000 1.411 -0.0146
13.014500 1.412 -0.0148
13.026000 1.412 -0.0154
13.037500 1.413 -0.0152
13.049000 1.413 -0.015
13.060500 1.415 -0.0152
13.072000 1.415 -0.0152
13.083500 1.414 -0.0152
13.095000 1.416 -0.0154
13.106500 1.416 -0.0152
13.118000 1.416 -0.0154
13.129500 1.417 -0.0156
13.141000 1.417 -0.0154
13.152500 1.417 -0.0154
13.164000 1.417 -0.0154
13.175500 1.418 -0.0156
13.187000 1.418 -0.015
13.198500 1.418 -0.0156
13.210000 1.418 -0.0152
13.221500 1.418 -0.0154
13.233000 1.419 -0.0152
13.244500 1.419 -0.0152
13.256000 1.419 -0.0152
13.267500 1.419 -0.0148
13.279000 1.419 -0.015
13.290500 1.418 -0.015
13.302000 1.419 -0.0148
13.313500 1.418 -0.0148
13.325000 1.418 -0.0146
13.336500 1.418 -0.0148
13.348000 1.417 -0.0146
13.359500 1.417 -0.0152
13.371000 1.417 -0.0148
13.382500 1.417 -0.0148
13.394000 1.417 -0.0148
13.405500 1.416 -0.0152
13.417000 1.416 -0.0146
13.428500 1.415 -0.0146
13.440000 1.415 -0.0152
13.451500 1.415 -0.015
13.463000 1.414 -0.0152
13.474500 1.414 -0.015
13.486000 1.413 -0.015
13.497500 1.412 -0.0144
13.509000 1.412 -0.0152
13.520500 1.413 -0.0148
13.532000 1.414 -0.0156
13.543500 1.414 -0.0158
13.555000 1.415 -0.0156
13.566500 1.415 -0.0152
13.578000 1.416 -0.0158
13.589500 1.416 -0.0154
13.601000 1.417 -0.016
13.612500 1.417 -0.016
13.624000 1.417 -0.0156
13.635500 1.418 -0.0154
13.647000 1.418 -0.0156
13.658500 1.418 -0.016
13.670000 1.418 -0.0158
13.681500 1.418 -0.0152
13.693000 1.418 -0.0152
13.704500 1.419 -0.0146
13.716000 1.419 -0.0152
13.727500 1.42 -0.0156
13.739000 1.42 -0.0156
13.750500 1.419 -0.0154
13.762000 1.42 -0.0154
13.773500 1.419 -0.0154
13.785000 1.419 -0.015
13.796500 1.419 -0.015
13.808000 1.419 -0.0148
13.819500 1.419 -0.015
13.831000 1.419 -0.0148
13.842500 1.418 -0.0152
13.854000 1.418 -0.0152
13.865500 1.417 -0.015
13.877000 1.417 -0.0148
13.888500 1.417 -0.015
13.900000 1.416 -0.0146
13.911500 1.417 -0.0148
13.923000 1.416 -0.015
13.934500 1.416 -0.0146
13.946000 1.415 -0.0152
13.957500 1.415 -0.015
13.969000 1.414 -0.0148
13.980500 1.414 -0.0148
13.992000 1.413 -0.0156
14.003500 1.412 -0.0152
14.015000 1.413 -0.0154
14.026500 1.414 -0.0154
14.038000 1.414 -0.0156
14.049500 1.415 -0.0156
14.061000 1.415 -0.015
14.072500 1.416 -0.0156
14.084000 1.416 -0.0154
14.095500 1.417 -0.0158
14.107000 1.417 -0.0158
14.118500 1.418 -0.0152
14.130000 1.418 -0.0156
14.141500 1.418 -0.0158
14.153000 1.418 -0.0156
14.164500 1.419 -0.0156
14.176000 1.419 -0.0154
14.187500 1.419 -0.0148
14.199000 1.42 -0.0156
14.210500 1.419 -0.0152
14.222000 1.419 -0.0154
14.233500 1.419 -0.0154
14.245000 1.42 -0.0158
14.256500 1.42 -0.0156
14.268000 1.42 -0.0154
14.279500 1.42 -0.0154
14.291000 1.419 -0.015
14.302500 1.419 -0.0154
14.314000 1.42 -0.0144
14.325500 1.419 -0.0152
14.337000 1.419 -0.0152
14.348500 1.418 -0.0152
14.360000 1.418 -0.015
14.371500 1.419 -0.0148
14.383000 1.418 -0.0152
14.394500 1.417 -0.0156
14.406000 1.417 -0.015
14.417500 1.416 -0.0152
14.429000 1.416 -0.0156
14.440500 1.416 -0.0152
14.452000 1.416 -0.0152
14.463500 1.415 -0.0156
14.475000 1.414 -0.0154
14.486500 1.414 -0.0152
14.498000 1.413 -0.0158
14.509500 1.414 -0.0166
14.521000 1.414 -0.0156
14.532500 1.415 -0.015
14.544000 1.415 -0.0162
14.555500 1.416 -0.0158
14.567000 1.417 -0.0164
14.578500 1.417 -0.0164
14.590000 1.417 -0.016
14.601500 1.418 -0.0164
14.613000 1.418 -0.0158
14.624500 1.419 -0.016
14.636000 1.419 -0.0166
14.647500 1.419 -0.016
14.659000 1.42 -0.0158
14.670500 1.42 -0.016
14.682000 1.42 -0.0154
14.693500 1.42 -0.0154
14.705000 1.42 -0.0156
14.716500 1.421 -0.0156
14.728000 1.421 -0.0156
14.739500 1.42 -0.0156
14.751000 1.421 -0.0162
14.762500 1.421 -0.0154
14.774000 1.42 -0.0158
14.785500 1.42 -0.0154
14.797000 1.421 -0.0158
14.808500 1.42 -0.016
14.820000 1.42 -0.0156
14.831500 1.42 -0.0152
14.843000 1.42 -0.0156
14.854500 1.419 -0.0152
14.866000 1.419 -0.0156
14.877500 1.419 -0.0154
14.889000 1.419 -0.0156
14.900500 1.418 -0.0156
14.912000 1.418 -0.0156
14.923500 1.418 -0.0154
14.935000 1.417 -0.0156
14.946500 1.416 -0.0156
14.958000 1.416 -0.0156
14.969500 1.415 -0.0158
14.981000 1.415 -0.0156
14.992500 1.414 -0.0162
15.004000 1.414 -0.0158
15.015500 1.415 -0.0156
15.027000 1.415 -0.016
15.038500 1.416 -0.0162
15.050000 1.417 -0.016
15.061500 1.417 -0.0156
15.073000 1.418 -0.0158
15.084500 1.418 -0.0164
15.096000 1.418 -0.016
15.107500 1.419 -0.0162
15.119000 1.419 -0.0158
15.130500 1.42 -0.016
15.142000 1.42 -0.0158
15.153500 1.421 -0.0154
15.165000 1.421 -0.0156
15.176500 1.421 -0.0162
15.188000 1.421 -0.0162
15.199500 1.421 -0.016
15.211000 1.422 -0.016
15.222500 1.421 -0.0158
15.234000 1.421 -0.016
15.245500 1.422 -0.0158
15.257000 1.422 -0.0158
15.268500 1.421 -0.0156
15.280000 1.422 -0.0154
15.291500 1.421 -0.0154
15.303000 1.421 -0.0154
15.314500 1.421 -0.0154
15.326000 1.421 -0.0154
15.337500 1.421 -0.0152
15.349000 1.42 -0.0154
15.360500 1.42 -0.0152
15.372000 1.42 -0.0152
15.383500 1.42 -0.0152
15.395000 1.419 -0.0152
15.406500 1.419 -0.0154
15.418000 1.418 -0.0148
15.429500 1.418 -0.0154
15.441000 1.418 -0.0154
15.452500 1.417 -0.0158
15.464000 1.416 -0.015
15.475500 1.416 -0.0156
15.487000 1.416 -0.016
15.498500 1.415 -0.016
15.510000 1.415 -0.0164
15.521500 1.416 -0.0162
15.533000 1.417 -0.0162
15.544500 1.417 -0.0164
15.556000 1.417 -0.0158
15.567500 1.418 -0.016
15.579000 1.419 -0.0162
15.590500 1.419 -0.0158
15.602000 1.419 -0.0158
15.613500 1.42 -0.016
15.625000 1.419 -0.016
15.636500 1.42 -0.0158
15.648000 1.421 -0.0156
15.659500 1.421 -0.016
15.671000 1.421 -0.0154
15.682500 1.422 -0.0156
15.694000 1.422 -0.0156
15.705500 1.422 -0.0152
15.717000 1.422 -0.0154
15.728500 1.422 -0.0156
15.740000 1.422 -0.0158
15.751500 1.422 -0.015
15.763000 1.422 -0.015
15.774500 1.422 -0.0148
15.786000 1.422 -0.015
15.797500 1.422 -0.0154
15.809000 1.422 -0.0148
15.820500 1.422 -0.0148
15.832000 1.421 -0.0152
15.843500 1.42 -0.0146
15.855000 1.421 -0.0148
15.866500 1.421 -0.0142
15.878000 1.42 -0.0144
15.889500 1.42 -0.0144
15.901000 1.419 -0.015
15.912500 1.418 -0.0146
15.924000 1.418 -0.0138
15.935500 1.418 -0.014
15.947000 1.417 -0.0144
15.958500 1.417 -0.0146
15.970000 1.416 -0.014
15.981500 1.415 -0.0146
15.993000 1.415 -0.014
16.004500 1.415 -0.014
16.016000 1.415 -0.015
16.027500 1.416 -0.0146
16.039000 1.416 -0.0148
16.050500 1.418 -0.0146
16.062000 1.417 -0.0146
16.073500 1.418 -0.0148
16.085000 1.418 -0.015
16.096500 1.419 -0.0148
16.108000 1.419 -0.015
16.119500 1.419 -0.0152
16.131000 1.42 -0.0144
16.142500 1.42 -0.0144
16.154000 1.42 -0.0146
16.165500 1.42 -0.014
16.177000 1.421 -0.0144
16.188500 1.421 -0.0142
16.200000 1.421 -0.0144
16.211500 1.421 -0.0142
16.223000 1.421 -0.014
16.234500 1.421 -0.0144
16.246000 1.421 -0.0142
16.257500 1.421 -0.0148
16.269000 1.421 -0.014
16.280500 1.421 -0.0138
16.292000 1.421 -0.0136
16.303500 1.421 -0.0142
16.315000 1.42 -0.0136
16.326500 1.42 -0.0132
16.338000 1.42 -0.014
16.349500 1.42 -0.0134
16.361000 1.419 -0.014
16.372500 1.419 -0.014
16.384000 1.419 -0.0136
16.395500 1.418 -0.0144
16.407000 1.418 -0.014
16.418500 1.417 -0.0138
16.430000 1.417 -0.0138
16.441500 1.416 -0.0138
16.453000 1.416 -0.0134
16.464500 1.415 -0.0134
16.476000 1.414 -0.014
16.487500 1.414 -0.0144
16.499000 1.413 -0.0142
16.510500 1.414 -0.0142
16.522000 1.414 -0.014
16.533500 1.415 -0.0144
16.545000 1.415 -0.014
16.556500 1.416 -0.0146
16.568000 1.417 -0.0144
16.579500 1.417 -0.0142
16.591000 1.418 -0.0146
16.602500 1.417 -0.014
16.614000 1.418 -0.0142
16.625500 1.419 -0.015
16.637000 1.419 -0.0142
16.648500 1.419 -0.0142
16.660000 1.42 -0.0142
16.671500 1.42 -0.0142
16.683000 1.42 -0.0142
16.694500 1.42 -0.014
16.706000 1.42 -0.0142
16.717500 1.42 -0.0146
16.729000 1.42 -0.0146
16.740500 1.42 -0.014
16.752000 1.42 -0.014
16.763500 1.42 -0.0132
16.775000 1.42 -0.014
