! Touchstone file generated by AntScope2
# MHz Z RI R 50
! Format: Frequency Z-real Z-imaginary (normalized to 50 Ohm)
7.000000 1.807 -1.919
7.011500 1.84 -1.824
7.023000 1.874 -1.729
7.034500 1.911 -1.633
7.046000 1.949 -1.537
7.057500 1.988 -1.439
7.069000 2.03 -1.343
7.080500 2.074 -1.244
7.092000 2.121 -1.146
7.103500 2.17 -1.047
7.115000 2.221 -0.9464
7.126500 2.277 -0.8468
7.138000 2.332 -0.7464
7.149500 2.392 -0.6446
7.161000 2.455 -0.544
7.172500 2.521 -0.4424
7.184000 2.591 -0.3406
7.195500 2.664 -0.2382
7.207000 2.739 -0.1378
7.218500 2.818 -0.0338
7.230000 2.903 0.0676
7.241500 2.993 0.1694
7.253000 3.085 0.2714
7.264500 3.182 0.371
7.276000 3.285 0.472
7.287500 3.393 0.574
7.299000 3.505 0.6734
7.310500 3.625 0.771
7.322000 3.748 0.8698
7.333500 3.88 0.9666
7.345000 4.013 1.06
7.356500 4.164 1.153
7.368000 4.31 1.247
7.379500 4.472 1.333
7.391000 4.64 1.419
7.402500 4.813 1.503
7.414000 4.998 1.577
7.425500 5.191 1.659
7.437000 5.393 1.719
7.448500 5.607 1.777
7.460000 5.827 1.832
7.471500 6.057 1.876
7.483000 6.3 1.911
7.494500 6.551 1.932
7.506000 6.817 1.946
7.517500 7.092 1.946
7.529000 7.375 1.935
7.540500 7.665 1.893
7.552000 7.962 1.851
7.563500 8.262 1.778
7.575000 8.574 1.68
7.586500 8.906 1.563
7.598000 9.214 1.413
7.609500 9.535 1.248
7.621000 9.835 1.04
7.632500 10.16 0.8154
7.644000 10.45 0.5536
7.655500 10.75 0.271
7.667000 11.01 -0.037
7.678500 11.24 -0.3916
7.690000 11.46 -0.761
7.701500 11.63 -1.159
7.713000 11.79 -1.555
7.724500 11.89 -1.977
7.736000 11.97 -2.42
7.747500 12.01 -2.838
7.759000 12 -3.283
7.770500 11.96 -3.704
7.782000 11.9 -4.153
7.793500 11.76 -4.557
7.805000 11.63 -4.937
7.816500 11.46 -5.32
7.828000 11.27 -5.646
7.839500 11.04 -5.961
7.851000 10.78 -6.272
7.862500 10.51 -6.555
7.874000 10.27 -6.805
7.885500 10.02 -6.989
7.897000 9.726 -7.19
7.908500 9.451 -7.363
7.920000 9.158 -7.501
7.931500 8.888 -7.619
7.943000 8.614 -7.703
7.954500 8.343 -7.787
7.966000 8.096 -7.838
7.977500 7.839 -7.887
7.989000 7.594 -7.919
8.000500 7.369 -7.932
8.012000 7.156 -7.928
8.023500 6.928 -7.939
8.035000 6.721 -7.917
8.046500 6.537 -7.895
8.058000 6.344 -7.855
8.069500 6.148 -7.83
8.081000 5.989 -7.784
8.092500 5.846 -7.755
8.104000 5.718 -7.732
8.115500 5.548 -7.639
8.127000 5.405 -7.603
8.138500 5.291 -7.55
8.150000 5.156 -7.502
8.161500 5.011 -7.439
8.173000 4.934 -7.384
8.184500 4.826 -7.331
8.196000 4.735 -7.283
8.207500 4.633 -7.221
8.219000 4.554 -7.166
8.230500 4.47 -7.121
8.242000 4.387 -7.059
8.253500 4.311 -7.01
8.265000 4.245 -6.962
8.276500 4.168 -6.91
8.288000 4.102 -6.864
8.299500 4.039 -6.825
8.311000 3.966 -6.776
8.322500 3.908 -6.736
8.334000 3.844 -6.678
8.345500 3.779 -6.629
8.357000 3.726 -6.59
8.368500 3.675 -6.548
8.380000 3.618 -6.499
8.391500 3.571 -6.473
8.403000 3.522 -6.433
8.414500 3.473 -6.394
8.426000 3.437 -6.361
8.437500 3.384 -6.32
8.449000 3.344 -6.288
8.460500 3.298 -6.251
8.472000 3.253 -6.224
8.483500 3.209 -6.19
8.495000 3.166 -6.161
8.506500 3.124 -6.13
8.518000 3.078 -6.099
8.529500 3.032 -6.064
8.541000 2.992 -6.036
8.552500 2.957 -6.005
8.564000 2.909 -5.983
8.575500 2.874 -5.952
8.587000 2.827 -5.928
8.598500 2.784 -5.896
8.610000 2.744 -5.871
8.621500 2.7 -5.836
8.633000 2.657 -5.81
8.644500 2.612 -5.787
8.656000 2.573 -5.748
8.667500 2.535 -5.719
8.679000 2.493 -5.685
8.690500 2.454 -5.652
8.702000 2.414 -5.62
8.713500 2.369 -5.585
8.725000 2.327 -5.547
8.736500 2.292 -5.514
8.748000 2.253 -5.482
8.759500 2.213 -5.447
8.771000 2.178 -5.408
8.782500 2.145 -5.366
8.794000 2.102 -5.336
8.805500 2.066 -5.297
8.817000 2.033 -5.263
8.828500 1.995 -5.226
8.840000 1.956 -5.196
8.851500 1.923 -5.154
8.863000 1.892 -5.115
8.874500 1.853 -5.074
8.886000 1.82 -5.035
8.897500 1.787 -4.997
8.909000 1.758 -4.957
8.920500 1.729 -4.92
8.932000 1.697 -4.876
8.943500 1.669 -4.837
8.955000 1.639 -4.794
8.966500 1.609 -4.753
8.978000 1.584 -4.712
8.989500 1.56 -4.67
9.001000 1.529 -4.628
9.012500 1.506 -4.586
9.024000 1.48 -4.544
9.035500 1.455 -4.502
9.047000 1.431 -4.459
9.058500 1.407 -4.419
9.070000 1.386 -4.375
9.081500 1.364 -4.333
9.093000 1.343 -4.289
9.104500 1.321 -4.248
9.116000 1.304 -4.208
9.127500 1.283 -4.164
9.139000 1.264 -4.122
9.150500 1.246 -4.079
9.162000 1.23 -4.037
9.173500 1.21 -3.996
9.185000 1.194 -3.955
9.196500 1.178 -3.91
9.208000 1.163 -3.869
9.219500 1.149 -3.827
9.231000 1.135 -3.787
9.242500 1.12 -3.746
9.254000 1.105 -3.702
9.265500 1.095 -3.658
9.277000 1.081 -3.62
9.288500 1.068 -3.58
9.300000 1.057 -3.539
9.311500 1.046 -3.498
9.323000 1.035 -3.457
9.334500 1.024 -3.416
9.346000 1.015 -3.374
9.357500 1.004 -3.333
9.369000 0.9956 -3.293
9.380500 0.9858 -3.254
9.392000 0.9786 -3.213
9.403500 0.9676 -3.173
9.415000 0.9608 -3.133
9.426500 0.9536 -3.094
9.438000 0.9462 -3.053
9.449500 0.9378 -3.014
9.461000 0.9302 -2.974
9.472500 0.9238 -2.935
9.484000 0.9176 -2.894
9.495500 0.9112 -2.856
9.507000 0.906 -2.817
9.518500 0.8996 -2.779
9.530000 0.8948 -2.739
9.541500 0.8896 -2.7
9.553000 0.8856 -2.662
9.564500 0.881 -2.622
9.576000 0.8752 -2.583
9.587500 0.8716 -2.545
9.599000 0.8676 -2.506
9.610500 0.8642 -2.466
9.622000 0.8592 -2.427
9.633500 0.8568 -2.388
9.645000 0.8538 -2.349
9.656500 0.851 -2.31
9.668000 0.8476 -2.272
9.679500 0.8456 -2.233
9.691000 0.8434 -2.195
9.702500 0.8406 -2.157
9.714000 0.84 -2.117
9.725500 0.8378 -2.078
9.737000 0.8364 -2.038
9.748500 0.8356 -2
9.760000 0.8348 -1.961
9.771500 0.8342 -1.923
9.783000 0.8338 -1.885
9.794500 0.834 -1.844
9.806000 0.8328 -1.806
9.817500 0.8326 -1.767
9.829000 0.8332 -1.727
9.840500 0.8342 -1.688
9.852000 0.835 -1.65
9.863500 0.8354 -1.611
9.875000 0.8362 -1.572
9.886500 0.837 -1.532
9.898000 0.8388 -1.494
9.909500 0.84 -1.454
9.921000 0.8418 -1.414
9.932500 0.8436 -1.375
9.944000 0.846 -1.334
9.955500 0.8478 -1.295
9.967000 0.8498 -1.255
9.978500 0.8526 -1.215
9.990000 0.8548 -1.174
10.001500 0.8574 -1.134
10.013000 0.8604 -1.094
10.024500 0.8634 -1.053
10.036000 0.8662 -1.011
10.047500 0.8696 -0.9704
10.059000 0.8726 -0.929
10.070500 0.8768 -0.8874
10.082000 0.88 -0.846
10.093500 0.884 -0.8038
10.105000 0.8882 -0.7618
10.116500 0.8922 -0.7192
10.128000 0.8968 -0.6764
10.139500 0.9014 -0.6334
10.151000 0.9058 -0.5902
10.162500 0.9108 -0.547
10.174000 0.9162 -0.5032
10.185500 0.9212 -0.4592
10.197000 0.9268 -0.4154
10.208500 0.9324 -0.3704
10.220000 0.9386 -0.3256
10.231500 0.9442 -0.2802
10.243000 0.9506 -0.2356
10.254500 0.9572 -0.1898
10.266000 0.9646 -0.1442
10.277500 0.971 -0.097
10.289000 0.978 -0.0508
10.300500 0.986 -0.0036
10.312000 0.9938 0.0436
10.323500 1.002 0.0914
10.335000 1.01 0.1394
10.346500 1.019 0.1878
10.358000 1.028 0.2366
10.369500 1.037 0.2856
10.381000 1.047 0.3352
10.392500 1.057 0.3854
10.404000 1.067 0.4352
10.415500 1.077 0.4864
10.427000 1.089 0.5382
10.438500 1.1 0.59
10.450000 1.112 0.6424
10.461500 1.124 0.6952
10.473000 1.137 0.749
10.484500 1.15 0.8026
10.496000 1.164 0.8578
10.507500 1.179 0.9122
10.519000 1.194 0.9684
10.530500 1.209 1.025
10.542000 1.225 1.082
10.553500 1.241 1.139
10.565000 1.258 1.197
10.576500 1.276 1.256
10.588000 1.294 1.315
10.599500 1.313 1.377
10.611000 1.333 1.437
10.622500 1.353 1.499
10.634000 1.374 1.561
10.645500 1.396 1.624
10.657000 1.418 1.688
10.668500 1.441 1.752
10.680000 1.465 1.818
10.691500 1.491 1.885
10.703000 1.516 1.952
10.714500 1.542 2.022
10.726000 1.569 2.089
10.737500 1.599 2.161
10.749000 1.628 2.232
10.760500 1.658 2.303
10.772000 1.689 2.376
10.783500 1.724 2.451
10.795000 1.757 2.527
10.806500 1.793 2.603
10.818000 1.829 2.68
10.829500 1.868 2.76
10.841000 1.908 2.841
10.852500 1.948 2.921
10.864000 1.991 3.005
10.875500 2.034 3.09
10.887000 2.08 3.174
10.898500 2.131 3.261
10.910000 2.179 3.351
10.921500 2.232 3.441
10.933000 2.288 3.527
10.944500 2.341 3.624
10.956000 2.401 3.718
10.967500 2.463 3.812
10.979000 2.527 3.909
10.990500 2.595 4.006
11.002000 2.664 4.105
11.013500 2.738 4.211
11.025000 2.814 4.314
11.036500 2.889 4.417
11.048000 2.973 4.521
11.059500 3.061 4.632
11.071000 3.15 4.737
11.082500 3.246 4.847
11.094000 3.345 4.958
11.105500 3.448 5.073
11.117000 3.558 5.183
11.128500 3.67 5.302
11.140000 3.783 5.411
11.151500 3.911 5.533
11.163000 4.044 5.652
11.174500 4.179 5.769
11.186000 4.314 5.885
11.197500 4.468 6.006
11.209000 4.62 6.126
11.220500 4.783 6.243
11.232000 4.951 6.367
11.243500 5.13 6.487
11.255000 5.327 6.606
11.266500 5.505 6.731
11.278000 5.714 6.852
11.289500 5.925 6.967
11.301000 6.145 7.074
11.312500 6.379 7.189
11.324000 6.614 7.305
11.335500 6.88 7.394
11.347000 7.14 7.498
11.358500 7.415 7.596
11.370000 7.687 7.676
11.381500 8.007 7.758
11.393000 8.306 7.828
11.404500 8.652 7.902
11.416000 8.976 7.948
11.427500 9.315 7.99
11.439000 9.698 8.031
11.450500 10.07 8.049
11.462000 10.44 8.034
11.473500 10.86 8.003
11.485000 11.28 7.995
11.496500 11.7 7.941
11.508000 12.13 7.86
11.519500 12.62 7.788
11.531000 13.01 7.659
11.542500 13.48 7.486
11.554000 13.95 7.326
11.565500 14.44 7.105
11.577000 14.87 6.887
11.588500 15.35 6.611
11.600000 15.85 6.3
11.611500 16.27 5.976
11.623000 16.72 5.616
11.634500 17.15 5.208
11.646000 17.55 4.753
11.657500 17.9 4.291
11.669000 18.31 3.807
11.680500 18.66 3.298
11.692000 18.92 2.703
11.703500 19.2 2.121
11.715000 19.39 1.534
11.726500 19.6 0.8708
11.738000 19.8 0.2658
11.749500 19.87 -0.3826
11.761000 19.91 -1.036
11.772500 19.98 -1.706
11.784000 19.92 -2.314
11.795500 19.86 -3
11.807000 19.78 -3.587
11.818500 19.54 -4.203
11.830000 19.36 -4.79
11.841500 19.07 -5.475
11.853000 18.92 -5.979
11.864500 18.61 -6.476
11.876000 18.28 -6.958
11.887500 17.96 -7.44
11.899000 17.61 -7.853
11.910500 17.24 -8.24
11.922000 16.87 -8.68
11.933500 16.49 -8.993
11.945000 16.06 -9.328
11.956500 15.67 -9.579
11.968000 15.26 -9.851
11.979500 14.87 -10.11
11.991000 14.44 -10.29
12.002500 14.07 -10.47
12.014000 13.64 -10.63
12.025500 13.26 -10.75
12.037000 12.91 -10.89
12.048500 12.51 -10.99
12.060000 12.17 -11.06
12.071500 11.81 -11.11
12.083000 11.47 -11.19
12.094500 11.08 -11.16
12.106000 10.77 -11.18
12.117500 10.45 -11.24
12.129000 10.14 -11.22
12.140500 9.86 -11.19
12.152000 9.542 -11.18
12.163500 9.262 -11.13
12.175000 8.986 -11.11
12.186500 8.741 -11.05
12.198000 8.507 -11.02
12.209500 8.236 -10.97
12.221000 8.034 -10.92
12.232500 7.798 -10.86
12.244000 7.574 -10.79
12.255500 7.365 -10.73
12.267000 7.152 -10.66
12.278500 6.965 -10.56
12.290000 6.779 -10.49
12.301500 6.603 -10.42
12.313000 6.425 -10.33
12.324500 6.248 -10.27
12.336000 6.081 -10.17
12.347500 5.939 -10.1
12.359000 5.795 -10.02
12.370500 5.643 -9.929
12.382000 5.501 -9.854
12.393500 5.38 -9.757
12.405000 5.234 -9.677
12.416500 5.108 -9.593
12.428000 4.985 -9.503
12.439500 4.884 -9.418
12.451000 4.772 -9.338
12.462500 4.654 -9.267
12.474000 4.554 -9.171
12.485500 4.464 -9.088
12.497000 4.364 -9.017
12.508500 4.27 -8.934
12.520000 4.175 -8.844
12.531500 4.102 -8.766
12.543000 4.017 -8.681
12.554500 3.934 -8.605
12.566000 3.859 -8.52
12.577500 3.783 -8.442
12.589000 3.703 -8.366
12.600500 3.639 -8.302
12.612000 3.574 -8.228
12.623500 3.503 -8.144
12.635000 3.44 -8.072
12.646500 3.378 -7.992
12.658000 3.321 -7.917
12.669500 3.264 -7.851
12.681000 3.204 -7.766
12.692500 3.159 -7.704
12.704000 3.097 -7.634
12.715500 3.061 -7.567
12.727000 3.005 -7.493
12.738500 2.96 -7.434
12.750000 2.924 -7.352
12.761500 2.872 -7.283
12.773000 2.831 -7.228
12.784500 2.797 -7.156
12.796000 2.753 -7.081
12.807500 2.725 -7.026
12.819000 2.676 -6.978
12.830500 2.648 -6.896
12.842000 2.615 -6.832
12.853500 2.583 -6.774
12.865000 2.551 -6.711
12.876500 2.517 -6.646
12.888000 2.49 -6.585
12.899500 2.464 -6.526
12.911000 2.433 -6.47
12.922500 2.407 -6.411
12.934000 2.376 -6.351
12.945500 2.36 -6.297
12.957000 2.333 -6.237
12.968500 2.306 -6.183
12.980000 2.288 -6.127
12.991500 2.269 -6.074
13.003000 2.248 -6.017
13.014500 2.231 -5.963
13.026000 2.212 -5.908
13.037500 2.193 -5.857
13.049000 2.179 -5.803
13.060500 2.159 -5.751
13.072000 2.149 -5.701
13.083500 2.13 -5.645
13.095000 2.118 -5.593
13.106500 2.106 -5.545
13.118000 2.089 -5.49
13.129500 2.078 -5.445
13.141000 2.065 -5.395
13.152500 2.059 -5.343
13.164000 2.047 -5.295
13.175500 2.033 -5.244
13.187000 2.012 -5.207
13.198500 2.017 -5.151
13.210000 2.011 -5.1
13.221500 2.006 -5.056
13.233000 1.997 -5.007
13.244500 1.994 -4.96
13.256000 1.987 -4.917
13.267500 1.984 -4.87
13.279000 1.979 -4.824
13.290500 1.971 -4.778
13.302000 1.974 -4.731
13.313500 1.968 -4.687
13.325000 1.966 -4.645
13.336500 1.962 -4.598
13.348000 1.96 -4.556
13.359500 1.959 -4.511
13.371000 1.961 -4.47
13.382500 1.964 -4.426
13.394000 1.964 -4.385
13.405500 1.968 -4.34
13.417000 1.969 -4.299
13.428500 1.972 -4.257
13.440000 1.976 -4.213
13.451500 1.978 -4.173
13.463000 1.983 -4.132
13.474500 1.989 -4.091
13.486000 1.995 -4.051
13.497500 2 -4.009
13.509000 2.008 -3.968
13.520500 2.015 -3.927
13.532000 2.022 -3.888
13.543500 2.03 -3.847
13.555000 2.042 -3.809
13.566500 2.051 -3.772
13.578000 2.06 -3.729
13.589500 2.071 -3.693
13.601000 2.084 -3.653
13.612500 2.096 -3.614
13.624000 2.11 -3.572
13.635500 2.122 -3.537
13.647000 2.135 -3.501
13.658500 2.153 -3.464
13.670000 2.167 -3.427
13.681500 2.181 -3.387
13.693000 2.2 -3.35
13.704500 2.219 -3.315
13.716000 2.236 -3.279
13.727500 2.257 -3.244
13.739000 2.277 -3.207
13.750500 2.297 -3.172
13.762000 2.32 -3.138
13.773500 2.342 -3.102
13.785000 2.363 -3.065
13.796500 2.394 -3.033
13.808000 2.413 -3
13.819500 2.439 -2.968
13.831000 2.464 -2.935
13.842500 2.493 -2.903
13.854000 2.521 -2.87
13.865500 2.55 -2.837
13.877000 2.582 -2.809
13.888500 2.613 -2.776
13.900000 2.644 -2.747
13.911500 2.679 -2.72
13.923000 2.713 -2.692
13.934500 2.748 -2.663
13.946000 2.784 -2.635
13.957500 2.822 -2.61
13.969000 2.86 -2.584
13.980500 2.898 -2.559
13.992000 2.939 -2.534
14.003500 2.982 -2.515
14.015000 3.025 -2.491
14.026500 3.066 -2.471
14.038000 3.113 -2.452
14.049500 3.157 -2.434
14.061000 3.204 -2.419
14.072500 3.253 -2.399
14.084000 3.302 -2.385
14.095500 3.352 -2.37
14.107000 3.403 -2.361
14.118500 3.454 -2.351
14.130000 3.507 -2.341
14.141500 3.563 -2.337
14.153000 3.618 -2.331
14.164500 3.674 -2.33
14.176000 3.73 -2.328
14.187500 3.792 -2.332
14.199000 3.848 -2.34
14.210500 3.908 -2.345
14.222000 3.967 -2.354
14.233500 4.03 -2.364
14.245000 4.089 -2.38
14.256500 4.153 -2.397
14.268000 4.212 -2.421
14.279500 4.278 -2.441
14.291000 4.337 -2.471
14.302500 4.398 -2.497
14.314000 4.457 -2.531
14.325500 4.524 -2.569
14.337000 4.575 -2.605
14.348500 4.639 -2.653
14.360000 4.699 -2.696
14.371500 4.754 -2.747
14.383000 4.802 -2.801
14.394500 4.859 -2.858
14.406000 4.913 -2.917
14.417500 4.951 -2.979
14.429000 5.001 -3.047
14.440500 5.042 -3.111
14.452000 5.085 -3.187
14.463500 5.116 -3.262
14.475000 5.148 -3.339
14.486500 5.176 -3.419
14.498000 5.203 -3.502
14.509500 5.227 -3.586
14.521000 5.24 -3.676
14.532500 5.252 -3.763
14.544000 5.259 -3.857
14.555500 5.262 -3.941
14.567000 5.258 -4.029
14.578500 5.251 -4.128
14.590000 5.229 -4.216
14.601500 5.226 -4.304
14.613000 5.205 -4.398
14.624500 5.177 -4.481
14.636000 5.142 -4.567
14.647500 5.113 -4.652
14.659000 5.068 -4.739
14.670500 5.027 -4.818
14.682000 4.979 -4.9
14.693500 4.932 -4.973
14.705000 4.87 -5.04
14.716500 4.818 -5.116
14.728000 4.759 -5.182
14.739500 4.698 -5.241
14.751000 4.629 -5.303
14.762500 4.565 -5.363
14.774000 4.499 -5.416
14.785500 4.425 -5.459
14.797000 4.357 -5.506
14.808500 4.273 -5.552
14.820000 4.212 -5.588
14.831500 4.128 -5.617
14.843000 4.052 -5.656
14.854500 3.979 -5.678
14.866000 3.902 -5.708
14.877500 3.824 -5.727
14.889000 3.751 -5.749
14.900500 3.668 -5.759
14.912000 3.604 -5.774
14.923500 3.527 -5.779
14.935000 3.454 -5.788
14.946500 3.378 -5.792
14.958000 3.309 -5.789
14.969500 3.233 -5.796
14.981000 3.168 -5.786
14.992500 3.1 -5.785
15.004000 3.03 -5.776
15.015500 2.966 -5.768
15.027000 2.906 -5.758
15.038500 2.84 -5.743
15.050000 2.778 -5.732
15.061500 2.718 -5.717
15.073000 2.658 -5.701
15.084500 2.601 -5.681
15.096000 2.544 -5.657
15.107500 2.491 -5.641
15.119000 2.438 -5.616
15.130500 2.387 -5.6
15.142000 2.332 -5.573
15.153500 2.287 -5.547
15.165000 2.234 -5.525
15.176500 2.189 -5.502
15.188000 2.143 -5.475
15.199500 2.099 -5.445
15.211000 2.052 -5.416
15.222500 2.004 -5.404
15.234000 1.969 -5.362
15.245500 1.931 -5.336
15.257000 1.893 -5.305
15.268500 1.853 -5.276
15.280000 1.818 -5.247
15.291500 1.777 -5.219
15.303000 1.745 -5.188
15.314500 1.714 -5.159
15.326000 1.676 -5.132
15.337500 1.643 -5.101
15.349000 1.614 -5.07
15.360500 1.582 -5.037
15.372000 1.551 -5.009
15.383500 1.524 -4.977
15.395000 1.497 -4.946
15.406500 1.467 -4.91
15.418000 1.438 -4.882
15.429500 1.415 -4.854
15.441000 1.389 -4.82
15.452500 1.365 -4.787
15.464000 1.337 -4.759
15.475500 1.316 -4.729
15.487000 1.294 -4.697
15.498500 1.272 -4.665
15.510000 1.249 -4.635
15.521500 1.23 -4.604
15.533000 1.209 -4.574
15.544500 1.186 -4.542
15.556000 1.169 -4.512
15.567500 1.151 -4.482
15.579000 1.13 -4.451
15.590500 1.112 -4.419
15.602000 1.096 -4.392
15.613500 1.079 -4.361
15.625000 1.062 -4.329
15.636500 1.047 -4.301
15.648000 1.031 -4.271
15.659500 1.015 -4.239
15.671000 0.9982 -4.21
15.682500 0.9862 -4.183
15.694000 0.9728 -4.154
15.705500 0.9576 -4.124
15.717000 0.9442 -4.094
15.728500 0.932 -4.066
15.740000 0.9188 -4.036
15.751500 0.9046 -4.007
15.763000 0.8972 -3.976
15.774500 0.8836 -3.949
15.786000 0.8716 -3.92
15.797500 0.8602 -3.892
15.809000 0.85 -3.862
15.820500 0.8384 -3.833
15.832000 0.8282 -3.807
15.843500 0.8194 -3.777
15.855000 0.8084 -3.75
15.866500 0.801 -3.721
15.878000 0.7908 -3.693
15.889500 0.7806 -3.663
15.901000 0.7736 -3.637
15.912500 0.7652 -3.608
15.924000 0.7564 -3.58
15.935500 0.7482 -3.553
15.947000 0.74 -3.526
15.958500 0.7318 -3.496
15.970000 0.727 -3.471
15.981500 0.7188 -3.444
15.993000 0.7116 -3.414
16.004500 0.7042 -3.388
16.016000 0.6986 -3.36
16.027500 0.6908 -3.332
16.039000 0.6852 -3.305
16.050500 0.6788 -3.279
16.062000 0.6724 -3.252
16.073500 0.667 -3.224
16.085000 0.6616 -3.197
16.096500 0.6558 -3.171
16.108000 0.6496 -3.143
16.119500 0.6448 -3.118
16.131000 0.6412 -3.091
16.142500 0.6348 -3.063
16.154000 0.6306 -3.036
16.165500 0.6262 -3.01
16.177000 0.6226 -2.982
16.188500 0.6168 -2.956
16.200000 0.6126 -2.93
16.211500 0.6094 -2.902
16.223000 0.6052 -2.877
16.234500 0.6014 -2.851
16.246000 0.5986 -2.823
16.257500 0.5952 -2.797
16.269000 0.5908 -2.77
16.280500 0.588 -2.742
16.292000 0.5842 -2.716
16.303500 0.5814 -2.688
16.315000 0.5784 -2.663
16.326500 0.577 -2.636
16.338000 0.573 -2.608
16.349500 0.5696 -2.582
16.361000 0.568 -2.555
16.372500 0.5662 -2.528
16.384000 0.565 -2.501
16.395500 0.562 -2.474
16.407000 0.5598 -2.448
16.418500 0.5588 -2.42
16.430000 0.556 -2.393
16.441500 0.555 -2.367
16.453000 0.5538 -2.339
16.464500 0.5522 -2.312
16.476000 0.5504 -2.285
16.487500 0.5494 -2.257
16.499000 0.5484 -2.23
16.510500 0.5466 -2.203
16.522000 0.5468 -2.175
16.533500 0.5454 -2.147
16.545000 0.5448 -2.119
16.556500 0.544 -2.091
16.568000 0.5444 -2.063
16.579500 0.5434 -2.035
16.591000 0.5432 -2.008
16.602500 0.5426 -1.979
16.614000 0.5432 -1.951
16.625500 0.543 -1.922
16.637000 0.543 -1.894
16.648500 0.5432 -1.865
16.660000 0.5436 -1.836
16.671500 0.5438 -1.807
16.683000 0.544 -1.778
16.694500 0.5452 -1.749
16.706000 0.5456 -1.719
16.717500 0.5462 -1.69
16.729000 0.5476 -1.66
16.740500 0.5494 -1.629
16.752000 0.5502 -1.6
16.763500 0.5512 -1.569
16.775000 0.5534 -1.539
16.786500 0.5552 -1.508
16.798000 0.5566 -1.477
16.809500 0.5584 -1.446
16.821000 0.5602 -1.415
16.832500 0.5626 -1.384
16.844000 0.5646 -1.352
16.855500 0.568 -1.32
16.867000 0.5706 -1.288
16.878500 0.573 -1.255
16.890000 0.5754 -1.222
16.901500 0.5784 -1.189
16.913000 0.5808 -1.156
16.924500 0.5834 -1.122
16.936000 0.5866 -1.088
16.947500 0.5898 -1.054
16.959000 0.593 -1.02
16.970500 0.5968 -0.9852
16.982000 0.6006 -0.9502
16.993500 0.6042 -0.9146
17.005000 0.608 -0.879
17.016500 0.612 -0.8426
17.028000 0.6164 -0.8064
17.039500 0.6204 -0.7698
17.051000 0.625 -0.7326
17.062500 0.6296 -0.695
17.074000 0.6346 -0.6572
17.085500 0.6394 -0.6188
17.097000 0.6446 -0.5798
