! Touchstone file generated by AntScope2
# MHz Z RI R 50
! Format: Frequency Z-real Z-imaginary (normalized to 50 Ohm)
7.000000 1.809 -2.149
7.011500 1.836 -2.058
7.023000 1.864 -1.965
7.034500 1.894 -1.871
7.046000 1.925 -1.776
7.057500 1.96 -1.682
7.069000 1.996 -1.586
7.080500 2.035 -1.49
7.092000 2.074 -1.393
7.103500 2.118 -1.297
7.115000 2.162 -1.198
7.126500 2.21 -1.1
7.138000 2.261 -1.001
7.149500 2.313 -0.9016
7.161000 2.37 -0.801
7.172500 2.428 -0.7004
7.184000 2.489 -0.6002
7.195500 2.552 -0.4992
7.207000 2.62 -0.3982
7.218500 2.692 -0.297
7.230000 2.769 -0.1948
7.241500 2.845 -0.0938
7.253000 2.928 0.0074
7.264500 3.016 0.109
7.276000 3.103 0.2104
7.287500 3.202 0.3112
7.299000 3.303 0.4132
7.310500 3.411 0.5146
7.322000 3.518 0.615
7.333500 3.635 0.712
7.345000 3.76 0.8154
7.356500 3.884 0.911
7.368000 4.02 1.004
7.379500 4.164 1.105
7.391000 4.314 1.196
7.402500 4.464 1.287
7.414000 4.632 1.376
7.425500 4.802 1.465
7.437000 4.983 1.548
7.448500 5.176 1.627
7.460000 5.378 1.7
7.471500 5.589 1.767
7.483000 5.806 1.831
7.494500 6.038 1.885
7.506000 6.28 1.936
7.517500 6.538 1.972
7.529000 6.807 2.002
7.540500 7.08 2.016
7.552000 7.364 2.013
7.563500 7.661 2.003
7.575000 7.974 1.964
7.586500 8.298 1.923
7.598000 8.626 1.841
7.609500 8.959 1.744
7.621000 9.298 1.633
7.632500 9.634 1.466
7.644000 9.981 1.279
7.655500 10.33 1.078
7.667000 10.67 0.8284
7.678500 11 0.5336
7.690000 11.3 0.2336
7.701500 11.61 -0.1036
7.713000 11.88 -0.5012
7.724500 12.13 -0.8934
7.736000 12.37 -1.348
7.747500 12.54 -1.808
7.759000 12.66 -2.292
7.770500 12.74 -2.794
7.782000 12.79 -3.272
7.793500 12.82 -3.773
7.805000 12.76 -4.32
7.816500 12.67 -4.809
7.828000 12.52 -5.268
7.839500 12.36 -5.752
7.851000 12.13 -6.179
7.862500 11.88 -6.591
7.874000 11.59 -6.985
7.885500 11.29 -7.347
7.897000 11 -7.648
7.908500 10.62 -7.927
7.920000 10.31 -8.169
7.931500 9.929 -8.379
7.943000 9.59 -8.56
7.954500 9.267 -8.733
7.966000 8.903 -8.838
7.977500 8.576 -8.924
7.989000 8.234 -8.982
8.000500 7.926 -9.045
8.012000 7.617 -9.049
8.023500 7.315 -9.07
8.035000 7.017 -9.074
8.046500 6.761 -9.039
8.058000 6.503 -8.997
8.069500 6.248 -8.97
8.081000 6.001 -8.942
8.092500 5.773 -8.878
8.104000 5.574 -8.813
8.115500 5.38 -8.738
8.127000 5.183 -8.652
8.138500 4.995 -8.567
8.150000 4.823 -8.495
8.161500 4.642 -8.4
8.173000 4.517 -8.327
8.184500 4.381 -8.237
8.196000 4.236 -8.147
8.207500 4.116 -8.05
8.219000 3.99 -7.961
8.230500 3.867 -7.877
8.242000 3.767 -7.793
8.253500 3.661 -7.694
8.265000 3.565 -7.605
8.276500 3.476 -7.521
8.288000 3.394 -7.427
8.299500 3.317 -7.35
8.311000 3.236 -7.27
8.322500 3.171 -7.181
8.334000 3.098 -7.1
8.345500 3.042 -7.013
8.357000 2.981 -6.931
8.368500 2.922 -6.864
8.380000 2.866 -6.785
8.391500 2.815 -6.707
8.403000 2.773 -6.637
8.414500 2.728 -6.56
8.426000 2.688 -6.489
8.437500 2.642 -6.42
8.449000 2.605 -6.356
8.460500 2.568 -6.286
8.472000 2.543 -6.22
8.483500 2.501 -6.16
8.495000 2.478 -6.092
8.506500 2.453 -6.034
8.518000 2.422 -5.974
8.529500 2.394 -5.919
8.541000 2.372 -5.856
8.552500 2.35 -5.802
8.564000 2.33 -5.742
8.575500 2.309 -5.693
8.587000 2.292 -5.646
8.598500 2.272 -5.596
8.610000 2.253 -5.551
8.621500 2.238 -5.499
8.633000 2.221 -5.454
8.644500 2.207 -5.408
8.656000 2.194 -5.369
8.667500 2.176 -5.323
8.679000 2.166 -5.284
8.690500 2.154 -5.242
8.702000 2.145 -5.204
8.713500 2.13 -5.166
8.725000 2.115 -5.129
8.736500 2.106 -5.092
8.748000 2.092 -5.064
8.759500 2.083 -5.026
8.771000 2.073 -4.994
8.782500 2.066 -4.955
8.794000 2.048 -4.93
8.805500 2.036 -4.903
8.817000 2.022 -4.874
8.828500 2.01 -4.845
8.840000 2 -4.813
8.851500 1.989 -4.787
8.863000 1.973 -4.763
8.874500 1.962 -4.737
8.886000 1.948 -4.712
8.897500 1.93 -4.689
8.909000 1.918 -4.663
8.920500 1.9 -4.638
8.932000 1.887 -4.615
8.943500 1.87 -4.589
8.955000 1.852 -4.567
8.966500 1.833 -4.545
8.978000 1.82 -4.519
8.989500 1.802 -4.496
9.001000 1.783 -4.473
9.012500 1.764 -4.448
9.024000 1.745 -4.423
9.035500 1.726 -4.399
9.047000 1.703 -4.375
9.058500 1.689 -4.35
9.070000 1.665 -4.324
9.081500 1.644 -4.295
9.093000 1.623 -4.272
9.104500 1.6 -4.247
9.116000 1.582 -4.218
9.127500 1.562 -4.189
9.139000 1.541 -4.163
9.150500 1.521 -4.134
9.162000 1.503 -4.106
9.173500 1.48 -4.076
9.185000 1.46 -4.048
9.196500 1.441 -4.016
9.208000 1.422 -3.986
9.219500 1.4 -3.954
9.231000 1.382 -3.923
9.242500 1.364 -3.893
9.254000 1.344 -3.863
9.265500 1.323 -3.827
9.277000 1.309 -3.797
9.288500 1.29 -3.762
9.300000 1.27 -3.733
9.311500 1.255 -3.698
9.323000 1.237 -3.664
9.334500 1.224 -3.631
9.346000 1.206 -3.596
9.357500 1.191 -3.562
9.369000 1.174 -3.526
9.380500 1.159 -3.493
9.392000 1.144 -3.458
9.403500 1.131 -3.423
9.415000 1.118 -3.387
9.426500 1.103 -3.352
9.438000 1.091 -3.315
9.449500 1.078 -3.281
9.461000 1.064 -3.245
9.472500 1.054 -3.209
9.484000 1.041 -3.172
9.495500 1.031 -3.137
9.507000 1.02 -3.099
9.518500 1.01 -3.064
9.530000 0.9984 -3.028
9.541500 0.989 -2.993
9.553000 0.98 -2.954
9.564500 0.9682 -2.918
9.576000 0.9622 -2.88
9.587500 0.9534 -2.846
9.599000 0.9448 -2.808
9.610500 0.9368 -2.771
9.622000 0.9302 -2.736
9.633500 0.9226 -2.698
9.645000 0.916 -2.661
9.656500 0.909 -2.624
9.668000 0.902 -2.587
9.679500 0.8966 -2.551
9.691000 0.8918 -2.513
9.702500 0.8858 -2.476
9.714000 0.8802 -2.438
9.725500 0.8774 -2.4
9.737000 0.8714 -2.364
9.748500 0.8668 -2.327
9.760000 0.8628 -2.29
9.771500 0.8594 -2.253
9.783000 0.8556 -2.216
9.794500 0.853 -2.178
9.806000 0.8496 -2.141
9.817500 0.8466 -2.104
9.829000 0.8454 -2.067
9.840500 0.842 -2.029
9.852000 0.8412 -1.992
9.863500 0.8394 -1.955
9.875000 0.8376 -1.917
9.886500 0.8364 -1.88
9.898000 0.8348 -1.842
9.909500 0.834 -1.805
9.921000 0.8336 -1.767
9.932500 0.833 -1.729
9.944000 0.8326 -1.691
9.955500 0.834 -1.651
9.967000 0.8328 -1.618
9.978500 0.8322 -1.579
9.990000 0.833 -1.541
10.001500 0.834 -1.503
10.013000 0.8342 -1.465
10.024500 0.8352 -1.426
10.036000 0.836 -1.388
10.047500 0.8376 -1.349
10.059000 0.8394 -1.31
10.070500 0.8408 -1.271
10.082000 0.8428 -1.232
10.093500 0.845 -1.193
10.105000 0.8468 -1.154
10.116500 0.8486 -1.115
10.128000 0.8516 -1.075
10.139500 0.8544 -1.035
10.151000 0.857 -0.9944
10.162500 0.8604 -0.9542
10.174000 0.8636 -0.9142
10.185500 0.867 -0.8732
10.197000 0.8704 -0.8326
10.208500 0.8742 -0.7914
10.220000 0.8786 -0.7498
10.231500 0.883 -0.7082
10.243000 0.887 -0.6668
10.254500 0.8918 -0.6244
10.266000 0.896 -0.583
10.277500 0.9012 -0.5398
10.289000 0.9064 -0.4968
10.300500 0.9118 -0.454
10.312000 0.9174 -0.4104
10.323500 0.9234 -0.367
10.335000 0.9296 -0.3232
10.346500 0.9356 -0.279
10.358000 0.9422 -0.2346
10.369500 0.9488 -0.19
10.381000 0.9554 -0.1446
10.392500 0.9626 -0.0996
10.404000 0.9704 -0.0538
10.415500 0.9782 -0.0078
10.427000 0.9864 0.0388
10.438500 0.9946 0.0854
10.450000 1.003 0.1324
10.461500 1.012 0.1796
10.473000 1.022 0.2278
10.484500 1.031 0.2754
10.496000 1.041 0.3244
10.507500 1.051 0.3732
10.519000 1.062 0.4222
10.530500 1.073 0.472
10.542000 1.085 0.5224
10.553500 1.097 0.573
10.565000 1.109 0.6236
10.576500 1.122 0.6752
10.588000 1.135 0.7274
10.599500 1.15 0.7804
10.611000 1.163 0.8338
10.622500 1.178 0.8874
10.634000 1.193 0.941
10.645500 1.209 0.9956
10.657000 1.225 1.051
10.668500 1.243 1.107
10.680000 1.26 1.164
10.691500 1.278 1.221
10.703000 1.296 1.278
10.714500 1.316 1.337
10.726000 1.336 1.397
10.737500 1.357 1.457
10.749000 1.378 1.517
10.760500 1.4 1.578
10.772000 1.422 1.641
10.783500 1.446 1.703
10.795000 1.47 1.767
10.806500 1.495 1.832
10.818000 1.521 1.898
10.829500 1.549 1.965
10.841000 1.576 2.032
10.852500 1.605 2.1
10.864000 1.636 2.169
10.875500 1.666 2.239
10.887000 1.698 2.312
10.898500 1.732 2.383
10.910000 1.767 2.457
10.921500 1.803 2.533
10.933000 1.841 2.606
10.944500 1.88 2.684
10.956000 1.92 2.762
10.967500 1.962 2.843
10.979000 2.006 2.924
10.990500 2.053 3.004
11.002000 2.096 3.087
11.013500 2.149 3.172
11.025000 2.199 3.258
11.036500 2.253 3.346
11.048000 2.307 3.434
11.059500 2.367 3.523
11.071000 2.428 3.61
11.082500 2.491 3.704
11.094000 2.557 3.796
11.105500 2.626 3.89
11.117000 2.697 3.99
11.128500 2.772 4.088
11.140000 2.849 4.181
11.151500 2.932 4.28
11.163000 3.017 4.383
11.174500 3.104 4.488
11.186000 3.201 4.588
11.197500 3.294 4.693
11.209000 3.393 4.796
11.220500 3.498 4.904
11.232000 3.609 5.008
11.243500 3.726 5.112
11.255000 3.84 5.227
11.266500 3.976 5.338
11.278000 4.098 5.439
11.289500 4.238 5.545
11.301000 4.385 5.656
11.312500 4.539 5.767
11.324000 4.698 5.88
11.335500 4.857 5.994
11.347000 5.03 6.099
11.358500 5.205 6.189
11.370000 5.389 6.303
11.381500 5.581 6.406
11.393000 5.793 6.512
11.404500 6.002 6.614
11.416000 6.219 6.71
11.427500 6.445 6.802
11.439000 6.698 6.885
11.450500 6.949 6.974
11.462000 7.204 7.063
11.473500 7.473 7.124
11.485000 7.759 7.199
11.496500 8.059 7.245
11.508000 8.347 7.275
11.519500 8.657 7.306
11.531000 8.998 7.354
11.542500 9.327 7.373
11.554000 9.693 7.368
11.565500 10.04 7.343
11.577000 10.39 7.303
11.588500 10.78 7.268
11.600000 11.16 7.2
11.611500 11.55 7.119
11.623000 11.94 7.028
11.634500 12.35 6.896
11.646000 12.75 6.72
11.657500 13.16 6.527
11.669000 13.56 6.339
11.680500 13.96 6.145
11.692000 14.38 5.843
11.703500 14.78 5.567
11.715000 15.12 5.256
11.726500 15.47 4.889
11.738000 15.86 4.545
11.749500 16.2 4.174
11.761000 16.51 3.763
11.772500 16.79 3.282
11.784000 17.1 2.814
11.795500 17.31 2.368
11.807000 17.49 1.837
11.818500 17.72 1.348
11.830000 17.87 0.8238
11.841500 17.93 0.4814
11.853000 18.03 -0.2554
11.864500 18.07 -0.7726
11.876000 18.09 -1.329
11.887500 18.13 -1.889
11.899000 18.07 -2.434
11.910500 17.97 -2.931
11.922000 17.84 -3.435
11.933500 17.72 -3.968
11.945000 17.52 -4.386
11.956500 17.36 -4.864
11.968000 17.15 -5.349
11.979500 16.92 -5.785
11.991000 16.65 -6.144
12.002500 16.36 -6.542
12.014000 16.1 -6.883
12.025500 15.81 -7.225
12.037000 15.47 -7.536
12.048500 15.2 -7.833
12.060000 14.87 -8.126
12.071500 14.56 -8.351
12.083000 14.22 -8.563
12.094500 13.89 -8.764
12.106000 13.58 -8.946
12.117500 13.25 -9.148
12.129000 12.94 -9.288
12.140500 12.61 -9.398
12.152000 12.31 -9.561
12.163500 11.98 -9.608
12.175000 11.68 -9.691
12.186500 11.39 -9.782
12.198000 11.11 -9.861
12.209500 10.82 -9.914
12.221000 10.54 -9.947
12.232500 10.28 -9.974
12.244000 9.998 -9.99
12.255500 9.76 -10
12.267000 9.514 -10.01
12.278500 9.249 -10.01
12.290000 9.014 -9.998
12.301500 8.814 -9.985
12.313000 8.569 -9.967
12.324500 8.37 -9.953
12.336000 8.152 -9.917
12.347500 7.958 -9.884
12.359000 7.753 -9.846
12.370500 7.555 -9.821
12.382000 7.379 -9.754
12.393500 7.196 -9.732
12.405000 7.019 -9.67
12.416500 6.863 -9.613
12.428000 6.687 -9.572
12.439500 6.537 -9.513
12.451000 6.384 -9.438
12.462500 6.226 -9.395
12.474000 6.084 -9.324
12.485500 5.965 -9.263
12.497000 5.83 -9.214
12.508500 5.688 -9.16
12.520000 5.569 -9.077
12.531500 5.445 -9.004
12.543000 5.32 -8.944
12.554500 5.219 -8.884
12.566000 5.103 -8.811
12.577500 4.992 -8.725
12.589000 4.892 -8.689
12.600500 4.798 -8.61
12.612000 4.699 -8.541
12.623500 4.614 -8.48
12.635000 4.508 -8.425
12.646500 4.428 -8.353
12.658000 4.344 -8.272
12.669500 4.258 -8.22
12.681000 4.172 -8.146
12.692500 4.104 -8.086
12.704000 4.031 -8.019
12.715500 3.953 -7.947
12.727000 3.888 -7.876
12.738500 3.818 -7.817
12.750000 3.755 -7.745
12.761500 3.686 -7.685
12.773000 3.632 -7.607
12.784500 3.565 -7.553
12.796000 3.508 -7.489
12.807500 3.452 -7.428
12.819000 3.397 -7.364
12.830500 3.338 -7.303
12.842000 3.297 -7.243
12.853500 3.245 -7.168
12.865000 3.192 -7.113
12.876500 3.149 -7.049
12.888000 3.102 -6.987
12.899500 3.06 -6.927
12.911000 3.017 -6.868
12.922500 2.975 -6.81
12.934000 2.946 -6.747
12.945500 2.902 -6.694
12.957000 2.857 -6.63
12.968500 2.827 -6.571
12.980000 2.795 -6.51
12.991500 2.761 -6.461
13.003000 2.732 -6.401
13.014500 2.695 -6.343
13.026000 2.669 -6.291
13.037500 2.645 -6.243
13.049000 2.609 -6.178
13.060500 2.585 -6.122
13.072000 2.56 -6.067
13.083500 2.532 -6.01
13.095000 2.509 -5.963
13.106500 2.481 -5.908
13.118000 2.463 -5.855
13.129500 2.438 -5.801
13.141000 2.42 -5.749
13.152500 2.404 -5.698
13.164000 2.378 -5.647
13.175500 2.359 -5.595
13.187000 2.349 -5.536
13.198500 2.326 -5.494
13.210000 2.315 -5.445
13.221500 2.302 -5.394
13.233000 2.285 -5.344
13.244500 2.27 -5.294
13.256000 2.262 -5.25
13.267500 2.247 -5.199
13.279000 2.239 -5.151
13.290500 2.224 -5.105
13.302000 2.217 -5.054
13.313500 2.207 -5.006
13.325000 2.197 -4.962
13.336500 2.191 -4.915
13.348000 2.18 -4.871
13.359500 2.179 -4.821
13.371000 2.17 -4.776
13.382500 2.164 -4.729
13.394000 2.159 -4.689
13.405500 2.155 -4.643
13.417000 2.152 -4.599
13.428500 2.15 -4.551
13.440000 2.147 -4.509
13.451500 2.143 -4.464
13.463000 2.145 -4.42
13.474500 2.143 -4.376
13.486000 2.144 -4.332
13.497500 2.145 -4.29
13.509000 2.147 -4.249
13.520500 2.15 -4.206
13.532000 2.151 -4.163
13.543500 2.156 -4.12
13.555000 2.159 -4.078
13.566500 2.161 -4.036
13.578000 2.171 -3.997
13.589500 2.176 -3.953
13.601000 2.184 -3.912
13.612500 2.188 -3.873
13.624000 2.197 -3.832
13.635500 2.209 -3.788
13.647000 2.216 -3.751
13.658500 2.227 -3.711
13.670000 2.235 -3.671
13.681500 2.247 -3.631
13.693000 2.258 -3.594
13.704500 2.273 -3.553
13.716000 2.287 -3.517
13.727500 2.303 -3.478
13.739000 2.314 -3.439
13.750500 2.333 -3.401
13.762000 2.349 -3.363
13.773500 2.366 -3.326
13.785000 2.384 -3.287
13.796500 2.405 -3.261
13.808000 2.423 -3.216
13.819500 2.446 -3.178
13.831000 2.463 -3.144
13.842500 2.488 -3.108
13.854000 2.511 -3.074
13.865500 2.534 -3.039
13.877000 2.561 -3.004
13.888500 2.584 -2.973
13.900000 2.613 -2.937
13.911500 2.64 -2.905
13.923000 2.669 -2.87
13.934500 2.697 -2.839
13.946000 2.73 -2.808
13.957500 2.763 -2.777
13.969000 2.795 -2.747
13.980500 2.828 -2.718
13.992000 2.862 -2.687
14.003500 2.899 -2.659
14.015000 2.934 -2.631
14.026500 2.973 -2.606
14.038000 3.015 -2.577
14.049500 3.052 -2.554
14.061000 3.096 -2.53
14.072500 3.137 -2.506
14.084000 3.181 -2.481
14.095500 3.226 -2.462
14.107000 3.273 -2.444
14.118500 3.318 -2.425
14.130000 3.369 -2.406
14.141500 3.419 -2.391
14.153000 3.469 -2.375
14.164500 3.519 -2.363
14.176000 3.574 -2.352
14.187500 3.629 -2.343
14.199000 3.682 -2.333
14.210500 3.738 -2.328
14.222000 3.797 -2.324
14.233500 3.857 -2.322
14.245000 3.918 -2.324
14.256500 3.976 -2.326
14.268000 4.037 -2.331
14.279500 4.101 -2.34
14.291000 4.162 -2.349
14.302500 4.226 -2.361
14.314000 4.288 -2.377
14.325500 4.351 -2.397
14.337000 4.419 -2.416
14.348500 4.484 -2.443
14.360000 4.542 -2.47
14.371500 4.61 -2.506
14.383000 4.675 -2.539
14.394500 4.74 -2.581
14.406000 4.799 -2.622
14.417500 4.863 -2.668
14.429000 4.924 -2.715
14.440500 4.982 -2.769
14.452000 5.035 -2.83
14.463500 5.098 -2.891
14.475000 5.142 -2.951
14.486500 5.197 -3.018
14.498000 5.249 -3.089
14.509500 5.293 -3.171
14.521000 5.329 -3.237
14.532500 5.371 -3.324
14.544000 5.402 -3.412
14.555500 5.432 -3.495
14.567000 5.456 -3.583
14.578500 5.476 -3.676
14.590000 5.496 -3.769
14.601500 5.503 -3.857
14.613000 5.532 -3.951
14.624500 5.515 -4.055
14.636000 5.509 -4.151
14.647500 5.498 -4.238
14.659000 5.485 -4.34
14.670500 5.469 -4.448
14.682000 5.444 -4.538
14.693500 5.416 -4.627
14.705000 5.376 -4.723
14.716500 5.338 -4.811
14.728000 5.295 -4.9
14.739500 5.247 -4.983
14.751000 5.202 -5.07
14.762500 5.143 -5.147
14.774000 5.091 -5.23
14.785500 5.018 -5.298
14.797000 4.956 -5.373
14.808500 4.886 -5.44
14.820000 4.823 -5.51
14.831500 4.747 -5.559
14.843000 4.672 -5.611
14.854500 4.591 -5.668
14.866000 4.522 -5.709
14.877500 4.44 -5.751
14.889000 4.363 -5.796
14.900500 4.285 -5.831
14.912000 4.2 -5.865
14.923500 4.12 -5.889
14.935000 4.039 -5.911
14.946500 3.964 -5.935
14.958000 3.883 -5.945
14.969500 3.808 -5.967
14.981000 3.723 -5.977
14.992500 3.642 -5.99
15.004000 3.573 -5.989
15.015500 3.495 -5.996
15.027000 3.42 -6
15.038500 3.347 -5.998
15.050000 3.276 -5.989
15.061500 3.21 -5.984
15.073000 3.138 -5.985
15.084500 3.066 -5.971
15.096000 3.002 -5.956
15.107500 2.937 -5.946
15.119000 2.874 -5.935
15.130500 2.815 -5.916
15.142000 2.755 -5.901
15.153500 2.689 -5.877
15.165000 2.635 -5.863
15.176500 2.574 -5.839
15.188000 2.525 -5.82
15.199500 2.467 -5.799
15.211000 2.412 -5.771
15.222500 2.362 -5.761
15.234000 2.311 -5.726
15.245500 2.26 -5.7
15.257000 2.219 -5.672
15.268500 2.174 -5.645
15.280000 2.121 -5.62
15.291500 2.078 -5.589
15.303000 2.039 -5.563
15.314500 1.998 -5.537
15.326000 1.955 -5.504
15.337500 1.913 -5.473
15.349000 1.873 -5.444
15.360500 1.841 -5.416
15.372000 1.803 -5.383
15.383500 1.765 -5.356
15.395000 1.73 -5.326
15.406500 1.7 -5.294
15.418000 1.667 -5.264
15.429500 1.634 -5.234
15.441000 1.602 -5.203
15.452500 1.573 -5.172
15.464000 1.538 -5.142
15.475500 1.514 -5.11
15.487000 1.485 -5.079
15.498500 1.456 -5.046
15.510000 1.431 -5.015
15.521500 1.402 -4.986
15.533000 1.381 -4.951
15.544500 1.355 -4.923
15.556000 1.329 -4.894
15.567500 1.305 -4.862
15.579000 1.285 -4.83
15.590500 1.261 -4.8
15.602000 1.241 -4.769
15.613500 1.218 -4.738
15.625000 1.194 -4.707
15.636500 1.181 -4.677
15.648000 1.161 -4.649
15.659500 1.142 -4.617
15.671000 1.122 -4.585
15.682500 1.103 -4.557
15.694000 1.087 -4.523
15.705500 1.07 -4.496
15.717000 1.053 -4.464
15.728500 1.035 -4.437
15.740000 1.019 -4.407
15.751500 1.007 -4.375
15.763000 0.9902 -4.349
15.774500 0.9764 -4.318
15.786000 0.962 -4.29
15.797500 0.948 -4.261
15.809000 0.9326 -4.232
15.820500 0.9208 -4.204
15.832000 0.9096 -4.176
15.843500 0.8936 -4.146
15.855000 0.8824 -4.117
15.866500 0.871 -4.088
15.878000 0.8598 -4.058
15.889500 0.8476 -4.032
15.901000 0.8364 -4.002
15.912500 0.824 -3.974
15.924000 0.8154 -3.946
15.935500 0.806 -3.917
15.947000 0.795 -3.891
15.958500 0.7858 -3.862
15.970000 0.7758 -3.834
15.981500 0.7668 -3.808
15.993000 0.7594 -3.778
16.004500 0.7494 -3.752
16.016000 0.7424 -3.725
16.027500 0.7318 -3.697
16.039000 0.7252 -3.672
16.050500 0.7178 -3.643
16.062000 0.7084 -3.616
16.073500 0.7016 -3.588
16.085000 0.6932 -3.562
16.096500 0.6866 -3.534
16.108000 0.6804 -3.507
16.119500 0.6726 -3.479
16.131000 0.6652 -3.455
16.142500 0.659 -3.428
16.154000 0.6534 -3.4
16.165500 0.6474 -3.375
16.177000 0.6406 -3.348
16.188500 0.634 -3.321
16.200000 0.6296 -3.295
16.211500 0.6226 -3.269
16.223000 0.6182 -3.242
16.234500 0.6142 -3.215
16.246000 0.6084 -3.19
16.257500 0.6042 -3.165
16.269000 0.5996 -3.138
16.280500 0.5936 -3.111
16.292000 0.5896 -3.085
16.303500 0.586 -3.059
16.315000 0.5814 -3.033
16.326500 0.5774 -3.007
16.338000 0.5724 -2.982
16.349500 0.5684 -2.957
16.361000 0.5648 -2.929
16.372500 0.5616 -2.904
16.384000 0.5576 -2.879
16.395500 0.5534 -2.852
16.407000 0.5508 -2.826
16.418500 0.5478 -2.802
16.430000 0.5454 -2.775
16.441500 0.5416 -2.749
16.453000 0.5384 -2.724
16.464500 0.5366 -2.697
16.476000 0.5334 -2.671
16.487500 0.5312 -2.645
16.499000 0.5288 -2.619
16.510500 0.5264 -2.593
16.522000 0.5242 -2.567
16.533500 0.5216 -2.541
16.545000 0.5206 -2.515
16.556500 0.5184 -2.488
16.568000 0.5156 -2.463
16.579500 0.5138 -2.437
16.591000 0.512 -2.41
16.602500 0.5116 -2.384
16.614000 0.5102 -2.359
16.625500 0.5088 -2.332
16.637000 0.5078 -2.305
16.648500 0.5054 -2.278
16.660000 0.5054 -2.253
16.671500 0.5046 -2.226
16.683000 0.504 -2.199
16.694500 0.5026 -2.173
16.706000 0.5022 -2.146
16.717500 0.5018 -2.118
16.729000 0.501 -2.092
16.740500 0.501 -2.064
16.752000 0.5004 -2.038
16.763500 0.5008 -2.01
16.775000 0.4996 -1.982
16.786500 0.5008 -1.955
16.798000 0.5002 -1.928
16.809500 0.5008 -1.899
16.821000 0.501 -1.871
16.832500 0.5012 -1.843
16.844000 0.502 -1.815
16.855500 0.5028 -1.786
16.867000 0.5032 -1.758
16.878500 0.5042 -1.73
16.890000 0.5044 -1.701
16.901500 0.5062 -1.672
16.913000 0.5072 -1.643
16.924500 0.508 -1.614
16.936000 0.5094 -1.585
16.947500 0.5112 -1.555
16.959000 0.5122 -1.526
16.970500 0.514 -1.496
16.982000 0.516 -1.466
16.993500 0.518 -1.435
17.005000 0.5198 -1.405
17.016500 0.5216 -1.374
17.028000 0.524 -1.343
17.039500 0.5262 -1.312
17.051000 0.5284 -1.28
17.062500 0.5306 -1.249
17.074000 0.533 -1.217
17.085500 0.5362 -1.184
17.097000 0.5386 -1.152
17.108500 0.5418 -1.119
