! Touchstone file generated by AntScope2
# MHz Z RI R 50
! Format: Frequency Z-real Z-imaginary (normalized to 50 Ohm)
7.000000 2.388 1.084
7.011500 2.49 1.198
7.023000 2.597 1.314
7.034500 2.712 1.433
7.046000 2.836 1.548
7.057500 2.969 1.666
7.069000 3.106 1.784
7.080500 3.254 1.9
7.092000 3.412 2.018
7.103500 3.582 2.127
7.115000 3.76 2.243
7.126500 3.955 2.35
7.138000 4.158 2.458
7.149500 4.377 2.562
7.161000 4.613 2.653
7.172500 4.857 2.741
7.184000 5.119 2.825
7.195500 5.395 2.894
7.207000 5.691 2.952
7.218500 5.999 2.998
7.230000 6.326 3.013
7.241500 6.662 3.03
7.253000 7.014 3.001
7.264500 7.393 2.956
7.276000 7.782 2.883
7.287500 8.165 2.784
7.299000 8.57 2.631
7.310500 8.967 2.453
7.322000 9.373 2.244
7.333500 9.857 2.019
7.345000 10.13 1.663
7.356500 10.52 1.288
7.368000 10.83 0.938
7.379500 11.16 0.4906
7.391000 11.4 0.0364
7.402500 11.62 -0.482
7.414000 11.78 -1.008
7.425500 11.89 -1.545
7.437000 11.96 -2.106
7.448500 11.93 -2.663
7.460000 11.86 -3.211
7.471500 11.71 -3.731
7.483000 11.56 -4.23
7.494500 11.35 -4.729
7.506000 11.13 -5.148
7.517500 10.81 -5.563
7.529000 10.5 -5.922
7.540500 10.17 -6.25
7.552000 9.823 -6.526
7.563500 9.479 -6.757
7.575000 9.155 -7.041
7.586500 8.736 -7.256
7.598000 8.437 -7.278
7.609500 8.086 -7.382
7.621000 7.753 -7.479
7.632500 7.434 -7.514
7.644000 7.124 -7.553
7.655500 6.844 -7.573
7.667000 6.552 -7.562
7.678500 6.293 -7.555
7.690000 6.029 -7.525
7.701500 5.796 -7.486
7.713000 5.553 -7.433
7.724500 5.332 -7.369
7.736000 5.142 -7.325
7.747500 4.945 -7.255
7.759000 4.764 -7.181
7.770500 4.587 -7.116
7.782000 4.428 -7.042
7.793500 4.27 -6.955
7.805000 4.128 -6.874
7.816500 3.993 -6.79
7.828000 3.868 -6.707
7.839500 3.744 -6.623
7.851000 3.628 -6.543
7.862500 3.519 -6.46
7.874000 3.416 -6.382
7.885500 3.318 -6.298
7.897000 3.229 -6.214
7.908500 3.146 -6.137
7.920000 3.068 -6.055
7.931500 2.987 -5.968
7.943000 2.916 -5.901
7.954500 2.842 -5.821
7.966000 2.783 -5.743
7.977500 2.717 -5.668
7.989000 2.658 -5.594
8.000500 2.598 -5.521
8.012000 2.543 -5.452
8.023500 2.496 -5.381
8.035000 2.443 -5.313
8.046500 2.403 -5.24
8.058000 2.355 -5.176
8.069500 2.31 -5.108
8.081000 2.273 -5.047
8.092500 2.233 -4.979
8.104000 2.196 -4.922
8.115500 2.161 -4.857
8.127000 2.126 -4.8
8.138500 2.096 -4.739
8.150000 2.069 -4.677
8.161500 2.033 -4.621
8.173000 2.007 -4.564
8.184500 1.978 -4.507
8.196000 1.954 -4.443
8.207500 1.926 -4.399
8.219000 1.902 -4.344
8.230500 1.877 -4.291
8.242000 1.857 -4.239
8.253500 1.83 -4.185
8.265000 1.809 -4.135
8.276500 1.788 -4.087
8.288000 1.771 -4.037
8.299500 1.749 -3.988
8.311000 1.729 -3.942
8.322500 1.711 -3.891
8.334000 1.691 -3.844
8.345500 1.673 -3.802
8.357000 1.656 -3.753
8.368500 1.64 -3.709
8.380000 1.624 -3.662
8.391500 1.608 -3.617
8.403000 1.587 -3.574
8.414500 1.573 -3.529
8.426000 1.558 -3.486
8.437500 1.543 -3.44
8.449000 1.526 -3.399
8.460500 1.512 -3.355
8.472000 1.497 -3.313
8.483500 1.481 -3.272
8.495000 1.466 -3.228
8.506500 1.453 -3.186
8.518000 1.438 -3.144
8.529500 1.423 -3.103
8.541000 1.41 -3.061
8.552500 1.397 -3.02
8.564000 1.382 -2.976
8.575500 1.369 -2.933
8.587000 1.356 -2.892
8.598500 1.342 -2.849
8.610000 1.329 -2.808
8.621500 1.316 -2.763
8.633000 1.302 -2.721
8.644500 1.289 -2.677
8.656000 1.278 -2.635
8.667500 1.265 -2.591
8.679000 1.253 -2.549
8.690500 1.241 -2.505
8.702000 1.23 -2.461
8.713500 1.218 -2.418
8.725000 1.208 -2.374
8.736500 1.197 -2.329
8.748000 1.187 -2.284
8.759500 1.176 -2.24
8.771000 1.167 -2.196
8.782500 1.156 -2.152
8.794000 1.148 -2.105
8.805500 1.139 -2.06
8.817000 1.13 -2.012
8.828500 1.123 -1.967
8.840000 1.115 -1.92
8.851500 1.107 -1.873
8.863000 1.1 -1.826
8.874500 1.093 -1.781
8.886000 1.087 -1.733
8.897500 1.081 -1.685
8.909000 1.075 -1.637
8.920500 1.07 -1.59
8.932000 1.065 -1.543
8.943500 1.06 -1.494
8.955000 1.056 -1.446
8.966500 1.052 -1.397
8.978000 1.048 -1.348
8.989500 1.046 -1.298
9.001000 1.042 -1.249
9.012500 1.041 -1.2
9.024000 1.038 -1.15
9.035500 1.036 -1.1
9.047000 1.035 -1.049
9.058500 1.034 -0.9982
9.070000 1.032 -0.9476
9.081500 1.032 -0.896
9.093000 1.031 -0.8448
9.104500 1.031 -0.793
9.116000 1.031 -0.7416
9.127500 1.032 -0.6894
9.139000 1.033 -0.6366
9.150500 1.034 -0.5834
9.162000 1.036 -0.5306
9.173500 1.038 -0.4766
9.185000 1.04 -0.4232
9.196500 1.042 -0.3692
9.208000 1.044 -0.315
9.219500 1.047 -0.26
9.231000 1.05 -0.205
9.242500 1.054 -0.1496
9.254000 1.058 -0.0938
9.265500 1.062 -0.0378
9.277000 1.066 0.0194
9.288500 1.071 0.0758
9.300000 1.076 0.1332
9.311500 1.082 0.191
9.323000 1.088 0.2492
9.334500 1.093 0.3078
9.346000 1.1 0.3682
9.357500 1.107 0.427
9.369000 1.114 0.4874
9.380500 1.122 0.5484
9.392000 1.13 0.61
9.403500 1.138 0.6728
9.415000 1.147 0.7358
9.426500 1.156 0.799
9.438000 1.166 0.8638
9.449500 1.177 0.9288
9.461000 1.187 0.9946
9.472500 1.199 1.061
9.484000 1.21 1.129
9.495500 1.222 1.197
9.507000 1.236 1.267
9.518500 1.249 1.337
9.530000 1.263 1.409
9.541500 1.278 1.48
9.553000 1.293 1.554
9.564500 1.31 1.629
9.576000 1.326 1.704
9.587500 1.343 1.781
9.599000 1.361 1.859
9.610500 1.38 1.939
9.622000 1.399 2.02
9.633500 1.42 2.102
9.645000 1.441 2.186
9.656500 1.464 2.271
9.668000 1.488 2.356
9.679500 1.512 2.442
9.691000 1.537 2.533
9.702500 1.564 2.625
9.714000 1.593 2.719
9.725500 1.621 2.812
9.737000 1.652 2.911
9.748500 1.687 3.008
9.760000 1.711 3.102
9.771500 1.745 3.224
9.783000 1.789 3.32
9.794500 1.83 3.424
9.806000 1.868 3.538
9.817500 1.91 3.649
9.829000 1.957 3.76
9.840500 2.003 3.879
9.852000 2.051 4.001
9.863500 2.105 4.123
9.875000 2.159 4.251
9.886500 2.213 4.379
9.898000 2.273 4.513
9.909500 2.343 4.649
9.921000 2.407 4.786
9.932500 2.476 4.935
9.944000 2.551 5.077
9.955500 2.63 5.226
9.967000 2.717 5.382
9.978500 2.797 5.541
9.990000 2.9 5.697
10.001500 2.996 5.867
10.013000 3.097 6.038
10.024500 3.207 6.208
10.036000 3.327 6.394
10.047500 3.461 6.582
10.059000 3.596 6.771
10.070500 3.738 6.963
10.082000 3.888 7.167
10.093500 4.054 7.373
10.105000 4.237 7.578
10.116500 4.422 7.789
10.128000 4.622 8.018
10.139500 4.831 8.239
10.151000 5.059 8.457
10.162500 5.3 8.706
10.174000 5.556 8.939
10.185500 5.85 9.18
10.197000 6.153 9.415
10.208500 6.466 9.661
10.220000 6.809 9.906
10.231500 7.195 10.15
10.243000 7.6 10.41
10.254500 8.031 10.64
10.266000 8.479 10.86
10.277500 8.983 11.12
10.289000 9.523 11.31
10.300500 10.09 11.53
10.312000 10.7 11.71
10.323500 11.4 11.84
10.335000 12.1 12.02
10.346500 12.87 12.07
10.358000 13.65 12.11
10.369500 14.48 12.09
10.381000 15.32 12.08
10.392500 16.28 11.88
10.404000 17.25 11.66
10.415500 18.19 11.38
10.427000 19.14 10.96
10.438500 20.14 10.47
10.450000 21.05 9.812
10.461500 22.09 9.115
10.473000 22.99 8.174
10.484500 23.78 7.274
10.496000 24.49 6.26
10.507500 25.05 5.125
10.519000 25.7 3.883
10.530500 25.94 2.642
10.542000 26.35 1.307
10.553500 26.37 0.0624
10.565000 26.38 -1.187
10.576500 26.27 -2.514
10.588000 26.01 -3.739
10.599500 25.64 -4.949
10.611000 25.17 -5.985
10.622500 24.67 -7.102
10.634000 24.02 -7.948
10.645500 23.35 -8.732
10.657000 22.73 -9.548
10.668500 21.92 -10.21
10.680000 21.17 -10.76
10.691500 20.5 -11.28
10.703000 19.77 -11.74
10.714500 19.02 -12.05
10.726000 18.42 -12.32
10.737500 17.64 -12.62
10.749000 16.95 -12.77
10.760500 16.31 -12.94
10.772000 15.7 -13.07
10.783500 15.11 -13.17
10.795000 14.56 -13.22
10.806500 13.98 -13.23
10.818000 13.54 -13.26
10.829500 13.02 -13.26
10.841000 12.54 -13.18
10.852500 12.11 -13.17
10.864000 11.68 -13.11
10.875500 11.28 -13.07
10.887000 10.9 -12.99
10.898500 10.57 -12.9
10.910000 10.19 -12.8
10.921500 9.868 -12.72
10.933000 9.56 -12.63
10.944500 9.28 -12.52
10.956000 8.977 -12.43
10.967500 8.704 -12.33
10.979000 8.459 -12.23
10.990500 8.225 -12.11
11.002000 7.978 -12.02
11.013500 7.729 -11.92
11.025000 7.525 -11.8
11.036500 7.29 -11.72
11.048000 7.113 -11.6
11.059500 6.937 -11.49
11.071000 6.745 -11.4
11.082500 6.561 -11.29
11.094000 6.378 -11.18
11.105500 6.219 -11.11
11.117000 6.072 -10.99
11.128500 5.9 -10.87
11.140000 5.765 -10.79
11.151500 5.619 -10.7
11.163000 5.491 -10.6
11.174500 5.36 -10.49
11.186000 5.238 -10.42
11.197500 5.126 -10.32
11.209000 4.992 -10.22
11.220500 4.892 -10.13
11.232000 4.779 -10.04
11.243500 4.676 -9.95
11.255000 4.58 -9.864
11.266500 4.475 -9.781
11.278000 4.384 -9.691
11.289500 4.286 -9.608
11.301000 4.196 -9.529
11.312500 4.104 -9.446
11.324000 4.024 -9.373
11.335500 3.935 -9.284
11.347000 3.855 -9.208
11.358500 3.775 -9.13
11.370000 3.707 -9.044
11.381500 3.628 -8.983
11.393000 3.547 -8.912
11.404500 3.488 -8.821
11.416000 3.418 -8.748
11.427500 3.35 -8.672
11.439000 3.279 -8.598
11.450500 3.23 -8.528
11.462000 3.165 -8.459
11.473500 3.108 -8.392
11.485000 3.043 -8.313
11.496500 2.993 -8.248
11.508000 2.941 -8.18
11.519500 2.886 -8.12
11.531000 2.854 -8.045
11.542500 2.787 -7.983
11.554000 2.731 -7.913
11.565500 2.682 -7.85
11.577000 2.636 -7.78
11.588500 2.59 -7.715
11.600000 2.546 -7.66
11.611500 2.507 -7.594
11.623000 2.46 -7.528
11.634500 2.423 -7.473
11.646000 2.381 -7.405
11.657500 2.338 -7.345
11.669000 2.3 -7.283
11.680500 2.267 -7.229
11.692000 2.233 -7.162
11.703500 2.193 -7.111
11.715000 2.158 -7.051
11.726500 2.13 -6.991
11.738000 2.095 -6.933
11.749500 2.06 -6.876
11.761000 2.028 -6.823
11.772500 2.003 -6.768
11.784000 1.97 -6.707
11.795500 1.936 -6.652
11.807000 1.909 -6.599
11.818500 1.886 -6.546
11.830000 1.861 -6.486
11.841500 1.83 -6.455
11.853000 1.805 -6.383
11.864500 1.785 -6.329
11.876000 1.755 -6.28
11.887500 1.735 -6.232
11.899000 1.708 -6.173
11.910500 1.686 -6.125
11.922000 1.669 -6.073
11.933500 1.648 -6.02
11.945000 1.628 -5.976
11.956500 1.602 -5.927
11.968000 1.585 -5.875
11.979500 1.572 -5.826
11.991000 1.547 -5.777
12.002500 1.535 -5.73
12.014000 1.515 -5.685
12.025500 1.496 -5.633
12.037000 1.48 -5.587
12.048500 1.466 -5.539
12.060000 1.452 -5.492
12.071500 1.436 -5.444
12.083000 1.421 -5.401
12.094500 1.407 -5.356
12.106000 1.396 -5.311
12.117500 1.385 -5.261
12.129000 1.369 -5.22
12.140500 1.357 -5.173
12.152000 1.345 -5.13
12.163500 1.335 -5.085
12.175000 1.32 -5.042
12.186500 1.311 -4.995
12.198000 1.303 -4.953
12.209500 1.294 -4.911
12.221000 1.283 -4.867
12.232500 1.274 -4.824
12.244000 1.264 -4.781
12.255500 1.259 -4.737
12.267000 1.249 -4.696
12.278500 1.239 -4.653
12.290000 1.234 -4.614
12.301500 1.228 -4.567
12.313000 1.221 -4.527
12.324500 1.214 -4.489
12.336000 1.211 -4.445
12.347500 1.205 -4.404
12.359000 1.196 -4.363
12.370500 1.194 -4.324
12.382000 1.187 -4.28
12.393500 1.186 -4.24
12.405000 1.18 -4.203
12.416500 1.176 -4.16
12.428000 1.173 -4.122
12.439500 1.169 -4.083
12.451000 1.167 -4.043
12.462500 1.164 -4.005
12.474000 1.166 -3.963
12.485500 1.163 -3.923
12.497000 1.158 -3.884
12.508500 1.16 -3.848
12.520000 1.158 -3.807
12.531500 1.159 -3.77
12.543000 1.157 -3.731
12.554500 1.159 -3.691
12.566000 1.161 -3.655
12.577500 1.161 -3.615
12.589000 1.161 -3.576
12.600500 1.163 -3.54
12.612000 1.165 -3.502
12.623500 1.165 -3.46
12.635000 1.17 -3.425
12.646500 1.174 -3.388
12.658000 1.177 -3.348
12.669500 1.179 -3.31
12.681000 1.183 -3.272
12.692500 1.188 -3.235
12.704000 1.192 -3.198
12.715500 1.197 -3.16
12.727000 1.203 -3.121
12.738500 1.209 -3.085
12.750000 1.215 -3.048
12.761500 1.22 -3.011
12.773000 1.228 -2.974
12.784500 1.233 -2.936
12.796000 1.243 -2.897
12.807500 1.249 -2.862
12.819000 1.258 -2.823
12.830500 1.268 -2.786
12.842000 1.277 -2.75
12.853500 1.286 -2.712
12.865000 1.296 -2.675
12.876500 1.306 -2.637
12.888000 1.318 -2.601
12.899500 1.327 -2.565
12.911000 1.339 -2.526
12.922500 1.352 -2.49
12.934000 1.363 -2.454
12.945500 1.377 -2.415
12.957000 1.391 -2.38
12.968500 1.405 -2.341
12.980000 1.421 -2.306
12.991500 1.436 -2.268
13.003000 1.451 -2.23
13.014500 1.469 -2.194
13.026000 1.486 -2.157
13.037500 1.504 -2.119
13.049000 1.521 -2.083
13.060500 1.54 -2.047
13.072000 1.56 -2.01
13.083500 1.579 -1.973
13.095000 1.599 -1.936
13.106500 1.621 -1.9
13.118000 1.643 -1.863
13.129500 1.665 -1.827
13.141000 1.689 -1.79
13.152500 1.712 -1.754
13.164000 1.738 -1.719
13.175500 1.764 -1.683
13.187000 1.793 -1.649
13.198500 1.815 -1.611
13.210000 1.846 -1.576
13.221500 1.876 -1.541
13.233000 1.905 -1.506
13.244500 1.936 -1.471
13.256000 1.968 -1.436
13.267500 2 -1.403
13.279000 2.033 -1.368
13.290500 2.067 -1.336
13.302000 2.104 -1.303
13.313500 2.141 -1.269
13.325000 2.178 -1.237
13.336500 2.217 -1.205
13.348000 2.258 -1.175
13.359500 2.298 -1.144
13.371000 2.34 -1.114
13.382500 2.383 -1.086
13.394000 2.429 -1.056
13.405500 2.474 -1.029
13.417000 2.522 -1.001
13.428500 2.572 -0.976
13.440000 2.621 -0.9506
13.451500 2.671 -0.9268
13.463000 2.724 -0.9044
13.474500 2.777 -0.8842
13.486000 2.831 -0.862
13.497500 2.89 -0.8452
13.509000 2.947 -0.8264
13.520500 3.007 -0.8096
13.532000 3.069 -0.796
13.543500 3.132 -0.7856
13.555000 3.193 -0.7736
13.566500 3.259 -0.7666
13.578000 3.324 -0.76
13.589500 3.391 -0.7612
13.601000 3.46 -0.7566
13.612500 3.529 -0.7592
13.624000 3.599 -0.7612
13.635500 3.668 -0.7704
13.647000 3.738 -0.7826
13.658500 3.811 -0.7928
13.670000 3.883 -0.8072
13.681500 3.953 -0.8302
13.693000 4.023 -0.854
13.704500 4.095 -0.8778
13.716000 4.169 -0.9096
13.727500 4.238 -0.9386
13.739000 4.307 -0.9768
13.750500 4.374 -1.02
13.762000 4.44 -1.064
13.773500 4.505 -1.112
13.785000 4.572 -1.173
13.796500 4.632 -1.212
13.808000 4.691 -1.278
13.819500 4.75 -1.341
13.831000 4.807 -1.407
13.842500 4.859 -1.478
13.854000 4.902 -1.549
13.865500 4.949 -1.621
13.877000 4.989 -1.703
13.888500 5.026 -1.781
13.900000 5.06 -1.863
13.911500 5.088 -1.95
13.923000 5.112 -2.036
13.934500 5.124 -2.12
13.946000 5.141 -2.203
13.957500 5.147 -2.291
13.969000 5.154 -2.383
13.980500 5.152 -2.468
13.992000 5.148 -2.555
14.003500 5.138 -2.64
14.015000 5.125 -2.719
14.026500 5.106 -2.807
14.038000 5.084 -2.891
14.049500 5.052 -2.967
14.061000 5.018 -3.046
14.072500 4.983 -3.124
14.084000 4.948 -3.193
14.095500 4.914 -3.26
14.107000 4.864 -3.329
14.118500 4.815 -3.387
14.130000 4.77 -3.453
14.141500 4.719 -3.507
14.153000 4.666 -3.567
14.164500 4.606 -3.611
14.176000 4.548 -3.656
14.187500 4.489 -3.706
14.199000 4.436 -3.746
14.210500 4.373 -3.786
14.222000 4.314 -3.817
14.233500 4.248 -3.852
14.245000 4.187 -3.88
14.256500 4.123 -3.903
14.268000 4.065 -3.925
14.279500 4.001 -3.947
14.291000 3.942 -3.963
14.302500 3.879 -3.975
14.314000 3.821 -3.989
14.325500 3.76 -3.999
14.337000 3.699 -4.009
14.348500 3.64 -4.013
14.360000 3.581 -4.014
14.371500 3.52 -4.013
14.383000 3.468 -4.012
14.394500 3.406 -4.014
14.406000 3.352 -4.006
14.417500 3.299 -3.996
14.429000 3.243 -3.991
14.440500 3.193 -3.98
14.452000 3.14 -3.97
14.463500 3.093 -3.957
14.475000 3.04 -3.942
14.486500 2.993 -3.926
14.498000 2.942 -3.91
14.509500 2.9 -3.895
14.521000 2.854 -3.876
14.532500 2.808 -3.855
14.544000 2.764 -3.835
14.555500 2.724 -3.81
14.567000 2.682 -3.789
14.578500 2.643 -3.768
14.590000 2.602 -3.744
14.601500 2.563 -3.716
14.613000 2.526 -3.693
14.624500 2.487 -3.664
14.636000 2.455 -3.634
14.647500 2.422 -3.61
14.659000 2.386 -3.583
14.670500 2.352 -3.552
14.682000 2.319 -3.523
14.693500 2.293 -3.494
14.705000 2.262 -3.462
14.716500 2.23 -3.432
14.728000 2.206 -3.402
14.739500 2.177 -3.371
14.751000 2.148 -3.338
14.762500 2.124 -3.307
14.774000 2.098 -3.273
14.785500 2.074 -3.238
14.797000 2.054 -3.207
14.808500 2.027 -3.174
14.820000 2.006 -3.137
14.831500 1.985 -3.107
14.843000 1.965 -3.073
14.854500 1.945 -3.037
14.866000 1.925 -3
14.877500 1.907 -2.968
14.889000 1.889 -2.934
14.900500 1.872 -2.895
14.912000 1.855 -2.861
14.923500 1.841 -2.825
14.935000 1.825 -2.788
14.946500 1.809 -2.752
14.958000 1.795 -2.717
14.969500 1.783 -2.679
14.981000 1.77 -2.643
14.992500 1.758 -2.604
15.004000 1.747 -2.567
15.015500 1.733 -2.531
15.027000 1.724 -2.491
15.038500 1.713 -2.454
15.050000 1.704 -2.416
15.061500 1.695 -2.379
15.073000 1.686 -2.34
15.084500 1.679 -2.301
15.096000 1.671 -2.263
15.107500 1.664 -2.224
15.119000 1.656 -2.185
15.130500 1.649 -2.147
15.142000 1.645 -2.107
15.153500 1.639 -2.068
15.165000 1.635 -2.027
15.176500 1.629 -1.988
15.188000 1.626 -1.947
15.199500 1.623 -1.906
15.211000 1.621 -1.866
15.222500 1.618 -1.828
15.234000 1.616 -1.784
15.245500 1.613 -1.742
15.257000 1.614 -1.701
15.268500 1.612 -1.658
15.280000 1.612 -1.616
15.291500 1.612 -1.573
15.303000 1.613 -1.531
15.314500 1.614 -1.487
15.326000 1.616 -1.443
15.337500 1.617 -1.398
15.349000 1.619 -1.353
15.360500 1.622 -1.309
15.372000 1.626 -1.264
15.383500 1.63 -1.218
15.395000 1.635 -1.172
15.406500 1.64 -1.126
15.418000 1.645 -1.079
15.429500 1.65 -1.032
15.441000 1.657 -0.9848
15.452500 1.665 -0.9364
15.464000 1.672 -0.8876
15.475500 1.68 -0.838
15.487000 1.688 -0.7892
15.498500 1.698 -0.7388
15.510000 1.707 -0.6876
15.521500 1.717 -0.636
15.533000 1.728 -0.5846
15.544500 1.74 -0.5322
15.556000 1.751 -0.4786
15.567500 1.764 -0.4246
15.579000 1.778 -0.3716
15.590500 1.792 -0.316
15.602000 1.807 -0.2598
15.613500 1.823 -0.2044
15.625000 1.84 -0.147
15.636500 1.857 -0.0892
15.648000 1.875 -0.0312
15.659500 1.894 0.0282
15.671000 1.913 0.0876
15.682500 1.934 0.149
15.694000 1.957 0.2102
15.705500 1.98 0.2734
15.717000 2.003 0.3374
15.728500 2.028 0.4008
15.740000 2.055 0.4664
15.751500 2.083 0.5328
15.763000 2.111 0.6004
15.774500 2.142 0.6698
15.786000 2.173 0.7384
15.797500 2.206 0.8086
15.809000 2.242 0.8808
15.820500 2.278 0.9532
15.832000 2.316 1.028
15.843500 2.354 1.104
15.855000 2.396 1.18
15.866500 2.439 1.259
15.878000 2.485 1.339
15.889500 2.534 1.42
15.901000 2.584 1.503
15.912500 2.636 1.587
15.924000 2.69 1.673
15.935500 2.748 1.759
15.947000 2.808 1.85
15.958500 2.872 1.938
15.970000 2.938 2.033
15.981500 3.008 2.129
15.993000 3.082 2.223
16.004500 3.158 2.32
16.016000 3.238 2.42
16.027500 3.326 2.524
16.039000 3.417 2.627
16.050500 3.512 2.73
16.062000 3.607 2.843
16.073500 3.717 2.948
16.085000 3.828 3.061
16.096500 3.943 3.171
16.108000 4.068 3.291
16.119500 4.199 3.41
16.131000 4.338 3.527
16.142500 4.484 3.649
16.154000 4.638 3.77
16.165500 4.804 3.896
16.177000 4.979 4.016
16.188500 5.162 4.145
16.200000 5.36 4.277
16.211500 5.563 4.397
16.223000 5.785 4.527
16.234500 6.025 4.653
16.246000 6.272 4.778
16.257500 6.534 4.904
16.269000 6.834 5.024
16.280500 7.128 5.133
16.292000 7.452 5.239
16.303500 7.784 5.351
16.315000 8.146 5.432
16.326500 8.534 5.524
16.338000 8.939 5.595
16.349500 9.381 5.645
16.361000 9.836 5.673
16.372500 10.34 5.695
16.384000 10.83 5.668
16.395500 11.39 5.62
16.407000 11.95 5.545
16.418500 12.53 5.409
16.430000 13.15 5.218
16.441500 13.79 5.005
16.453000 14.39 4.724
16.464500 15.09 4.367
16.476000 15.72 3.942
16.487500 16.34 3.449
16.499000 16.98 2.862
16.510500 17.56 2.241
16.522000 18.12 1.504
16.533500 18.59 0.6548
16.545000 19.02 -0.218
16.556500 19.27 -1.16
16.568000 19.51 -2.137
16.579500 19.62 -3.169
16.591000 19.65 -4.165
16.602500 19.54 -5.195
16.614000 19.3 -6.218
16.625500 18.96 -7.132
16.637000 18.56 -8.043
16.648500 18.06 -8.923
16.660000 17.5 -9.656
16.671500 16.87 -10.39
16.683000 16.18 -10.96
16.694500 15.49 -11.46
16.706000 14.83 -11.89
16.717500 14.15 -12.27
16.729000 13.43 -12.54
16.740500 12.76 -12.76
16.752000 12.1 -12.93
16.763500 11.51 -13.01
16.775000 10.86 -13.07
16.786500 10.33 -13.11
16.798000 9.776 -13.11
16.809500 9.231 -13.03
16.821000 8.752 -13
16.832500 8.296 -12.92
16.844000 7.852 -12.79
16.855500 7.454 -12.72
16.867000 7.084 -12.58
16.878500 6.734 -12.46
16.890000 6.374 -12.31
16.901500 6.09 -12.17
16.913000 5.777 -12.03
16.924500 5.5 -11.89
16.936000 5.25 -11.73
16.947500 5.026 -11.6
16.959000 4.8 -11.44
16.970500 4.583 -11.29
16.982000 4.405 -11.14
16.993500 4.202 -11.01
17.005000 4.038 -10.86
17.016500 3.863 -10.73
17.028000 3.702 -10.59
17.039500 3.556 -10.44
17.051000 3.431 -10.31
17.062500 3.29 -10.17
17.074000 3.175 -10.06
17.085500 3.052 -9.926
17.097000 2.931 -9.808
17.108500 2.842 -9.68
17.120000 2.73 -9.567
17.131500 2.643 -9.45
17.143000 2.557 -9.336
17.154500 2.461 -9.221
17.166000 2.389 -9.12
17.177500 2.313 -9.013
17.189000 2.235 -8.906
17.200500 2.168 -8.805
17.212000 2.101 -8.703
17.223500 2.054 -8.61
